 (2025-08-07 21:04:10.164455)  can0  000   [8]  A7 63 A4 14 3A F7 5D D6
 (2025-08-07 21:04:10.164987)  can0  043   [4]  00 EF BF 00
 (2025-08-07 21:04:10.165079)  can0  098   [1]  00
 (2025-08-07 21:04:10.165916)  can0  000   [8]  EF CC 2B FC 4E 66 4D 46
 (2025-08-07 21:04:10.168086)  can0  000   [8]  26 EC 54 A9 0A 62 DE 12
 (2025-08-07 21:04:10.168221)  can0  02F   [2]  CC 00
 (2025-08-07 21:04:10.170354)  can0  000   [8]  61 4D 3A 24 A1 EC 1A 4F
 (2025-08-07 21:04:10.172512)  can0  000   [8]  3B CB F8 4A D7 71 A4 18
 (2025-08-07 21:04:10.174632)  can0  000   [8]  E5 BC C6 A8 B5 92 3A A8
 (2025-08-07 21:04:10.175057)  can0  043   [4]  00 EF BF 00
 (2025-08-07 21:04:10.175136)  can0  098   [1]  00
 (2025-08-07 21:04:10.177618)  can0  000   [8]  C5 54 E4 2D B6 27 9B 47
 (2025-08-07 21:04:10.179033)  can0  000   [8]  79 C2 94 1A 7E 08 11 D6
 (2025-08-07 21:04:10.181291)  can0  000   [8]  93 AC F4 0E B2 23 B8 D9
 (2025-08-07 21:04:10.183208)  can0  02F   [2]  D6 00
 (2025-08-07 21:04:10.183412)  can0  000   [8]  4E 23 56 FB 40 AB 12 EA
 (2025-08-07 21:04:10.185078)  can0  043   [4]  00 EF BF 00
 (2025-08-07 21:04:10.185150)  can0  098   [1]  00
 (2025-08-07 21:04:10.185936)  can0  000   [8]  B9 5B FE E8 C8 1F 94 B5
 (2025-08-07 21:04:10.188124)  can0  000   [8]  96 DE 43 E6 97 4A 4A 27
 (2025-08-07 21:04:10.190265)  can0  000   [8]  57 8E CA 60 4C 9A 39 1B
 (2025-08-07 21:04:10.192914)  can0  000   [8]  27 F0 CC 20 AD E5 A0 08
 (2025-08-07 21:04:10.194300)  can0  000   [8]  3D C4 10 9D D8 51 CE 83
 (2025-08-07 21:04:10.195161)  can0  098   [1]  00
 (2025-08-07 21:04:10.195309)  can0  043   [4]  00 8D 35 00
 (2025-08-07 21:04:10.195466)  can0  043   [4]  00 8D 35 00
 (2025-08-07 21:04:10.195592)  can0  098   [1]  00
 (2025-08-07 21:04:10.196217)  can0  098   [1]  00
 (2025-08-07 21:04:10.196665)  can0  000   [8]  1F 99 51 79 09 F0 48 CB
 (2025-08-07 21:04:10.198645)  can0  02F   [2]  D6 00
 (2025-08-07 21:04:10.199084)  can0  000   [8]  14 10 41 78 C6 22 B1 9B
 (2025-08-07 21:04:10.201830)  can0  000   [8]  3B A6 9A 44 CA 3B DB 1F
 (2025-08-07 21:04:10.203300)  can0  000   [8]  F6 CE 50 4B 8D F1 D1 B1
 (2025-08-07 21:04:10.205021)  can0  043   [4]  00 8D 35 00
 (2025-08-07 21:04:10.205101)  can0  098   [1]  01
 (2025-08-07 21:04:10.205855)  can0  000   [8]  4F 0A 1D A1 40 54 33 72
 (2025-08-07 21:04:10.207993)  can0  000   [8]  F4 30 89 AC AB 5D 1E 88
 (2025-08-07 21:04:10.210171)  can0  000   [8]  56 B2 09 42 5B 7F E2 E4
 (2025-08-07 21:04:10.212249)  can0  000   [8]  38 E9 3D E8 27 D4 36 A0
 (2025-08-07 21:04:10.213637)  can0  02F   [2]  E1 00
 (2025-08-07 21:04:10.214413)  can0  000   [8]  B4 BD 0A E9 AB 9B 1A 64
 (2025-08-07 21:04:10.215230)  can0  043   [4]  00 8D 35 00
 (2025-08-07 21:04:10.215311)  can0  098   [1]  01
 (2025-08-07 21:04:10.216938)  can0  000   [8]  F1 F7 C2 54 89 78 DA C3
 (2025-08-07 21:04:10.219053)  can0  000   [8]  DB 48 8A 30 DB 1D 85 0B
 (2025-08-07 21:04:10.221675)  can0  000   [8]  55 DD 0A 63 CD 33 AD 52
 (2025-08-07 21:04:10.223128)  can0  000   [8]  E1 BE 37 E4 D0 F6 76 B1
 (2025-08-07 21:04:10.225317)  can0  000   [8]  4B FA A9 A1 C4 22 12 65
 (2025-08-07 21:04:10.225819)  can0  043   [4]  00 8D 35 00
 (2025-08-07 21:04:10.225897)  can0  098   [1]  01
 (2025-08-07 21:04:10.227492)  can0  000   [8]  06 EB D7 5A 6D 86 D5 2F
 (2025-08-07 21:04:10.229084)  can0  02F   [2]  E1 00
 (2025-08-07 21:04:10.229866)  can0  000   [8]  13 8E E1 ED A5 5A BD CE
 (2025-08-07 21:04:10.232014)  can0  000   [8]  FB 42 F6 68 6A 77 EB FF
 (2025-08-07 21:04:10.234178)  can0  000   [8]  E6 D2 85 1C F1 AC C8 38
 (2025-08-07 21:04:10.235856)  can0  043   [4]  00 8D 35 00
 (2025-08-07 21:04:10.235935)  can0  098   [1]  01
 (2025-08-07 21:04:10.236488)  can0  000   [8]  4E F3 9A 31 CA AF 75 B1
 (2025-08-07 21:04:10.238745)  can0  000   [8]  FC C9 B4 65 9C 04 F8 6A
 (2025-08-07 21:04:10.241414)  can0  000   [8]  9C 64 E8 93 F8 9D A7 F8
 (2025-08-07 21:04:10.242775)  can0  000   [8]  F2 75 B2 00 4C 39 89 2B
 (2025-08-07 21:04:10.244974)  can0  000   [8]  C9 12 14 36 C8 17 81 D4
 (2025-08-07 21:04:10.245572)  can0  02F   [2]  E1 00
 (2025-08-07 21:04:10.245810)  can0  043   [4]  00 8D 35 00
 (2025-08-07 21:04:10.245922)  can0  098   [1]  01
 (2025-08-07 21:04:10.247337)  can0  000   [8]  A9 63 08 7C 70 03 A0 D8
 (2025-08-07 21:04:10.249899)  can0  000   [8]  4C 6E 53 66 FA F1 BD DF
 (2025-08-07 21:04:10.251974)  can0  000   [8]  EC 61 76 EF BC 67 9A 7A
 (2025-08-07 21:04:10.254075)  can0  000   [8]  CF BA 8D 2F 7E EE 84 BF
 (2025-08-07 21:04:10.256015)  can0  043   [4]  00 8D 35 00
 (2025-08-07 21:04:10.256222)  can0  000   [8]  A1 F8 F0 51 3A A2 8F 57
 (2025-08-07 21:04:10.256346)  can0  098   [1]  01
 (2025-08-07 21:04:10.258593)  can0  000   [8]  61 76 CC 2A BC FC B4 F3
 (2025-08-07 21:04:10.260289)  can0  02F   [2]  EB 00
 (2025-08-07 21:04:10.260834)  can0  000   [8]  FE 13 E5 9E 53 84 CF D4
 (2025-08-07 21:04:10.263054)  can0  000   [8]  77 77 62 98 04 F3 55 A9
 (2025-08-07 21:04:10.265455)  can0  043   [4]  00 8D 35 00
 (2025-08-07 21:04:10.265653)  can0  000   [8]  27 D5 74 63 1E 4E F8 68
 (2025-08-07 21:04:10.265821)  can0  098   [1]  01
 (2025-08-07 21:04:10.267732)  can0  000   [8]  F8 93 AF C5 88 9E E0 91
 (2025-08-07 21:04:10.269605)  can0  000   [8]  86 75 2D 1D 67 A1 B4 12
 (2025-08-07 21:04:10.271019)  can0  000   [8]  2C 80 45 1A F5 4C DD FC
 (2025-08-07 21:04:10.273232)  can0  000   [8]  55 BC 16 60 36 64 8E BC
 (2025-08-07 21:04:10.275371)  can0  000   [8]  4C 30 5A E4 5A CB 73 A7
 (2025-08-07 21:04:10.275572)  can0  043   [4]  00 8D 35 00
 (2025-08-07 21:04:10.275679)  can0  098   [1]  01
 (2025-08-07 21:04:10.276525)  can0  02F   [2]  EB 00
 (2025-08-07 21:04:10.277712)  can0  000   [8]  0F 2B AF CD EB 1E 44 8A
 (2025-08-07 21:04:10.279570)  can0  000   [8]  7F 40 2C 99 7B BB 50 A3
 (2025-08-07 21:04:10.281504)  can0  000   [8]  E4 AF 5B E0 43 63 BE 4A
 (2025-08-07 21:04:10.283376)  can0  000   [8]  11 33 70 1E 91 16 A9 8B
 (2025-08-07 21:04:10.285288)  can0  000   [8]  32 43 89 98 04 2E 33 75
 (2025-08-07 21:04:10.285665)  can0  043   [4]  00 8D 35 00
 (2025-08-07 21:04:10.285767)  can0  098   [1]  01
 (2025-08-07 21:04:10.287162)  can0  000   [8]  8D 6E B6 D8 D4 DD 57 D6
 (2025-08-07 21:04:10.289093)  can0  000   [8]  B2 92 34 6E 19 C2 2D 91
 (2025-08-07 21:04:10.291044)  can0  02F   [2]  EB 00
 (2025-08-07 21:04:10.291407)  can0  000   [8]  CE 8C 79 89 60 83 81 7E
 (2025-08-07 21:04:10.292968)  can0  000   [8]  0E 22 D5 D6 4F 38 48 AB
 (2025-08-07 21:04:10.294816)  can0  000   [8]  8C 7F CE 22 26 0C 6B 50
 (2025-08-07 21:04:10.295816)  can0  043   [4]  00 8D 35 00
 (2025-08-07 21:04:10.295901)  can0  098   [1]  01
 (2025-08-07 21:04:10.296917)  can0  000   [8]  B7 12 FB 85 1C 8C FD 92
 (2025-08-07 21:04:10.298911)  can0  000   [8]  31 1A 89 6D D2 8A 0E 84
 (2025-08-07 21:04:10.301256)  can0  000   [8]  19 B5 64 2E 4B 05 ED B6
 (2025-08-07 21:04:10.302552)  can0  000   [8]  D3 1A 4F 00 BE 78 03 A9
 (2025-08-07 21:04:10.304261)  can0  000   [8]  E0 AE BF 04 2D D1 A2 AD
 (2025-08-07 21:04:10.306041)  can0  000   [8]  1E 8C A5 AE 5A 9B 5B E1
 (2025-08-07 21:04:10.306202)  can0  043   [4]  00 8D 35 00
 (2025-08-07 21:04:10.306312)  can0  098   [1]  01
 (2025-08-07 21:04:10.306603)  can0  02F   [2]  F5 00
 (2025-08-07 21:04:10.307791)  can0  000   [8]  54 24 50 D7 CD 9A D2 EA
 (2025-08-07 21:04:10.309619)  can0  000   [8]  4F 5B 36 4F DB 15 20 8F
 (2025-08-07 21:04:10.311393)  can0  000   [8]  98 FC 32 EE 49 DC 06 EA
 (2025-08-07 21:04:10.313158)  can0  000   [8]  16 16 46 2B 26 76 FB EA
 (2025-08-07 21:04:10.314854)  can0  000   [8]  A2 7E 1C 2B 89 2B 55 BE
 (2025-08-07 21:04:10.316211)  can0  043   [4]  00 8D 35 00
 (2025-08-07 21:04:10.316308)  can0  098   [1]  01
 (2025-08-07 21:04:10.317082)  can0  000   [8]  13 63 AC 10 B0 0B C2 1F
 (2025-08-07 21:04:10.318404)  can0  000   [8]  03 8F 6A D6 9C 6A 38 4A
 (2025-08-07 21:04:10.320236)  can0  000   [8]  6D DE 82 2E DD 0B 09 D3
 (2025-08-07 21:04:10.322073)  can0  000   [8]  28 C2 FE 3B 8E 6B 19 B9
 (2025-08-07 21:04:10.322210)  can0  02F   [2]  F5 00
 (2025-08-07 21:04:10.323822)  can0  000   [8]  C3 83 70 9A 6A C1 18 DA
 (2025-08-07 21:04:10.325614)  can0  000   [8]  C5 98 9B 13 21 2D 8F 1F
 (2025-08-07 21:04:10.325775)  can0  043   [4]  00 8D 35 00
 (2025-08-07 21:04:10.325899)  can0  098   [1]  01
 (2025-08-07 21:04:10.327437)  can0  000   [8]  6A B1 EB 91 10 E3 21 96
 (2025-08-07 21:04:10.329233)  can0  000   [8]  E1 D7 62 63 9A 22 2A 48
 (2025-08-07 21:04:10.331437)  can0  000   [8]  69 EC B4 A2 25 F2 09 1C
 (2025-08-07 21:04:10.332740)  can0  000   [8]  B3 59 FC 9A F0 AD A5 55
 (2025-08-07 21:04:10.334456)  can0  000   [8]  6B 75 F7 07 E7 5C 01 E2
 (2025-08-07 21:04:10.335804)  can0  043   [4]  00 8D 35 00
 (2025-08-07 21:04:10.335927)  can0  098   [1]  01
 (2025-08-07 21:04:10.336157)  can0  000   [8]  7B 27 73 26 02 D3 55 19
 (2025-08-07 21:04:10.337123)  can0  02F   [2]  F5 00
 (2025-08-07 21:04:10.338071)  can0  000   [8]  A1 99 47 AD A8 43 96 5F
 (2025-08-07 21:04:10.340251)  can0  000   [8]  3B DC 4C 30 4E 42 A9 79
 (2025-08-07 21:04:10.341550)  can0  000   [8]  70 75 DC E3 E9 E4 39 9A
 (2025-08-07 21:04:10.343347)  can0  000   [8]  91 F2 CF 3D 8D EB 69 90
 (2025-08-07 21:04:10.345177)  can0  000   [8]  53 95 B2 DF B9 6C F7 4B
 (2025-08-07 21:04:10.346805)  can0  043   [4]  00 8D 35 00
 (2025-08-07 21:04:10.346909)  can0  098   [1]  01
 (2025-08-07 21:04:10.347384)  can0  000   [8]  DA 0E DA 28 93 CD 3F 97
 (2025-08-07 21:04:10.348739)  can0  000   [8]  86 65 09 06 90 8B 81 CF
 (2025-08-07 21:04:10.350472)  can0  000   [8]  3E 4B DD 77 9A CD D4 BB
 (2025-08-07 21:04:10.352201)  can0  02F   [2]  FF 00
 (2025-08-07 21:04:10.352436)  can0  000   [8]  E3 14 A5 5E ED 47 15 2B
 (2025-08-07 21:04:10.354232)  can0  000   [8]  F6 38 41 4B 24 65 8B BC
 (2025-08-07 21:04:10.356008)  can0  000   [8]  BE 60 DD 42 F7 62 F0 7A
 (2025-08-07 21:04:10.356753)  can0  043   [4]  00 8D 35 00
 (2025-08-07 21:04:10.356856)  can0  098   [1]  01
 (2025-08-07 21:04:10.357802)  can0  000   [8]  35 03 0C 0F EE 94 B1 55
 (2025-08-07 21:04:10.359551)  can0  000   [8]  96 A2 15 4A 71 D8 08 97
 (2025-08-07 21:04:10.361322)  can0  000   [8]  F0 46 51 68 75 8F 55 11
 (2025-08-07 21:04:10.363042)  can0  000   [8]  29 CD 2C 33 65 75 20 E9
 (2025-08-07 21:04:10.364866)  can0  000   [8]  35 8B AB 07 E5 2D B0 E7
 (2025-08-07 21:04:10.366787)  can0  043   [4]  00 8D 35 00
 (2025-08-07 21:04:10.366970)  can0  000   [8]  40 D4 D5 C4 02 67 14 D3
 (2025-08-07 21:04:10.367096)  can0  098   [1]  01
 (2025-08-07 21:04:10.368120)  can0  02F   [2]  FF 00
 (2025-08-07 21:04:10.368342)  can0  000   [8]  4C 16 0A D2 0E 8C 2D 7F
 (2025-08-07 21:04:10.370212)  can0  000   [8]  D2 82 7B DD 92 A1 91 56
 (2025-08-07 21:04:10.371946)  can0  000   [8]  82 7A FC 0B CE 70 70 4C
 (2025-08-07 21:04:10.374160)  can0  000   [8]  73 B3 13 D0 D3 87 C5 5E
 (2025-08-07 21:04:10.375502)  can0  000   [8]  9A A3 7F AB 0C 6F 8C 96
 (2025-08-07 21:04:10.376757)  can0  043   [4]  00 8D 35 00
 (2025-08-07 21:04:10.376854)  can0  098   [1]  01
 (2025-08-07 21:04:10.377362)  can0  000   [8]  9F 83 AD 09 1E 6D 33 C1
 (2025-08-07 21:04:10.379400)  can0  000   [8]  15 5D 75 4D 26 E9 6E D8
 (2025-08-07 21:04:10.381243)  can0  000   [8]  37 A8 30 96 7E 35 A1 21
 (2025-08-07 21:04:10.382984)  can0  000   [8]  04 90 1C CF 58 CD 4A 4D
 (2025-08-07 21:04:10.383177)  can0  02F   [2]  FF 00
 (2025-08-07 21:04:10.384850)  can0  000   [8]  B0 7D 9A 8D 77 BC 41 45
 (2025-08-07 21:04:10.386571)  can0  000   [8]  F1 14 34 09 D0 1B D4 02
 (2025-08-07 21:04:10.386825)  can0  043   [4]  00 8D 35 00
 (2025-08-07 21:04:10.386918)  can0  098   [1]  01
 (2025-08-07 21:04:10.388728)  can0  000   [8]  6B 0A 6B A6 99 5D 9F 3E
 (2025-08-07 21:04:10.390028)  can0  000   [8]  60 3D F7 02 4F 8B 51 C0
 (2025-08-07 21:04:10.391748)  can0  000   [8]  DE DA 49 9F 64 7E C9 A7
 (2025-08-07 21:04:10.393548)  can0  000   [8]  19 0C 7D 89 1A 5F 18 B8
 (2025-08-07 21:04:10.395339)  can0  000   [8]  8C A4 21 73 0E 68 EF F1
 (2025-08-07 21:04:10.396803)  can0  043   [4]  00 8D 35 00
 (2025-08-07 21:04:10.396907)  can0  098   [1]  01
 (2025-08-07 21:04:10.397143)  can0  000   [8]  1E AB 09 0D D1 44 22 E2
 (2025-08-07 21:04:10.398999)  can0  000   [8]  7B E8 DF 70 97 BB 9A 9A
 (2025-08-07 21:04:10.399102)  can0  02F   [2]  09 01
 (2025-08-07 21:04:10.400900)  can0  000   [8]  B5 90 1E 02 6A BE 07 F3
 (2025-08-07 21:04:10.402695)  can0  000   [8]  A0 82 FB 16 86 3F 67 E2
 (2025-08-07 21:04:10.404838)  can0  000   [8]  5F B7 CA 06 EB 0E 07 F5
 (2025-08-07 21:04:10.406125)  can0  000   [8]  9E 14 76 94 4E CA 66 6B
 (2025-08-07 21:04:10.406750)  can0  043   [4]  00 8D 35 00
 (2025-08-07 21:04:10.406856)  can0  098   [1]  01
 (2025-08-07 21:04:10.407900)  can0  000   [8]  F8 12 79 19 3E 30 3F A9
 (2025-08-07 21:04:10.410099)  can0  000   [8]  C0 1B 98 77 8B EA 08 96
 (2025-08-07 21:04:10.411432)  can0  000   [8]  64 E6 15 AC 8A 32 3D 0C
 (2025-08-07 21:04:10.413743)  can0  000   [8]  68 01 80 B1 9D 3A 36 90
 (2025-08-07 21:04:10.413870)  can0  02F   [2]  09 01
 (2025-08-07 21:04:10.415011)  can0  000   [8]  03 31 BD 75 3B 5E CA C3
 (2025-08-07 21:04:10.416738)  can0  043   [4]  00 8D 35 00
 (2025-08-07 21:04:10.416822)  can0  098   [1]  01
 (2025-08-07 21:04:10.417470)  can0  000   [8]  29 49 21 68 45 A5 67 FF
 (2025-08-07 21:04:10.419612)  can0  000   [8]  A4 63 04 BC 3C 11 03 41
 (2025-08-07 21:04:10.421466)  can0  000   [8]  9D 2C 56 91 87 3B AB 48
 (2025-08-07 21:04:10.423681)  can0  000   [8]  BE 68 29 24 99 1B 87 91
 (2025-08-07 21:04:10.425549)  can0  000   [8]  FE 5B 26 47 6D 3B D8 8A
 (2025-08-07 21:04:10.426859)  can0  043   [4]  00 8D 35 00
 (2025-08-07 21:04:10.426979)  can0  098   [1]  01
 (2025-08-07 21:04:10.427609)  can0  000   [8]  E1 AB F7 BD D7 3D 30 1B
 (2025-08-07 21:04:10.429907)  can0  000   [8]  73 15 5C ED 9F 27 3B 41
 (2025-08-07 21:04:10.430309)  can0  02F   [2]  09 01
 (2025-08-07 21:04:10.431281)  can0  000   [8]  BB 96 BC 25 30 BF 09 AF
 (2025-08-07 21:04:10.433185)  can0  000   [8]  92 22 FA E6 FB 3E 85 AB
 (2025-08-07 21:04:10.435496)  can0  000   [8]  65 E8 3F EA AE 0A 2F A1
 (2025-08-07 21:04:10.436801)  can0  043   [4]  00 8D 35 00
 (2025-08-07 21:04:10.436921)  can0  098   [1]  01
 (2025-08-07 21:04:10.437979)  can0  000   [8]  6C F3 54 18 ED F4 87 D3
 (2025-08-07 21:04:10.439329)  can0  000   [8]  28 C4 12 56 00 13 FA 27
 (2025-08-07 21:04:10.441186)  can0  000   [8]  2E BF 37 6C 6D 54 05 AF
 (2025-08-07 21:04:10.442995)  can0  000   [8]  FF 2D 86 B7 F9 A5 4E 34
 (2025-08-07 21:04:10.444905)  can0  000   [8]  39 A0 78 93 1E 52 99 78
 (2025-08-07 21:04:10.446281)  can0  02F   [2]  14 01
 (2025-08-07 21:04:10.446987)  can0  000   [8]  BD 65 46 A4 C5 C6 46 F5
 (2025-08-07 21:04:10.447828)  can0  043   [4]  00 8D 35 00
 (2025-08-07 21:04:10.447921)  can0  098   [1]  01
 (2025-08-07 21:04:10.449409)  can0  000   [8]  06 22 F8 33 C6 B4 B5 F7
 (2025-08-07 21:04:10.451067)  can0  000   [8]  B0 A8 A4 84 59 CE 5D 66
 (2025-08-07 21:04:10.452774)  can0  000   [8]  67 2E 33 1C 45 97 23 9C
 (2025-08-07 21:04:10.454435)  can0  000   [8]  7A 1E 3E 6E 44 19 F6 73
 (2025-08-07 21:04:10.455732)  can0  000   [8]  65 2B 73 96 B4 70 FD E3
 (2025-08-07 21:04:10.457598)  can0  000   [8]  39 6B E8 C1 AF 5B 3A 22
 (2025-08-07 21:04:10.457809)  can0  043   [4]  00 8D 35 00
 (2025-08-07 21:04:10.457914)  can0  098   [1]  01
 (2025-08-07 21:04:10.459768)  can0  000   [8]  A1 F6 A7 DE 76 82 5D 24
 (2025-08-07 21:04:10.461997)  can0  000   [8]  99 53 7D A2 A1 1F AD 79
 (2025-08-07 21:04:10.462467)  can0  02F   [2]  14 01
 (2025-08-07 21:04:10.463363)  can0  000   [8]  36 7F 1A 4A EA 39 26 30
 (2025-08-07 21:04:10.465248)  can0  000   [8]  AF 09 88 97 63 5D 91 BE
 (2025-08-07 21:04:10.467105)  can0  000   [8]  3B 78 D0 8C CA B3 ED 44
 (2025-08-07 21:04:10.467751)  can0  043   [4]  00 8D 35 00
 (2025-08-07 21:04:10.467847)  can0  098   [1]  01
 (2025-08-07 21:04:10.469045)  can0  000   [8]  02 1B 6D 4E FC 84 A7 87
 (2025-08-07 21:04:10.470889)  can0  000   [8]  28 7D 89 9A 94 AD CB 72
 (2025-08-07 21:04:10.472792)  can0  000   [8]  F5 DB 07 27 6E FE 0A F5
 (2025-08-07 21:04:10.474688)  can0  000   [8]  0E 56 77 B1 ED 9A A1 A9
 (2025-08-07 21:04:10.476910)  can0  000   [8]  01 5F F2 3B 43 C5 37 A1
 (2025-08-07 21:04:10.477822)  can0  043   [4]  00 8D 35 00
 (2025-08-07 21:04:10.477916)  can0  098   [1]  01
 (2025-08-07 21:04:10.478130)  can0  02F   [2]  14 01
 (2025-08-07 21:04:10.478479)  can0  000   [8]  56 81 40 13 A4 9C 3F AE
 (2025-08-07 21:04:10.480450)  can0  000   [8]  59 DE 12 0F 1D CC F7 A4
 (2025-08-07 21:04:10.482404)  can0  000   [8]  39 35 60 27 E4 FD B3 49
 (2025-08-07 21:04:10.484228)  can0  000   [8]  1E AF E5 44 AA 94 31 92
 (2025-08-07 21:04:10.486102)  can0  000   [8]  E2 BC CA 84 70 F2 6C A7
 (2025-08-07 21:04:10.487826)  can0  043   [4]  00 8D 35 00
 (2025-08-07 21:04:10.488036)  can0  000   [8]  66 6A F6 33 82 21 8D 2C
 (2025-08-07 21:04:10.488174)  can0  098   [1]  01
 (2025-08-07 21:04:10.490555)  can0  000   [8]  E9 90 71 CF 44 1B E3 69
 (2025-08-07 21:04:10.491850)  can0  000   [8]  50 D5 33 F5 AD F4 86 11
 (2025-08-07 21:04:10.493710)  can0  000   [8]  96 21 30 56 37 8D D5 1F
 (2025-08-07 21:04:10.494133)  can0  02F   [2]  1E 01
 (2025-08-07 21:04:10.495971)  can0  000   [8]  5B 87 76 70 FF 94 AC EC
 (2025-08-07 21:04:10.497286)  can0  000   [8]  D5 31 1B E8 15 9B 55 8C
 (2025-08-07 21:04:10.497827)  can0  043   [4]  00 8D 35 00
 (2025-08-07 21:04:10.497919)  can0  098   [1]  01
 (2025-08-07 21:04:10.499238)  can0  000   [8]  DF 83 A1 15 0B B7 A4 FA
 (2025-08-07 21:04:10.501155)  can0  000   [8]  81 28 37 EC 36 9D 48 BF
 (2025-08-07 21:04:10.503002)  can0  000   [8]  E6 72 E6 AB 64 5C 5A 41
 (2025-08-07 21:04:10.505072)  can0  000   [8]  E5 3F 66 25 CB FE E0 FA
 (2025-08-07 21:04:10.506958)  can0  000   [8]  F6 BE 54 D2 81 68 70 18
 (2025-08-07 21:04:10.507808)  can0  043   [4]  00 8D 35 00
 (2025-08-07 21:04:10.507905)  can0  098   [1]  01
 (2025-08-07 21:04:10.509240)  can0  000   [8]  3B EC 04 3F 79 2D 68 E7
 (2025-08-07 21:04:10.510122)  can0  02F   [2]  1E 01
 (2025-08-07 21:04:10.510705)  can0  000   [8]  34 30 B4 24 7A 70 5A 50
 (2025-08-07 21:04:10.512748)  can0  000   [8]  0D D8 8C 70 11 EC C8 80
 (2025-08-07 21:04:10.514624)  can0  000   [8]  8B B0 78 4F C6 44 30 DE
 (2025-08-07 21:04:10.516542)  can0  000   [8]  9D A5 7E 91 FB 41 34 61
 (2025-08-07 21:04:10.517858)  can0  043   [4]  00 8D 35 00
 (2025-08-07 21:04:10.517948)  can0  098   [1]  01
 (2025-08-07 21:04:10.519028)  can0  000   [8]  33 D3 DD A4 5C 2B 48 85
 (2025-08-07 21:04:10.520352)  can0  000   [8]  13 EA 1C 45 09 91 AA 5F
 (2025-08-07 21:04:10.522251)  can0  000   [8]  FC BD A7 F9 90 54 81 48
 (2025-08-07 21:04:10.524060)  can0  000   [8]  76 31 36 7D 8C 33 19 24
 (2025-08-07 21:04:10.525921)  can0  000   [8]  50 94 E8 FE 0E 2D 79 37
 (2025-08-07 21:04:10.526044)  can0  02F   [2]  1E 01
 (2025-08-07 21:04:10.527822)  can0  000   [8]  D3 D5 D6 22 CE 21 AD 48
 (2025-08-07 21:04:10.527983)  can0  043   [4]  00 8D 35 00
 (2025-08-07 21:04:10.528099)  can0  098   [1]  01
 (2025-08-07 21:04:10.529862)  can0  000   [8]  57 15 87 8D A3 E8 9D FE
 (2025-08-07 21:04:10.531700)  can0  000   [8]  33 89 57 75 D7 FF 5B F1
 (2025-08-07 21:04:10.533645)  can0  000   [8]  94 55 AB DB 6C F0 4B DF
 (2025-08-07 21:04:10.535873)  can0  000   [8]  6A 2C 20 A0 94 AA F1 F9
 (2025-08-07 21:04:10.537171)  can0  000   [8]  47 CE 72 4B FA 61 A2 A8
 (2025-08-07 21:04:10.537775)  can0  043   [4]  00 8D 35 00
 (2025-08-07 21:04:10.537874)  can0  098   [1]  01
 (2025-08-07 21:04:10.539520)  can0  000   [8]  FD 51 D6 DA 93 5C 35 49
 (2025-08-07 21:04:10.540819)  can0  000   [8]  CF 8E 0D 2E 3B 75 08 36
 (2025-08-07 21:04:10.542413)  can0  02F   [2]  28 01
 (2025-08-07 21:04:10.542646)  can0  000   [8]  08 2C D7 F8 8B 18 FB EA
 (2025-08-07 21:04:10.544656)  can0  000   [8]  10 5D 59 10 2C 0F 76 3A
 (2025-08-07 21:04:10.546560)  can0  000   [8]  38 6C E5 0E A1 55 FB 62
 (2025-08-07 21:04:10.547888)  can0  043   [4]  00 8D 35 00
 (2025-08-07 21:04:10.547977)  can0  098   [1]  01
 (2025-08-07 21:04:10.548638)  can0  000   [8]  C9 AB 74 14 7E 5A 98 BC
 (2025-08-07 21:04:10.550958)  can0  000   [8]  25 EA A4 AA D6 6B CC 88
 (2025-08-07 21:04:10.552250)  can0  000   [8]  D6 A7 84 94 DD D9 CB BC
 (2025-08-07 21:04:10.554167)  can0  000   [8]  31 55 60 8D E9 E4 8A 0A
 (2025-08-07 21:04:10.555992)  can0  000   [8]  68 5E 2D 7B 76 85 6C A9
 (2025-08-07 21:04:10.557783)  can0  043   [4]  00 8D 35 00
 (2025-08-07 21:04:10.557997)  can0  000   [8]  5F 0E 84 E2 5E 3F FA 82
 (2025-08-07 21:04:10.558121)  can0  098   [1]  01
 (2025-08-07 21:04:10.558255)  can0  02F   [2]  28 01
 (2025-08-07 21:04:10.559975)  can0  000   [8]  91 35 04 10 F5 15 0F 7C
 (2025-08-07 21:04:10.561924)  can0  000   [8]  0B 24 02 FD D3 F8 54 14
 (2025-08-07 21:04:10.564109)  can0  000   [8]  69 CF 54 0F 1C FF C7 39
 (2025-08-07 21:04:10.565420)  can0  000   [8]  FF 03 B4 41 96 3F 46 1D
 (2025-08-07 21:04:10.567236)  can0  000   [8]  AC 31 34 9D 33 5C 75 09
 (2025-08-07 21:04:10.567802)  can0  043   [4]  00 8D 35 00
 (2025-08-07 21:04:10.567899)  can0  098   [1]  01
 (2025-08-07 21:04:10.569124)  can0  000   [8]  26 E3 68 67 85 23 23 D5
 (2025-08-07 21:04:10.570988)  can0  000   [8]  D3 DE 46 E2 E2 45 F7 FA
 (2025-08-07 21:04:10.572925)  can0  000   [8]  9B 64 49 55 86 79 6F 74
 (2025-08-07 21:04:10.573501)  can0  02F   [2]  28 01
 (2025-08-07 21:04:10.574881)  can0  000   [8]  94 2C C0 7A 52 9A 8C A7
 (2025-08-07 21:04:10.576844)  can0  000   [8]  00 3C 49 21 13 C8 58 C1
 (2025-08-07 21:04:10.577762)  can0  043   [4]  00 8D 35 00
 (2025-08-07 21:04:10.577859)  can0  098   [1]  01
 (2025-08-07 21:04:10.578749)  can0  000   [8]  E9 B0 62 4C 97 36 97 E2
 (2025-08-07 21:04:10.580667)  can0  000   [8]  AE 57 77 AF 10 C2 67 66
 (2025-08-07 21:04:10.582526)  can0  000   [8]  AD A5 AB D1 9A D5 A1 4D
 (2025-08-07 21:04:10.584415)  can0  000   [8]  3A 35 EF 04 89 67 44 B6
 (2025-08-07 21:04:10.586651)  can0  000   [8]  B1 69 9B 48 AF AE 11 D6
 (2025-08-07 21:04:10.587809)  can0  043   [4]  00 8D 35 00
 (2025-08-07 21:04:10.588028)  can0  000   [8]  AD A5 35 30 F7 E2 86 5A
 (2025-08-07 21:04:10.588170)  can0  02F   [2]  32 01
 (2025-08-07 21:04:10.588280)  can0  098   [1]  01
 (2025-08-07 21:04:10.590166)  can0  000   [8]  E8 FD 8C 89 17 F0 77 C1
 (2025-08-07 21:04:10.592408)  can0  000   [8]  6C E3 D6 FE 19 AA 9E 7B
 (2025-08-07 21:04:10.593714)  can0  000   [8]  D9 7B 65 5E 7E E0 08 28
 (2025-08-07 21:04:10.595670)  can0  000   [8]  E0 B0 60 74 51 CB 87 74
 (2025-08-07 21:04:10.597804)  can0  043   [4]  00 8D 35 00
 (2025-08-07 21:04:10.598016)  can0  000   [8]  3F 3C 40 44 A1 92 23 E5
 (2025-08-07 21:04:10.598140)  can0  098   [1]  01
 (2025-08-07 21:04:10.599241)  can0  000   [8]  E8 BD A5 5B F1 DB 6A 83
 (2025-08-07 21:04:10.601119)  can0  000   [8]  65 EE 6A EC DF 57 95 66
 (2025-08-07 21:04:10.602975)  can0  000   [8]  37 18 60 C2 DB A4 AF 29
 (2025-08-07 21:04:10.603147)  can0  02F   [2]  32 01
 (2025-08-07 21:04:10.604955)  can0  000   [8]  CA 8C 7C 6C E2 E9 C3 1A
 (2025-08-07 21:04:10.607005)  can0  000   [8]  F8 38 B7 32 60 38 8A B1
 (2025-08-07 21:04:10.608803)  can0  043   [4]  00 8D 35 00
 (2025-08-07 21:04:10.608899)  can0  098   [1]  01
 (2025-08-07 21:04:10.609224)  can0  000   [8]  06 63 76 AE AD 4B 42 8E
 (2025-08-07 21:04:10.610986)  can0  000   [8]  CE F0 C6 C2 37 76 BE E1
 (2025-08-07 21:04:10.613209)  can0  000   [8]  F4 2A 59 8A E6 43 F2 82
 (2025-08-07 21:04:10.614505)  can0  000   [8]  51 CF 6B C8 DD 0B BF 03
 (2025-08-07 21:04:10.616318)  can0  000   [8]  D7 94 43 EE EC 35 98 D4
 (2025-08-07 21:04:10.618212)  can0  000   [8]  84 A0 F3 2D 5B A8 84 54
 (2025-08-07 21:04:10.618802)  can0  043   [4]  00 8D 35 00
 (2025-08-07 21:04:10.618902)  can0  098   [1]  01
 (2025-08-07 21:04:10.619349)  can0  02F   [2]  32 01
 (2025-08-07 21:04:10.620119)  can0  000   [8]  6D 4B FF 9E 6F 69 05 FC
 (2025-08-07 21:04:10.622063)  can0  000   [8]  94 F5 FE 48 69 36 B3 C0
 (2025-08-07 21:04:10.623933)  can0  000   [8]  52 3B 24 B2 F8 A2 CC F3
 (2025-08-07 21:04:10.625804)  can0  000   [8]  4D 19 4E 0C 93 D0 C7 27
 (2025-08-07 21:04:10.628020)  can0  000   [8]  B5 D4 16 F3 7B A8 6E C9
 (2025-08-07 21:04:10.628717)  can0  043   [4]  00 8D 35 00
 (2025-08-07 21:04:10.628828)  can0  098   [1]  01
 (2025-08-07 21:04:10.629492)  can0  000   [8]  C4 CD F2 9D B8 37 29 88
 (2025-08-07 21:04:10.631403)  can0  000   [8]  9D D6 73 13 28 74 32 90
 (2025-08-07 21:04:10.633279)  can0  000   [8]  82 4C 48 67 47 7D 70 AC
 (2025-08-07 21:04:10.634263)  can0  02F   [2]  3D 01
 (2025-08-07 21:04:10.635134)  can0  000   [8]  CF EC 1D 84 26 FF 24 67
 (2025-08-07 21:04:10.637071)  can0  000   [8]  B9 CC 69 16 C3 3A 70 07
 (2025-08-07 21:04:10.638779)  can0  043   [4]  00 8D 35 00
 (2025-08-07 21:04:10.638995)  can0  000   [8]  8D 96 5C 7E C6 9C F5 5F
 (2025-08-07 21:04:10.639116)  can0  098   [1]  01
 (2025-08-07 21:04:10.641146)  can0  000   [8]  B2 45 4F 02 49 63 FA A3
 (2025-08-07 21:04:10.643399)  can0  000   [8]  69 F5 B5 7F 67 DE B4 BA
 (2025-08-07 21:04:10.644698)  can0  000   [8]  D2 1A 01 EA 40 CA F2 F8
 (2025-08-07 21:04:10.646552)  can0  000   [8]  B9 D7 D5 3D 4F B3 32 59
 (2025-08-07 21:04:10.648400)  can0  000   [8]  8F 99 2E BF AE A8 CC 8F
 (2025-08-07 21:04:10.649807)  can0  043   [4]  00 8D 35 00
 (2025-08-07 21:04:10.649898)  can0  098   [1]  01
 (2025-08-07 21:04:10.650027)  can0  02F   [2]  3D 01
 (2025-08-07 21:04:10.650603)  can0  000   [8]  7E 80 14 12 40 20 05 D9
 (2025-08-07 21:04:10.652504)  can0  000   [8]  7D CC 33 7A 61 82 47 C2
 (2025-08-07 21:04:10.654398)  can0  000   [8]  86 E8 4E 00 D2 52 70 05
 (2025-08-07 21:04:10.656276)  can0  000   [8]  5A 25 DF D2 A5 1E 1B 6C
 (2025-08-07 21:04:10.658182)  can0  000   [8]  25 DF 5E 1F 42 A9 C6 61
 (2025-08-07 21:04:10.660181)  can0  043   [4]  00 8D 35 00
 (2025-08-07 21:04:10.660229)  can0  098   [1]  01
 (2025-08-07 21:04:10.660397)  can0  000   [8]  53 98 C3 E1 69 66 71 EE
 (2025-08-07 21:04:10.661776)  can0  000   [8]  CE 45 95 BD C8 4A 25 31
 (2025-08-07 21:04:10.663661)  can0  000   [8]  A7 67 50 BD 5F A0 A0 67
 (2025-08-07 21:04:10.665522)  can0  000   [8]  FB 51 9D 5D 34 58 28 F2
 (2025-08-07 21:04:10.665994)  can0  02F   [2]  3D 01
 (2025-08-07 21:04:10.667479)  can0  000   [8]  6F A7 C6 9A E1 9A 1F 00
 (2025-08-07 21:04:10.669348)  can0  000   [8]  5F BB EC 36 E4 AB 9C F6
 (2025-08-07 21:04:10.669802)  can0  043   [4]  00 8D 35 00
 (2025-08-07 21:04:10.669903)  can0  098   [1]  01
 (2025-08-07 21:04:10.671258)  can0  000   [8]  8F C0 4D 94 DD 7E 70 43
 (2025-08-07 21:04:10.673164)  can0  000   [8]  4E B7 66 19 80 21 96 6D
 (2025-08-07 21:04:10.675009)  can0  000   [8]  9E 74 6E 31 B7 C2 5B 91
 (2025-08-07 21:04:10.677252)  can0  000   [8]  2E 92 4A 7B 93 FB BC 85
 (2025-08-07 21:04:10.678539)  can0  000   [8]  61 56 04 1D D6 63 64 16
 (2025-08-07 21:04:10.679841)  can0  043   [4]  00 8D 35 00
 (2025-08-07 21:04:10.679938)  can0  098   [1]  01
 (2025-08-07 21:04:10.680452)  can0  000   [8]  34 E3 C2 38 C3 11 CB 99
 (2025-08-07 21:04:10.682001)  can0  02F   [2]  47 01
 (2025-08-07 21:04:10.682358)  can0  000   [8]  A3 65 93 1B 83 CB B0 C5
 (2025-08-07 21:04:10.684256)  can0  000   [8]  CE 31 87 37 F3 C0 40 1C
 (2025-08-07 21:04:10.686065)  can0  000   [8]  42 43 71 85 B6 BE 39 F3
 (2025-08-07 21:04:10.687785)  can0  000   [8]  FE E7 78 0C 79 88 63 E8
 (2025-08-07 21:04:10.689761)  can0  043   [4]  00 8D 35 00
 (2025-08-07 21:04:10.689964)  can0  000   [8]  5D 53 93 F8 BF 6B D4 B0
 (2025-08-07 21:04:10.690085)  can0  098   [1]  01
 (2025-08-07 21:04:10.691193)  can0  000   [8]  3C 51 51 CD 1D 59 77 51
 (2025-08-07 21:04:10.693019)  can0  000   [8]  72 99 0E 96 BE D8 76 9B
 (2025-08-07 21:04:10.694742)  can0  000   [8]  7A DE F2 F7 2E 7F 02 CD
 (2025-08-07 21:04:10.696739)  can0  000   [8]  BD 23 AD 84 A7 42 93 B7
 (2025-08-07 21:04:10.696919)  can0  02F   [2]  47 01
 (2025-08-07 21:04:10.698485)  can0  000   [8]  4F 0D 6E DD 38 78 83 E4
 (2025-08-07 21:04:10.699754)  can0  043   [4]  00 8D 35 00
 (2025-08-07 21:04:10.699854)  can0  098   [1]  01
 (2025-08-07 21:04:10.700736)  can0  000   [8]  88 DA 78 66 01 73 3C 21
 (2025-08-07 21:04:10.702055)  can0  000   [8]  1E 26 ED 7B 4A 33 81 F9
 (2025-08-07 21:04:10.703840)  can0  000   [8]  15 44 4F 11 73 C7 81 EF
 (2025-08-07 21:04:10.705762)  can0  000   [8]  E6 AA 11 34 9E 34 B2 C0
 (2025-08-07 21:04:10.707535)  can0  000   [8]  7C 22 05 89 6C 46 CA 90
 (2025-08-07 21:04:10.709304)  can0  000   [8]  F4 46 34 F0 50 C5 3D B3
 (2025-08-07 21:04:10.709758)  can0  043   [4]  00 8D 35 00
 (2025-08-07 21:04:10.709865)  can0  098   [1]  01
 (2025-08-07 21:04:10.711108)  can0  000   [8]  2E B2 E0 6D 57 73 2A 5B
 (2025-08-07 21:04:10.711796)  can0  02F   [2]  47 01
 (2025-08-07 21:04:10.712972)  can0  000   [8]  38 A4 D2 F6 39 AA 75 79
 (2025-08-07 21:04:10.714781)  can0  000   [8]  58 BF DA 29 27 58 0E D0
 (2025-08-07 21:04:10.716904)  can0  000   [8]  39 67 9C B4 8C 68 24 F8
 (2025-08-07 21:04:10.718195)  can0  000   [8]  7F 86 A4 5F 67 02 90 53
 (2025-08-07 21:04:10.719743)  can0  043   [4]  00 8D 35 00
 (2025-08-07 21:04:10.719844)  can0  098   [1]  01
 (2025-08-07 21:04:10.720081)  can0  000   [8]  73 F0 E7 78 73 D3 F3 63
 (2025-08-07 21:04:10.721850)  can0  000   [8]  6A C4 B1 6C 4D DF 12 2F
 (2025-08-07 21:04:10.723594)  can0  000   [8]  DB 9B 32 85 F6 D9 90 29
 (2025-08-07 21:04:10.725358)  can0  000   [8]  2D 50 1E DE 93 9C 67 3E
 (2025-08-07 21:04:10.727070)  can0  000   [8]  78 C8 B4 BE E6 F5 B2 B6
 (2025-08-07 21:04:10.727204)  can0  02F   [2]  51 01
 (2025-08-07 21:04:10.728922)  can0  000   [8]  4E CB E6 F6 C8 C5 33 68
 (2025-08-07 21:04:10.729772)  can0  043   [4]  00 8D 35 00
 (2025-08-07 21:04:10.729875)  can0  098   [1]  01
 (2025-08-07 21:04:10.730711)  can0  000   [8]  03 33 B6 4E BF 19 62 A8
 (2025-08-07 21:04:10.732881)  can0  000   [8]  3B CC 3D 90 A8 BA E0 14
 (2025-08-07 21:04:10.734180)  can0  000   [8]  20 9D B0 D9 66 97 51 08
 (2025-08-07 21:04:10.735923)  can0  000   [8]  6D 80 3F 37 3A A5 3A 54
 (2025-08-07 21:04:10.737718)  can0  000   [8]  3F 20 AF F1 8A 21 FC 36
 (2025-08-07 21:04:10.739507)  can0  000   [8]  F9 AE CF 8D CE FB F7 32
 (2025-08-07 21:04:10.739816)  can0  043   [4]  00 8D 35 00
 (2025-08-07 21:04:10.739921)  can0  098   [1]  01
 (2025-08-07 21:04:10.741324)  can0  000   [8]  77 A1 36 77 91 ED 72 B8
 (2025-08-07 21:04:10.743117)  can0  000   [8]  17 3D F7 64 A8 79 1C 8D
 (2025-08-07 21:04:10.743259)  can0  02F   [2]  51 01
 (2025-08-07 21:04:10.744971)  can0  000   [8]  D0 AF 08 A5 4E 75 7D 52
 (2025-08-07 21:04:10.746689)  can0  000   [8]  E6 0E F2 83 D3 E8 FD CD
 (2025-08-07 21:04:10.748814)  can0  000   [8]  D4 EA 7C 70 40 05 5A 1A
 (2025-08-07 21:04:10.750109)  can0  000   [8]  D3 6D 7E 1D 41 AF 49 60
 (2025-08-07 21:04:10.750743)  can0  043   [4]  00 8D 35 00
 (2025-08-07 21:04:10.750859)  can0  098   [1]  01
 (2025-08-07 21:04:10.751874)  can0  000   [8]  B9 43 F8 3F D2 92 AE 80
 (2025-08-07 21:04:10.753657)  can0  000   [8]  5C 7A 33 0D 09 B9 8C 80
 (2025-08-07 21:04:10.755443)  can0  000   [8]  B4 C5 A7 70 5C C6 26 C0
 (2025-08-07 21:04:10.757598)  can0  000   [8]  65 61 9A 00 BC A9 DF D6
 (2025-08-07 21:04:10.758077)  can0  02F   [2]  51 01
 (2025-08-07 21:04:10.758974)  can0  000   [8]  A9 18 E4 6F CD 6B 2D 59
 (2025-08-07 21:04:10.760797)  can0  000   [8]  0C AF 74 DC 27 BF F3 E3
 (2025-08-07 21:04:10.760958)  can0  043   [4]  00 8D 35 00
 (2025-08-07 21:04:10.761069)  can0  098   [1]  01
 (2025-08-07 21:04:10.762546)  can0  000   [8]  FF C1 48 85 72 51 0A 45
 (2025-08-07 21:04:10.764261)  can0  000   [8]  39 69 0E 4D 4B DB 78 66
 (2025-08-07 21:04:10.766214)  can0  000   [8]  70 0A 7D B6 3D B8 60 39
 (2025-08-07 21:04:10.767931)  can0  000   [8]  3F 02 01 19 FD 92 77 5F
 (2025-08-07 21:04:10.769670)  can0  000   [8]  A1 97 34 7A F4 87 1B A6
 (2025-08-07 21:04:10.770766)  can0  043   [4]  00 8D 35 00
 (2025-08-07 21:04:10.770871)  can0  098   [1]  01
 (2025-08-07 21:04:10.771908)  can0  000   [8]  B5 1F F4 4B 96 DF A6 7E
 (2025-08-07 21:04:10.773210)  can0  000   [8]  41 7B BB BC 05 56 8E C2
 (2025-08-07 21:04:10.774314)  can0  02F   [2]  5B 01
 (2025-08-07 21:04:10.775018)  can0  000   [8]  12 8F 20 04 AA F3 DF 79
 (2025-08-07 21:04:10.776951)  can0  000   [8]  4D FA 17 62 67 B4 41 4C
 (2025-08-07 21:04:10.778685)  can0  000   [8]  F2 04 66 C6 AD E0 C6 4E
 (2025-08-07 21:04:10.780398)  can0  000   [8]  52 BD 89 D8 2A 50 C8 C8
 (2025-08-07 21:04:10.780744)  can0  043   [4]  00 8D 35 00
 (2025-08-07 21:04:10.780860)  can0  098   [1]  01
 (2025-08-07 21:04:10.782189)  can0  000   [8]  F5 9E 90 3F 0B 98 EA 8C
 (2025-08-07 21:04:10.783909)  can0  000   [8]  54 72 DF 18 00 6C C8 38
 (2025-08-07 21:04:10.786012)  can0  000   [8]  4E 33 32 06 0F 19 3B 39
 (2025-08-07 21:04:10.787378)  can0  000   [8]  7B CE FE 4C C2 2F 4A 21
 (2025-08-07 21:04:10.789253)  can0  000   [8]  12 DB 80 46 F5 CB 2F E6
 (2025-08-07 21:04:10.790426)  can0  02F   [2]  5B 01
 (2025-08-07 21:04:10.790734)  can0  043   [4]  00 8D 35 00
 (2025-08-07 21:04:10.790859)  can0  098   [1]  01
 (2025-08-07 21:04:10.791082)  can0  000   [8]  29 51 89 90 3E EA 82 D8
 (2025-08-07 21:04:10.793024)  can0  000   [8]  15 C1 A3 8D 0B EF 92 54
 (2025-08-07 21:04:10.794916)  can0  000   [8]  84 DF 2E 79 89 1C 98 F1
 (2025-08-07 21:04:10.796849)  can0  000   [8]  AA 21 63 98 5B 53 87 31
 (2025-08-07 21:04:10.798958)  can0  000   [8]  74 40 17 71 33 54 A6 30
 (2025-08-07 21:04:10.800236)  can0  000   [8]  06 56 CA 02 0E C5 98 95
 (2025-08-07 21:04:10.800802)  can0  043   [4]  00 8D 35 00
 (2025-08-07 21:04:10.800891)  can0  098   [1]  01
 (2025-08-07 21:04:10.802032)  can0  000   [8]  6F 79 22 C8 C8 70 B7 2E
 (2025-08-07 21:04:10.803767)  can0  000   [8]  20 64 33 3D 11 F9 30 BF
 (2025-08-07 21:04:10.805526)  can0  000   [8]  8B 8D 63 14 63 E0 B8 F3
 (2025-08-07 21:04:10.806093)  can0  02F   [2]  5B 01
 (2025-08-07 21:04:10.807305)  can0  000   [8]  03 9B 09 82 EB 3C 6C EE
 (2025-08-07 21:04:10.809161)  can0  000   [8]  E5 B4 31 74 79 58 16 69
 (2025-08-07 21:04:10.810774)  can0  043   [4]  00 8D 35 00
 (2025-08-07 21:04:10.811004)  can0  000   [8]  7B 5C 81 BA 4F E7 FA E6
 (2025-08-07 21:04:10.811109)  can0  098   [1]  01
 (2025-08-07 21:04:10.813113)  can0  000   [8]  B0 C1 B6 AB B3 B6 C8 6E
 (2025-08-07 21:04:10.814424)  can0  000   [8]  94 4E 13 D8 39 6C 21 FA
 (2025-08-07 21:04:10.816166)  can0  000   [8]  55 3D D1 E0 45 31 00 2E
 (2025-08-07 21:04:10.817944)  can0  000   [8]  E5 7E 64 42 03 DA 46 D0
 (2025-08-07 21:04:10.819656)  can0  000   [8]  FC 2A 42 D8 6D 89 7D 1F
 (2025-08-07 21:04:10.820770)  can0  043   [4]  00 8D 35 00
 (2025-08-07 21:04:10.820869)  can0  098   [1]  01
 (2025-08-07 21:04:10.821459)  can0  000   [8]  D6 88 04 4E 18 7E A2 6D
 (2025-08-07 21:04:10.822329)  can0  02F   [2]  66 01
 (2025-08-07 21:04:10.823335)  can0  000   [8]  8D BF 8C 67 28 07 FF 66
 (2025-08-07 21:04:10.825117)  can0  000   [8]  47 EC 31 86 C4 13 68 87
 (2025-08-07 21:04:10.827305)  can0  000   [8]  84 0B 03 27 B2 6E A8 B9
 (2025-08-07 21:04:10.828598)  can0  000   [8]  A3 FF 0B D4 D1 85 68 61
 (2025-08-07 21:04:10.830333)  can0  000   [8]  85 85 6C 20 47 B9 A6 B1
 (2025-08-07 21:04:10.830790)  can0  043   [4]  00 8D 35 00
 (2025-08-07 21:04:10.830896)  can0  098   [1]  01
 (2025-08-07 21:04:10.832073)  can0  000   [8]  D5 7A EE DA F2 F1 A1 50
 (2025-08-07 21:04:10.833855)  can0  000   [8]  D9 29 BE C5 1F EF B0 4E
 (2025-08-07 21:04:10.835960)  can0  000   [8]  C2 ED B2 64 F2 2F 49 CC
 (2025-08-07 21:04:10.837275)  can0  000   [8]  23 1A 4C 14 63 91 3B 7B
 (2025-08-07 21:04:10.838289)  can0  02F   [2]  66 01
 (2025-08-07 21:04:10.839030)  can0  000   [8]  9C 78 4D D3 96 D8 32 92
 (2025-08-07 21:04:10.840902)  can0  000   [8]  6D 01 FA BF 2F DD C2 6E
 (2025-08-07 21:04:10.841777)  can0  043   [4]  00 8D 35 00
 (2025-08-07 21:04:10.841879)  can0  098   [1]  01
 (2025-08-07 21:04:10.842652)  can0  000   [8]  A1 E2 5E 90 D9 F9 4C 4F
 (2025-08-07 21:04:10.844388)  can0  000   [8]  43 5B 02 2A EF 40 47 7C
 (2025-08-07 21:04:10.846141)  can0  000   [8]  21 AB 79 6E 3F CA C8 8E
 (2025-08-07 21:04:10.847836)  can0  000   [8]  38 3B 81 78 BD 3D 5D 53
 (2025-08-07 21:04:10.849577)  can0  000   [8]  D0 7A 6D C8 44 A4 20 9B
 (2025-08-07 21:04:10.851346)  can0  000   [8]  1B F6 C7 99 20 40 40 FC
 (2025-08-07 21:04:10.851728)  can0  043   [4]  00 8D 35 00
 (2025-08-07 21:04:10.851834)  can0  098   [1]  01
 (2025-08-07 21:04:10.853575)  can0  000   [8]  92 C3 2E 34 4E 55 6C 13
 (2025-08-07 21:04:10.854152)  can0  02F   [2]  66 01
 (2025-08-07 21:04:10.854953)  can0  000   [8]  5A FB ED 48 8C FB 60 99
 (2025-08-07 21:04:10.856776)  can0  000   [8]  A5 A3 47 2B 37 9B 21 32
 (2025-08-07 21:04:10.858648)  can0  000   [8]  86 E0 AD EE DC AB F4 A1
 (2025-08-07 21:04:10.860384)  can0  000   [8]  37 7A 0A 71 15 8C 7E DD
 (2025-08-07 21:04:10.861845)  can0  043   [4]  00 8D 35 00
 (2025-08-07 21:04:10.861943)  can0  098   [1]  01
 (2025-08-07 21:04:10.862181)  can0  000   [8]  7E 16 D7 35 DE ED 24 26
 (2025-08-07 21:04:10.864000)  can0  000   [8]  97 3E 2C B3 0F 29 D7 43
 (2025-08-07 21:04:10.865867)  can0  000   [8]  8D 77 56 AF B1 66 02 3B
 (2025-08-07 21:04:10.867704)  can0  000   [8]  00 00 8B 4F A3 B6 98 C1
 (2025-08-07 21:04:10.869563)  can0  000   [8]  38 C4 A8 2C E7 4D 7B 91
 (2025-08-07 21:04:10.869889)  can0  02F   [2]  70 01
 (2025-08-07 21:04:10.871384)  can0  000   [8]  C2 56 F1 F4 2F 03 32 C8
 (2025-08-07 21:04:10.871704)  can0  043   [4]  00 8D 35 00
 (2025-08-07 21:04:10.871815)  can0  098   [1]  01
 (2025-08-07 21:04:10.873220)  can0  000   [8]  41 2F ED BA 25 A7 F1 C4
 (2025-08-07 21:04:10.875020)  can0  000   [8]  1C 33 2D BF F5 B6 7D 3A
 (2025-08-07 21:04:10.877168)  can0  000   [8]  CA FB 2A 86 FD E8 A8 F2
 (2025-08-07 21:04:10.878501)  can0  000   [8]  33 BB F8 13 68 E5 1F 7D
 (2025-08-07 21:04:10.880232)  can0  000   [8]  F7 77 04 6B AA 62 B5 54
 (2025-08-07 21:04:10.881781)  can0  043   [4]  00 8D 35 00
 (2025-08-07 21:04:10.881879)  can0  098   [1]  01
 (2025-08-07 21:04:10.882114)  can0  000   [8]  F6 76 9C 2D 9D 8A 9F B1
 (2025-08-07 21:04:10.883848)  can0  000   [8]  81 CA 6D C6 97 16 BF 19
 (2025-08-07 21:04:10.885889)  can0  000   [8]  BE A7 2F 50 04 2F 08 FC
 (2025-08-07 21:04:10.886044)  can0  02F   [2]  70 01
 (2025-08-07 21:04:10.887617)  can0  000   [8]  CE 38 B7 46 6E 59 53 ED
 (2025-08-07 21:04:10.889380)  can0  000   [8]  63 47 9A 5C FA F4 60 EB
 (2025-08-07 21:04:10.891546)  can0  000   [8]  F3 39 7F F3 4F 70 EC 29
 (2025-08-07 21:04:10.891792)  can0  043   [4]  00 8D 35 00
 (2025-08-07 21:04:10.891903)  can0  098   [1]  01
 (2025-08-07 21:04:10.892879)  can0  000   [8]  AA 3C 1B 1E 7A 11 EA FD
 (2025-08-07 21:04:10.894644)  can0  000   [8]  AF DB 64 53 4C 24 A5 8A
 (2025-08-07 21:04:10.896412)  can0  000   [8]  7C F6 A6 78 45 2D DA 2D
 (2025-08-07 21:04:10.898553)  can0  000   [8]  BD 4A 36 C5 70 49 F1 4D
 (2025-08-07 21:04:10.899851)  can0  000   [8]  1E DB 0B C9 00 3B 0D A8
 (2025-08-07 21:04:10.901632)  can0  000   [8]  A5 89 74 20 1B 8E 14 EB
 (2025-08-07 21:04:10.901780)  can0  043   [4]  00 8D 35 00
 (2025-08-07 21:04:10.901895)  can0  098   [1]  01
 (2025-08-07 21:04:10.902349)  can0  02F   [2]  70 01
 (2025-08-07 21:04:10.903462)  can0  000   [8]  0E 6F 78 4C 4E E8 44 E6
 (2025-08-07 21:04:10.905275)  can0  000   [8]  25 8F E1 AE 00 1A 60 DE
 (2025-08-07 21:04:10.907142)  can0  000   [8]  BE 5D 5A 51 0A 20 C5 54
 (2025-08-07 21:04:10.908952)  can0  000   [8]  9E 57 D7 B3 91 DB 63 82
 (2025-08-07 21:04:10.911009)  can0  000   [8]  69 DC AC F3 16 CE EE 3B
 (2025-08-07 21:04:10.911727)  can0  043   [4]  00 8D 35 00
 (2025-08-07 21:04:10.911835)  can0  098   [1]  01
 (2025-08-07 21:04:10.912395)  can0  000   [8]  8C 09 75 6A D5 02 DC A7
 (2025-08-07 21:04:10.914307)  can0  000   [8]  C0 FA A1 07 81 10 83 F1
 (2025-08-07 21:04:10.916044)  can0  000   [8]  49 45 DB 11 38 B4 78 CE
 (2025-08-07 21:04:10.916917)  can0  02F   [2]  7A 01
 (2025-08-07 21:04:10.917876)  can0  000   [8]  1E C1 A3 65 ED B2 E3 09
 (2025-08-07 21:04:10.919613)  can0  000   [8]  4A 61 FA 2F EA D3 72 0B
 (2025-08-07 21:04:10.921408)  can0  000   [8]  37 A8 F6 52 DE E7 E3 3E
 (2025-08-07 21:04:10.921780)  can0  043   [4]  00 8D 35 00
 (2025-08-07 21:04:10.921885)  can0  098   [1]  01
 (2025-08-07 21:04:10.923187)  can0  000   [8]  D0 D3 7C 6A EA 07 B4 25
 (2025-08-07 21:04:10.925022)  can0  000   [8]  33 E4 83 BC 56 32 45 9D
 (2025-08-07 21:04:10.927054)  can0  000   [8]  26 82 40 5F 5D 40 AE 14
 (2025-08-07 21:04:10.928357)  can0  000   [8]  06 93 1E 9B D1 3C 21 33
 (2025-08-07 21:04:10.930145)  can0  000   [8]  65 7B 4E F3 27 4E 36 9F
 (2025-08-07 21:04:10.931786)  can0  043   [4]  00 8D 35 00
 (2025-08-07 21:04:10.932004)  can0  000   [8]  F9 98 91 4F 50 95 82 D8
 (2025-08-07 21:04:10.932133)  can0  098   [1]  01
 (2025-08-07 21:04:10.932252)  can0  02F   [2]  7A 01
 (2025-08-07 21:04:10.933668)  can0  000   [8]  0E A9 9A CD 26 BC 5E CA
 (2025-08-07 21:04:10.935459)  can0  000   [8]  C5 89 41 54 58 F8 57 E5
 (2025-08-07 21:04:10.937266)  can0  000   [8]  BF 8C 2C 9F 30 F3 52 53
 (2025-08-07 21:04:10.938992)  can0  000   [8]  33 D0 85 1C 1F 4E F6 E3
 (2025-08-07 21:04:10.941155)  can0  000   [8]  B1 18 A9 9E A5 10 36 7F
 (2025-08-07 21:04:10.942451)  can0  000   [8]  4F FA 66 7B C6 4B B9 94
 (2025-08-07 21:04:10.942815)  can0  043   [4]  00 8D 35 00
 (2025-08-07 21:04:10.942955)  can0  098   [1]  01
 (2025-08-07 21:04:10.944207)  can0  000   [8]  FB 63 0D B5 55 89 C8 65
 (2025-08-07 21:04:10.946036)  can0  000   [8]  8A 40 13 59 28 E9 4C 74
 (2025-08-07 21:04:10.947785)  can0  000   [8]  1B 18 37 3B 2E 4E 7D C9
 (2025-08-07 21:04:10.948164)  can0  02F   [2]  7A 01
 (2025-08-07 21:04:10.949555)  can0  000   [8]  24 8B 92 81 6D 4C 2D 41
 (2025-08-07 21:04:10.951322)  can0  000   [8]  15 37 57 65 70 F7 16 19
 (2025-08-07 21:04:10.952790)  can0  043   [4]  00 8D 35 00
 (2025-08-07 21:04:10.952900)  can0  098   [1]  01
 (2025-08-07 21:04:10.953139)  can0  000   [8]  83 C1 A7 F7 C6 D3 B4 3E
 (2025-08-07 21:04:10.955307)  can0  000   [8]  BD 20 23 85 B0 97 35 CE
 (2025-08-07 21:04:10.956652)  can0  000   [8]  73 CB F7 53 71 CA CE FA
 (2025-08-07 21:04:10.958418)  can0  000   [8]  D2 E9 11 5A 0A 89 A1 6E
 (2025-08-07 21:04:10.960146)  can0  000   [8]  40 7F 37 51 76 34 E5 F2
 (2025-08-07 21:04:10.961940)  can0  000   [8]  FB D1 66 8F 7C 5C 14 BF
 (2025-08-07 21:04:10.962723)  can0  043   [4]  00 8D 35 00
 (2025-08-07 21:04:10.962833)  can0  098   [1]  01
 (2025-08-07 21:04:10.963772)  can0  000   [8]  B2 C4 BA 82 AB 0F 14 FB
 (2025-08-07 21:04:10.964385)  can0  02F   [2]  84 01
 (2025-08-07 21:04:10.965583)  can0  000   [8]  43 07 61 2C E1 C1 49 C2
 (2025-08-07 21:04:10.967363)  can0  000   [8]  DD 6C B8 18 42 6C B8 D8
 (2025-08-07 21:04:10.969192)  can0  000   [8]  10 67 59 90 C2 76 DC 5C
 (2025-08-07 21:04:10.970969)  can0  000   [8]  91 BF F0 B1 9E 22 C5 61
 (2025-08-07 21:04:10.972783)  can0  043   [4]  00 8D 35 00
 (2025-08-07 21:04:10.972845)  can0  098   [1]  01
 (2025-08-07 21:04:10.973170)  can0  000   [8]  F6 73 24 52 2C B4 14 A8
 (2025-08-07 21:04:10.974443)  can0  000   [8]  CE BA 06 6B A7 17 C1 0F
 (2025-08-07 21:04:10.976180)  can0  000   [8]  A3 32 91 57 01 72 47 CC
 (2025-08-07 21:04:10.977954)  can0  000   [8]  AA 54 54 B7 E2 94 D5 B7
 (2025-08-07 21:04:10.979693)  can0  000   [8]  E3 58 C2 34 D8 1A 39 02
 (2025-08-07 21:04:10.980277)  can0  02F   [2]  84 01
 (2025-08-07 21:04:10.981855)  can0  000   [8]  AC 22 71 97 2F 5F 15 EE
 (2025-08-07 21:04:10.982707)  can0  043   [4]  00 8D 35 00
 (2025-08-07 21:04:10.982809)  can0  098   [1]  01
 (2025-08-07 21:04:10.983196)  can0  000   [8]  EC 65 9D 7F 79 79 B3 80
 (2025-08-07 21:04:10.985106)  can0  000   [8]  42 7B A4 56 8E 88 8A B7
 (2025-08-07 21:04:10.986874)  can0  000   [8]  07 57 C0 9C F1 05 B2 82
 (2025-08-07 21:04:10.988692)  can0  000   [8]  E5 50 65 E1 CE 01 26 57
 (2025-08-07 21:04:10.990408)  can0  000   [8]  51 F5 4B 1E 32 B7 73 94
 (2025-08-07 21:04:10.992125)  can0  000   [8]  16 04 08 E6 68 6E BB 09
 (2025-08-07 21:04:10.993809)  can0  043   [4]  00 8D 35 00
 (2025-08-07 21:04:10.993869)  can0  098   [1]  01
 (2025-08-07 21:04:10.994322)  can0  000   [8]  62 0E 78 96 9B 0B 7F 6A
 (2025-08-07 21:04:10.995135)  can0  02F   [2]  84 01
 (2025-08-07 21:04:10.995660)  can0  000   [8]  96 2C 90 A9 45 06 F8 71
 (2025-08-07 21:04:10.997834)  can0  000   [8]  E8 2E 85 D0 DF 57 13 D1
 (2025-08-07 21:04:10.999121)  can0  000   [8]  38 52 4A D7 28 E1 EF 77
 (2025-08-07 21:04:11.001089)  can0  000   [8]  CA A8 64 71 D6 3E 04 0F
 (2025-08-07 21:04:11.002805)  can0  000   [8]  82 EB E0 D7 25 91 2B 33
 (2025-08-07 21:04:11.003755)  can0  043   [4]  00 8D 35 00
 (2025-08-07 21:04:11.003854)  can0  098   [1]  01
 (2025-08-07 21:04:11.004585)  can0  000   [8]  BA C8 A2 3C 79 68 5F 94
 (2025-08-07 21:04:11.006394)  can0  000   [8]  01 24 06 3E 74 9A 3B C1
 (2025-08-07 21:04:11.008116)  can0  000   [8]  64 F3 5C 13 D5 2A 6A 71
 (2025-08-07 21:04:11.009908)  can0  02F   [2]  8E 01
 (2025-08-07 21:04:11.010250)  can0  000   [8]  19 FF 09 0B 23 F5 25 0C
 (2025-08-07 21:04:11.011602)  can0  000   [8]  05 3A 7C A4 F7 DD 83 14
 (2025-08-07 21:04:11.013383)  can0  000   [8]  1D 22 9F D5 FD C7 E3 2F
 (2025-08-07 21:04:11.013749)  can0  043   [4]  00 8D 35 00
 (2025-08-07 21:04:11.013857)  can0  098   [1]  01
 (2025-08-07 21:04:11.015111)  can0  000   [8]  68 AA 18 AD AF 93 BE B4
 (2025-08-07 21:04:11.016985)  can0  000   [8]  25 0E 96 E8 ED F0 F4 40
 (2025-08-07 21:04:11.018760)  can0  000   [8]  2F C0 8A 62 EE 52 14 59
 (2025-08-07 21:04:11.020533)  can0  000   [8]  C4 C4 64 46 13 C2 58 34
 (2025-08-07 21:04:11.022321)  can0  000   [8]  A7 D6 5A 2B 9A F6 BD B4
 (2025-08-07 21:04:11.023719)  can0  043   [4]  00 8D 35 00
 (2025-08-07 21:04:11.023815)  can0  098   [1]  01
 (2025-08-07 21:04:11.024599)  can0  000   [8]  32 0A AE 0E 63 33 D8 C9
 (2025-08-07 21:04:11.025769)  can0  02F   [2]  8E 01
 (2025-08-07 21:04:11.025990)  can0  000   [8]  0D FB 00 D1 A8 8B E7 2C
 (2025-08-07 21:04:11.027770)  can0  000   [8]  F4 79 A1 B4 B4 7B 01 4D
 (2025-08-07 21:04:11.029544)  can0  000   [8]  BF 6B 3D 5E AC 2F 1E 02
 (2025-08-07 21:04:11.031336)  can0  000   [8]  56 9B BA 2A 45 6E 26 E5
 (2025-08-07 21:04:11.033093)  can0  000   [8]  8D 49 5E C5 6B 7F D0 C1
 (2025-08-07 21:04:11.033785)  can0  043   [4]  00 8D 35 00
 (2025-08-07 21:04:11.033888)  can0  098   [1]  01
 (2025-08-07 21:04:11.034850)  can0  000   [8]  E4 9A 5E FB 15 10 F8 33
 (2025-08-07 21:04:11.036708)  can0  000   [8]  D3 7A E5 88 7B B2 B5 6A
 (2025-08-07 21:04:11.038419)  can0  000   [8]  65 BE 15 48 F1 B5 94 E5
 (2025-08-07 21:04:11.040130)  can0  000   [8]  AC 5C DC B7 59 9A A8 37
 (2025-08-07 21:04:11.041755)  can0  02F   [2]  8E 01
 (2025-08-07 21:04:11.041985)  can0  000   [8]  8D B5 32 39 66 A9 81 C1
 (2025-08-07 21:04:11.043771)  can0  043   [4]  00 8D 35 00
 (2025-08-07 21:04:11.043830)  can0  098   [1]  01
 (2025-08-07 21:04:11.044160)  can0  000   [8]  C6 A2 73 BE 3D 88 0F 2C
 (2025-08-07 21:04:11.045403)  can0  000   [8]  F9 61 35 81 DC F4 17 CC
 (2025-08-07 21:04:11.047147)  can0  000   [8]  67 E9 FF 29 10 61 50 20
 (2025-08-07 21:04:11.049024)  can0  000   [8]  65 9B 0F 68 5F 33 73 9B
 (2025-08-07 21:04:11.050740)  can0  000   [8]  B5 DD DF 66 9A B9 E0 8D
 (2025-08-07 21:04:11.052470)  can0  000   [8]  E2 A1 F3 5D EE 14 DA 0D
 (2025-08-07 21:04:11.053757)  can0  043   [4]  00 8D 35 00
 (2025-08-07 21:04:11.053854)  can0  098   [1]  01
 (2025-08-07 21:04:11.054280)  can0  000   [8]  8D 97 85 76 8C 1E 88 9C
 (2025-08-07 21:04:11.056073)  can0  000   [8]  98 B1 E1 0B 43 08 35 2B
 (2025-08-07 21:04:11.057818)  can0  02F   [2]  99 01
 (2025-08-07 21:04:11.058200)  can0  000   [8]  CA F3 45 7A 22 99 DE 9A
 (2025-08-07 21:04:11.059976)  can0  000   [8]  40 37 F1 F2 4E 2A AB BA
 (2025-08-07 21:04:11.061275)  can0  000   [8]  CF 60 02 81 2F 3E F5 13
 (2025-08-07 21:04:11.063011)  can0  000   [8]  FF CB 4B D8 69 6E 69 A2
 (2025-08-07 21:04:11.063707)  can0  043   [4]  00 8D 35 00
 (2025-08-07 21:04:11.063805)  can0  098   [1]  01
 (2025-08-07 21:04:11.064862)  can0  000   [8]  86 33 97 AF 37 BA 35 95
 (2025-08-07 21:04:11.066617)  can0  000   [8]  F9 06 92 89 36 AC 5D 88
 (2025-08-07 21:04:11.068398)  can0  000   [8]  F7 F6 2B 6B ED 18 02 A8
 (2025-08-07 21:04:11.070210)  can0  000   [8]  0B 39 7F AA 8B 24 4F AE
 (2025-08-07 21:04:11.071939)  can0  000   [8]  80 4B 4D 7D A6 79 73 7F
 (2025-08-07 21:04:11.073727)  can0  000   [8]  A0 EB 57 76 DE 6F EF AE
 (2025-08-07 21:04:11.073865)  can0  02F   [2]  99 01
 (2025-08-07 21:04:11.074018)  can0  043   [4]  00 8D 35 00
 (2025-08-07 21:04:11.074138)  can0  098   [1]  01
 (2025-08-07 21:04:11.075895)  can0  000   [8]  82 96 04 F4 A2 E5 1F 77
 (2025-08-07 21:04:11.077194)  can0  000   [8]  29 10 84 2B 14 07 33 FF
 (2025-08-07 21:04:11.078908)  can0  000   [8]  D2 60 55 D8 92 30 75 17
 (2025-08-07 21:04:11.081123)  can0  000   [8]  64 A1 54 3E F7 DC FD BF
 (2025-08-07 21:04:11.082437)  can0  000   [8]  D8 48 3C 34 22 66 A7 25
 (2025-08-07 21:04:11.083771)  can0  043   [4]  00 8D 35 00
 (2025-08-07 21:04:11.083868)  can0  098   [1]  01
 (2025-08-07 21:04:11.084202)  can0  000   [8]  86 2B F0 1E B6 2F 23 70
 (2025-08-07 21:04:11.086442)  can0  000   [8]  3B C9 15 B0 8C 68 F4 E1
 (2025-08-07 21:04:11.087773)  can0  000   [8]  ED D6 1E 35 45 C3 18 A3
 (2025-08-07 21:04:11.089662)  can0  000   [8]  70 87 C7 2E E6 6D F4 53
 (2025-08-07 21:04:11.089830)  can0  02F   [2]  A3 01
 (2025-08-07 21:04:11.091452)  can0  000   [8]  4A B6 06 4D DA 5B 52 01
 (2025-08-07 21:04:11.093259)  can0  000   [8]  60 BA 3F 48 03 25 38 B3
 (2025-08-07 21:04:11.093763)  can0  043   [4]  00 8D 35 00
 (2025-08-07 21:04:11.093863)  can0  098   [1]  01
 (2025-08-07 21:04:11.095003)  can0  000   [8]  E7 F2 0A F8 36 72 79 73
 (2025-08-07 21:04:11.096920)  can0  000   [8]  74 19 FD 21 F9 1C F1 8E
 (2025-08-07 21:04:11.098669)  can0  000   [8]  81 3C BB 13 35 6A 7C 48
 (2025-08-07 21:04:11.100766)  can0  000   [8]  84 48 02 E3 34 A8 B7 5E
 (2025-08-07 21:04:11.102077)  can0  000   [8]  34 88 73 E0 E4 8A E3 F1
 (2025-08-07 21:04:11.103703)  can0  043   [4]  00 8D 35 00
 (2025-08-07 21:04:11.103924)  can0  000   [8]  CB 02 57 78 31 1C 2B D3
 (2025-08-07 21:04:11.104040)  can0  098   [1]  01
 (2025-08-07 21:04:11.104824)  can0  02F   [2]  A3 01
 (2025-08-07 21:04:11.105603)  can0  000   [8]  20 73 14 92 C8 E5 92 ED
 (2025-08-07 21:04:11.107779)  can0  000   [8]  88 1D 23 61 0A B4 94 79
 (2025-08-07 21:04:11.109100)  can0  000   [8]  B8 60 D5 CB 4F 2C 6A 40
 (2025-08-07 21:04:11.110822)  can0  000   [8]  A0 9E CA A2 CB EF 04 36
 (2025-08-07 21:04:11.112555)  can0  000   [8]  33 49 D6 79 6E F6 C4 A0
 (2025-08-07 21:04:11.113752)  can0  043   [4]  00 8D 35 00
 (2025-08-07 21:04:11.113855)  can0  098   [1]  01
 (2025-08-07 21:04:11.114360)  can0  000   [8]  05 1D B0 A2 26 08 80 6C
 (2025-08-07 21:04:11.116547)  can0  000   [8]  54 9E 0E 43 6C 69 4F C7
 (2025-08-07 21:04:11.117883)  can0  000   [8]  A4 AA 73 1B 2D 21 73 DB
 (2025-08-07 21:04:11.119617)  can0  000   [8]  99 7E 81 AC 01 CF F4 F5
 (2025-08-07 21:04:11.120207)  can0  02F   [2]  AD 01
 (2025-08-07 21:04:11.121401)  can0  000   [8]  88 DD E9 EF A4 F2 BC 7B
 (2025-08-07 21:04:11.123136)  can0  000   [8]  73 14 37 41 7A D5 16 3D
 (2025-08-07 21:04:11.123749)  can0  043   [4]  00 8D 35 00
 (2025-08-07 21:04:11.123847)  can0  098   [1]  01
 (2025-08-07 21:04:11.124984)  can0  000   [8]  DC 7B 43 70 CF 8F 64 C1
 (2025-08-07 21:04:11.126798)  can0  000   [8]  CB 6A 0C CC 15 23 8B BA
 (2025-08-07 21:04:11.128576)  can0  000   [8]  1A 00 33 6F 3C 1B 94 25
 (2025-08-07 21:04:11.130405)  can0  000   [8]  41 9D A2 6D 36 77 24 49
 (2025-08-07 21:04:11.132493)  can0  000   [8]  AA 36 03 7B 38 2D 02 DF
 (2025-08-07 21:04:11.133805)  can0  000   [8]  6D 4E 01 58 D1 78 81 81
 (2025-08-07 21:04:11.133973)  can0  043   [4]  00 8D 35 00
 (2025-08-07 21:04:11.134106)  can0  098   [1]  01
 (2025-08-07 21:04:11.135548)  can0  000   [8]  9B F8 E8 87 1B 59 74 26
 (2025-08-07 21:04:11.135991)  can0  02F   [2]  AD 01
 (2025-08-07 21:04:11.137360)  can0  000   [8]  7B 8B E3 4A 7B 4B 66 52
 (2025-08-07 21:04:11.139540)  can0  000   [8]  51 91 19 0A 39 32 F4 7B
 (2025-08-07 21:04:11.140837)  can0  000   [8]  B4 25 1A 01 79 72 49 D7
 (2025-08-07 21:04:11.142724)  can0  000   [8]  21 62 DD 7A 12 6E 09 E5
 (2025-08-07 21:04:11.143633)  can0  043   [4]  00 8D 35 00
 (2025-08-07 21:04:11.143736)  can0  098   [1]  01
 (2025-08-07 21:04:11.144515)  can0  000   [8]  47 CB 38 0C 65 D8 B6 16
 (2025-08-07 21:04:11.146320)  can0  000   [8]  C3 E0 2E 0A A7 30 8A F2
 (2025-08-07 21:04:11.148035)  can0  000   [8]  F3 9B 5E 6F A1 8B BA EA
 (2025-08-07 21:04:11.149791)  can0  000   [8]  5E 64 6C 3A 52 9A 79 63
 (2025-08-07 21:04:11.150915)  can0  02F   [2]  AD 01
 (2025-08-07 21:04:11.151585)  can0  000   [8]  0E 94 8B AB AA 24 0B 44
 (2025-08-07 21:04:11.153396)  can0  000   [8]  3D D2 34 84 F0 22 A8 9D
 (2025-08-07 21:04:11.153713)  can0  043   [4]  00 8D 35 00
 (2025-08-07 21:04:11.153832)  can0  098   [1]  01
 (2025-08-07 21:04:11.155572)  can0  000   [8]  B5 85 79 8A CB E9 1B 15
 (2025-08-07 21:04:11.156871)  can0  000   [8]  CC 44 BD 0C 62 53 26 65
 (2025-08-07 21:04:11.158596)  can0  000   [8]  CA 23 EF 0A DE E3 E6 6F
 (2025-08-07 21:04:11.160348)  can0  000   [8]  2E E4 6B 78 D5 B4 C8 59
 (2025-08-07 21:04:11.162157)  can0  000   [8]  ED 76 4C D8 F2 E7 1F CE
 (2025-08-07 21:04:11.163802)  can0  043   [4]  00 8D 35 00
 (2025-08-07 21:04:11.164027)  can0  000   [8]  C4 1D 94 98 01 9A F6 E5
 (2025-08-07 21:04:11.164145)  can0  098   [1]  01
 (2025-08-07 21:04:11.165658)  can0  000   [8]  EA CE E0 26 75 F7 CF C2
 (2025-08-07 21:04:11.165837)  can0  02F   [2]  B7 01
 (2025-08-07 21:04:11.167454)  can0  000   [8]  DB F8 18 B2 A8 06 E7 A0
 (2025-08-07 21:04:11.169315)  can0  000   [8]  C2 2D 29 65 D2 F0 69 37
 (2025-08-07 21:04:11.171200)  can0  000   [8]  E4 8F AF F3 BE 4E EF 3B
 (2025-08-07 21:04:11.173374)  can0  000   [8]  A1 80 92 55 FE 24 A2 4C
 (2025-08-07 21:04:11.173800)  can0  043   [4]  00 8D 35 00
 (2025-08-07 21:04:11.173928)  can0  098   [1]  01
 (2025-08-07 21:04:11.174736)  can0  000   [8]  5A 0A 99 2C 11 D5 0A CD
 (2025-08-07 21:04:11.176500)  can0  000   [8]  C8 F7 BA 2E 92 BA 98 B3
 (2025-08-07 21:04:11.178324)  can0  000   [8]  D8 A4 4D 5B 12 CA D3 16
 (2025-08-07 21:04:11.180045)  can0  000   [8]  3B 14 80 E7 26 B9 0C F7
 (2025-08-07 21:04:11.181791)  can0  000   [8]  FF A4 1D 1A 79 71 CD 0C
 (2025-08-07 21:04:11.181937)  can0  02F   [2]  B7 01
 (2025-08-07 21:04:11.183529)  can0  000   [8]  78 70 48 1F B9 63 30 DD
 (2025-08-07 21:04:11.183753)  can0  043   [4]  00 8D 35 00
 (2025-08-07 21:04:11.183861)  can0  098   [1]  01
 (2025-08-07 21:04:11.185731)  can0  000   [8]  76 3F 8A 3E 08 B9 6D E3
 (2025-08-07 21:04:11.187033)  can0  000   [8]  36 31 E8 ED BC 76 37 2D
 (2025-08-07 21:04:11.188864)  can0  000   [8]  AA A0 16 A4 E5 38 67 58
 (2025-08-07 21:04:11.190577)  can0  000   [8]  44 B2 50 C0 5A AB F3 EA
 (2025-08-07 21:04:11.192347)  can0  000   [8]  1C 38 F6 81 DD 8F 19 47
 (2025-08-07 21:04:11.193788)  can0  043   [4]  00 8D 35 00
 (2025-08-07 21:04:11.193899)  can0  098   [1]  01
 (2025-08-07 21:04:11.194130)  can0  000   [8]  7A 9C B3 8E 6E E6 C2 95
 (2025-08-07 21:04:11.195999)  can0  000   [8]  EA E2 06 0B D6 68 65 EF
 (2025-08-07 21:04:11.196933)  can0  02F   [2]  C2 01
 (2025-08-07 21:04:11.197811)  can0  000   [8]  10 7E 42 CF AF 27 09 EE
 (2025-08-07 21:04:11.199608)  can0  000   [8]  12 28 7C 15 ED 06 1D A7
 (2025-08-07 21:04:11.201418)  can0  000   [8]  5B 53 C8 1E 1A 0C D4 98
 (2025-08-07 21:04:11.203576)  can0  000   [8]  5D 52 83 11 4C 73 E2 53
 (2025-08-07 21:04:11.203739)  can0  043   [4]  00 8D 35 00
 (2025-08-07 21:04:11.203858)  can0  098   [1]  00
 (2025-08-07 21:04:11.204911)  can0  000   [8]  5F 0D C8 7C 9D 99 95 3B
 (2025-08-07 21:04:11.206626)  can0  000   [8]  EC 30 85 9F C8 DE 6B 19
 (2025-08-07 21:04:11.208811)  can0  000   [8]  55 40 50 38 4F C6 59 30
 (2025-08-07 21:04:11.210112)  can0  000   [8]  15 CC 4F 93 D3 DC 95 AF
 (2025-08-07 21:04:11.211895)  can0  000   [8]  B4 94 60 A7 19 7A FB 3B
 (2025-08-07 21:04:11.212027)  can0  02F   [2]  C2 01
 (2025-08-07 21:04:11.213676)  can0  000   [8]  70 ED 8A DB 8D 86 D1 D6
 (2025-08-07 21:04:11.213837)  can0  043   [4]  00 8D 35 00
 (2025-08-07 21:04:11.213984)  can0  098   [1]  00
 (2025-08-07 21:04:11.215600)  can0  000   [8]  AE 36 E1 53 25 F6 38 A3
 (2025-08-07 21:04:11.217383)  can0  000   [8]  94 C1 BD 50 B3 CD 5F 68
 (2025-08-07 21:04:11.219076)  can0  000   [8]  5D 5A 14 2A 49 35 16 18
 (2025-08-07 21:04:11.221126)  can0  000   [8]  96 2F 12 D5 FC F0 EB CB
 (2025-08-07 21:04:11.222849)  can0  000   [8]  B7 36 02 1D E1 44 9D 16
 (2025-08-07 21:04:11.223876)  can0  043   [4]  00 8D 35 00
 (2025-08-07 21:04:11.223973)  can0  098   [1]  00
 (2025-08-07 21:04:11.224662)  can0  000   [8]  2A 15 57 16 14 BB C6 5E
 (2025-08-07 21:04:11.226617)  can0  000   [8]  09 70 AB BB E4 D7 4A 3E
 (2025-08-07 21:04:11.227999)  can0  02F   [2]  C2 01
 (2025-08-07 21:04:11.228870)  can0  000   [8]  3F 55 B3 81 92 A9 E2 56
 (2025-08-07 21:04:11.230174)  can0  000   [8]  D6 F6 EC 4E 73 47 CD 66
 (2025-08-07 21:04:11.231934)  can0  000   [8]  E4 47 3B 25 E7 78 06 7C
 (2025-08-07 21:04:11.233713)  can0  000   [8]  1E 79 51 11 9F A5 90 78
 (2025-08-07 21:04:11.233872)  can0  043   [4]  00 8D 35 00
 (2025-08-07 21:04:11.233982)  can0  098   [1]  00
 (2025-08-07 21:04:11.235644)  can0  000   [8]  AE E9 51 CF A1 6D E9 1A
 (2025-08-07 21:04:11.237455)  can0  000   [8]  2E 63 2D BD 5D C2 CA BB
 (2025-08-07 21:04:11.239156)  can0  000   [8]  07 98 98 70 E4 FB 05 F0
 (2025-08-07 21:04:11.240947)  can0  000   [8]  2D 73 39 99 99 65 FB 96
 (2025-08-07 21:04:11.242640)  can0  000   [8]  C5 34 F7 59 61 17 78 61
 (2025-08-07 21:04:11.244330)  can0  02F   [2]  CC 01
 (2025-08-07 21:04:11.244543)  can0  043   [4]  00 8D 35 00
 (2025-08-07 21:04:11.244754)  can0  000   [8]  51 09 5D 09 FC 4B CB 69
 (2025-08-07 21:04:11.244873)  can0  098   [1]  00
 (2025-08-07 21:04:11.246087)  can0  000   [8]  3C AE CB 03 47 E4 70 3A
 (2025-08-07 21:04:11.247806)  can0  000   [8]  24 D7 35 3B 64 4B 37 A4
 (2025-08-07 21:04:11.249630)  can0  000   [8]  26 2F 08 EF 6F 32 1F AB
 (2025-08-07 21:04:11.251428)  can0  000   [8]  50 2F 95 FE 73 CE B1 85
 (2025-08-07 21:04:11.253244)  can0  000   [8]  DD 12 C3 F6 CF A4 1B 10
 (2025-08-07 21:04:11.253872)  can0  043   [4]  00 8D 35 00
 (2025-08-07 21:04:11.253972)  can0  098   [1]  00
 (2025-08-07 21:04:11.254994)  can0  000   [8]  36 AC 39 C6 0C 33 E4 39
 (2025-08-07 21:04:11.256834)  can0  000   [8]  D1 0A 90 35 1B AD 40 EB
 (2025-08-07 21:04:11.258539)  can0  000   [8]  54 B8 68 D9 A9 44 66 D2
 (2025-08-07 21:04:11.260249)  can0  000   [8]  75 1C 77 0E 01 C9 38 41
 (2025-08-07 21:04:11.261983)  can0  02F   [2]  CC 01
 (2025-08-07 21:04:11.262338)  can0  000   [8]  5A 33 66 23 79 2F E0 C5
 (2025-08-07 21:04:11.263552)  can0  043   [4]  00 8D 35 00
 (2025-08-07 21:04:11.263768)  can0  000   [8]  73 26 4B 89 26 4D 81 48
 (2025-08-07 21:04:11.263884)  can0  098   [1]  00
 (2025-08-07 21:04:11.265513)  can0  000   [8]  DF 1B A6 9F EF 5B A2 02
 (2025-08-07 21:04:11.267336)  can0  000   [8]  20 EE 6F F3 6B 7A 84 97
 (2025-08-07 21:04:11.269145)  can0  000   [8]  E7 6F 04 ED A2 C0 66 4B
 (2025-08-07 21:04:11.270907)  can0  000   [8]  8F B2 0F 3A 37 61 8C C9
 (2025-08-07 21:04:11.272724)  can0  000   [8]  44 A7 6D 8B AC 42 24 3B
 (2025-08-07 21:04:11.273422)  can0  043   [4]  00 8D 35 00
 (2025-08-07 21:04:11.273538)  can0  02F   [2]  CC 01
 (2025-08-07 21:04:11.273654)  can0  098   [1]  00
 (2025-08-07 21:04:11.274545)  can0  000   [8]  B4 0A 08 F1 06 90 08 B2
 (2025-08-07 21:04:11.276678)  can0  000   [8]  32 20 C3 D9 E1 6A 6A F2
 (2025-08-07 21:04:11.277993)  can0  000   [8]  6C E2 C2 04 66 7C B7 92
 (2025-08-07 21:04:11.279704)  can0  000   [8]  95 D9 BB 1C E7 FD 2F 53
 (2025-08-07 21:04:11.281452)  can0  000   [8]  5E 40 46 55 0E 34 DD EA
 (2025-08-07 21:04:11.283145)  can0  000   [8]  C0 11 0B 5E 7E E7 03 83
 (2025-08-07 21:04:11.283598)  can0  043   [4]  00 8D 35 00
 (2025-08-07 21:04:11.283704)  can0  098   [1]  00
 (2025-08-07 21:04:11.284981)  can0  000   [8]  08 4B C9 C8 42 67 34 5D
 (2025-08-07 21:04:11.286719)  can0  000   [8]  5A 88 5A 8E 29 F0 62 65
 (2025-08-07 21:04:11.288500)  can0  000   [8]  75 C7 BB 60 D4 D0 FE 03
 (2025-08-07 21:04:11.289480)  can0  02F   [2]  D6 01
 (2025-08-07 21:04:11.290373)  can0  000   [8]  1F 8E 8C D2 E2 2A 31 F6
 (2025-08-07 21:04:11.292503)  can0  000   [8]  7C BB E7 1A 66 66 73 B1
 (2025-08-07 21:04:11.293598)  can0  043   [4]  00 8D 35 00
 (2025-08-07 21:04:11.293819)  can0  000   [8]  BC 6F E7 A8 70 28 90 33
 (2025-08-07 21:04:11.293983)  can0  098   [1]  00
 (2025-08-07 21:04:11.295614)  can0  000   [8]  D8 1B FF FD 8D A0 48 3C
 (2025-08-07 21:04:11.297389)  can0  000   [8]  84 71 6A 58 47 CD F3 B8
 (2025-08-07 21:04:11.299100)  can0  000   [8]  06 BF 43 BD 16 82 12 F5
 (2025-08-07 21:04:11.300922)  can0  000   [8]  84 B9 80 4D 56 29 C2 FF
 (2025-08-07 21:04:11.302632)  can0  000   [8]  A0 0B 8E 6E E0 2D 70 61
 (2025-08-07 21:04:11.303862)  can0  043   [4]  00 8D 35 00
 (2025-08-07 21:04:11.303962)  can0  098   [1]  00
 (2025-08-07 21:04:11.304100)  can0  02F   [2]  D6 01
 (2025-08-07 21:04:11.304427)  can0  000   [8]  23 DD 3F 27 D3 FD 63 34
 (2025-08-07 21:04:11.306354)  can0  000   [8]  14 A0 9A 86 FA 9D 5D 46
 (2025-08-07 21:04:11.308314)  can0  000   [8]  99 DC 8E FC DE 7A 15 EC
 (2025-08-07 21:04:11.310477)  can0  000   [8]  D6 34 99 1D 06 64 57 D5
 (2025-08-07 21:04:11.311793)  can0  000   [8]  31 28 5A A3 A1 45 01 5D
 (2025-08-07 21:04:11.313564)  can0  000   [8]  11 4C 44 65 68 BF D2 7B
 (2025-08-07 21:04:11.314292)  can0  043   [4]  00 8D 35 00
 (2025-08-07 21:04:11.314392)  can0  098   [1]  00
 (2025-08-07 21:04:11.315358)  can0  000   [8]  0F B2 BA 79 1A D3 65 D8
 (2025-08-07 21:04:11.317491)  can0  000   [8]  3F 7B E9 1D DB F3 AB FD
 (2025-08-07 21:04:11.318782)  can0  000   [8]  F4 09 EF 15 00 1C 8E AD
 (2025-08-07 21:04:11.319055)  can0  02F   [2]  D6 01
 (2025-08-07 21:04:11.320525)  can0  000   [8]  93 19 CF D8 BC E6 CA 36
 (2025-08-07 21:04:11.322663)  can0  000   [8]  97 49 4E 74 3B A6 EF D3
 (2025-08-07 21:04:11.324005)  can0  000   [8]  B7 A9 0D B4 4F C6 82 0A
 (2025-08-07 21:04:11.324344)  can0  043   [4]  00 8D 35 00
 (2025-08-07 21:04:11.324454)  can0  098   [1]  00
 (2025-08-07 21:04:11.325802)  can0  000   [8]  18 02 4D C5 46 8B 8D EC
 (2025-08-07 21:04:11.327555)  can0  000   [8]  EF 7D 1E 18 A8 97 01 02
 (2025-08-07 21:04:11.329299)  can0  000   [8]  F0 38 70 62 74 AB 64 36
 (2025-08-07 21:04:11.331018)  can0  000   [8]  88 75 46 BC 74 9B 8E 30
 (2025-08-07 21:04:11.332831)  can0  000   [8]  ED 5A 33 E6 CB 5C 6D C5
 (2025-08-07 21:04:11.334093)  can0  02F   [2]  E0 01
 (2025-08-07 21:04:11.334557)  can0  000   [8]  EF 14 31 B1 0E D0 D6 89
 (2025-08-07 21:04:11.334812)  can0  043   [4]  00 8D 35 00
 (2025-08-07 21:04:11.334913)  can0  098   [1]  00
 (2025-08-07 21:04:11.336404)  can0  000   [8]  04 E6 02 4E 35 C5 CF BF
 (2025-08-07 21:04:11.338572)  can0  000   [8]  7B 13 FA 87 E8 99 FF EF
 (2025-08-07 21:04:11.339861)  can0  000   [8]  A5 AA 9B 6F 76 A3 78 6C
 (2025-08-07 21:04:11.341642)  can0  000   [8]  DC D7 87 D4 47 BB 8F E1
 (2025-08-07 21:04:11.343393)  can0  000   [8]  A4 69 88 E7 3F 63 C0 12
 (2025-08-07 21:04:11.344672)  can0  043   [4]  00 8D 35 00
 (2025-08-07 21:04:11.344772)  can0  098   [1]  00
 (2025-08-07 21:04:11.345170)  can0  000   [8]  74 4F 06 B1 E0 21 CE 26
 (2025-08-07 21:04:11.346973)  can0  000   [8]  FD 48 7D EE 7A A2 9C 5F
 (2025-08-07 21:04:11.348796)  can0  000   [8]  01 F5 6D C7 51 57 E6 71
 (2025-08-07 21:04:11.348994)  can0  02F   [2]  E0 01
 (2025-08-07 21:04:11.350531)  can0  000   [8]  13 0D 36 90 4F 43 E0 50
 (2025-08-07 21:04:11.352237)  can0  000   [8]  48 C0 0C 1C 0E 93 B5 5C
 (2025-08-07 21:04:11.354319)  can0  000   [8]  B1 32 12 FA 36 EE 59 EC
 (2025-08-07 21:04:11.354724)  can0  043   [4]  00 8D 35 00
 (2025-08-07 21:04:11.354841)  can0  098   [1]  00
 (2025-08-07 21:04:11.356064)  can0  000   [8]  5B 78 7A 70 F8 9D A3 DB
 (2025-08-07 21:04:11.357372)  can0  000   [8]  B4 CD 66 09 22 05 F0 EF
 (2025-08-07 21:04:11.359063)  can0  000   [8]  1F 5C 3D 9C 83 55 C5 69
 (2025-08-07 21:04:11.360859)  can0  000   [8]  8B 6D 79 43 E9 0C EC 3E
 (2025-08-07 21:04:11.362573)  can0  000   [8]  7B 0E 36 2A C2 81 72 65
 (2025-08-07 21:04:11.364293)  can0  000   [8]  8F DA 29 CE 95 AA 58 95
 (2025-08-07 21:04:11.364898)  can0  043   [4]  00 8D 35 00
 (2025-08-07 21:04:11.364998)  can0  098   [1]  00
 (2025-08-07 21:04:11.365134)  can0  02F   [2]  E0 01
 (2025-08-07 21:04:11.366074)  can0  000   [8]  3F 7A 94 C8 3A 14 B7 62
 (2025-08-07 21:04:11.367830)  can0  000   [8]  E5 E3 98 B0 6F 9C FD A7
 (2025-08-07 21:04:11.369593)  can0  000   [8]  DA 91 E7 AC 1B F7 F1 C0
 (2025-08-07 21:04:11.371336)  can0  000   [8]  2F 13 E6 15 87 59 78 71
 (2025-08-07 21:04:11.373472)  can0  000   [8]  75 C3 46 EB 7D 0E CB 2F
 (2025-08-07 21:04:11.374767)  can0  000   [8]  E9 E7 93 86 53 C0 3F 76
 (2025-08-07 21:04:11.374958)  can0  043   [4]  00 8D 35 00
 (2025-08-07 21:04:11.375031)  can0  098   [1]  00
 (2025-08-07 21:04:11.376524)  can0  000   [8]  93 F6 7F C8 AE 02 89 43
 (2025-08-07 21:04:11.378361)  can0  000   [8]  DD C0 B5 40 D6 EC CC BA
 (2025-08-07 21:04:11.380087)  can0  000   [8]  67 F9 8D 63 DF C3 2E 67
 (2025-08-07 21:04:11.381057)  can0  02F   [2]  EB 01
 (2025-08-07 21:04:11.381894)  can0  000   [8]  67 1B A2 B8 7C B0 3A E3
 (2025-08-07 21:04:11.383648)  can0  000   [8]  70 0B 81 07 C1 93 57 CE
 (2025-08-07 21:04:11.384804)  can0  043   [4]  00 8D 35 00
 (2025-08-07 21:04:11.384907)  can0  098   [1]  00
 (2025-08-07 21:04:11.385474)  can0  000   [8]  DF 63 0B E4 2B D7 0F CE
 (2025-08-07 21:04:11.387712)  can0  000   [8]  69 8C 12 77 0B 2D C5 08
 (2025-08-07 21:04:11.389043)  can0  000   [8]  24 7D 2B EA 7C BC 54 92
 (2025-08-07 21:04:11.390776)  can0  000   [8]  F0 32 ED 0F 5A 5E 41 D8
 (2025-08-07 21:04:11.392483)  can0  000   [8]  05 EE EB A7 24 E9 04 A2
 (2025-08-07 21:04:11.394405)  can0  000   [8]  E3 92 5A 4F 3E A1 1F 40
 (2025-08-07 21:04:11.394983)  can0  043   [4]  00 8D 35 00
 (2025-08-07 21:04:11.395036)  can0  098   [1]  00
 (2025-08-07 21:04:11.396153)  can0  000   [8]  FB 2D 5D 5A FF 8E 25 36
 (2025-08-07 21:04:11.397175)  can0  02F   [2]  EB 01
 (2025-08-07 21:04:11.397976)  can0  000   [8]  82 09 0C AC 73 F8 0C 85
 (2025-08-07 21:04:11.400201)  can0  000   [8]  EE 21 7C 97 99 64 E8 E8
 (2025-08-07 21:04:11.401513)  can0  000   [8]  70 DD 59 73 3E AA C4 50
 (2025-08-07 21:04:11.403263)  can0  000   [8]  23 DF 4D 40 85 9C 2E 6E
 (2025-08-07 21:04:11.404879)  can0  043   [4]  00 8D 35 00
 (2025-08-07 21:04:11.405098)  can0  000   [8]  DD 76 16 DF C5 46 C4 FA
 (2025-08-07 21:04:11.405220)  can0  098   [1]  00
 (2025-08-07 21:04:11.406812)  can0  000   [8]  94 90 03 0D D1 EB 5B 85
 (2025-08-07 21:04:11.408617)  can0  000   [8]  D9 F1 8C 10 89 17 4F 57
 (2025-08-07 21:04:11.410475)  can0  000   [8]  0D 8F CD 74 B6 A1 96 64
 (2025-08-07 21:04:11.411119)  can0  02F   [2]  F5 01
 (2025-08-07 21:04:11.412246)  can0  000   [8]  BF 1D 87 F8 43 46 18 2C
 (2025-08-07 21:04:11.413991)  can0  000   [8]  04 AA 5B 46 76 40 7B 15
 (2025-08-07 21:04:11.414917)  can0  043   [4]  00 8D 35 00
 (2025-08-07 21:04:11.415008)  can0  098   [1]  00
 (2025-08-07 21:04:11.416182)  can0  000   [8]  71 F0 7C 7E EA 7E 34 69
 (2025-08-07 21:04:11.417489)  can0  000   [8]  FC DB 43 73 C8 27 72 8B
 (2025-08-07 21:04:11.419244)  can0  000   [8]  09 1A B3 E6 9C BA A3 CF
 (2025-08-07 21:04:11.421175)  can0  000   [8]  16 11 04 6B F7 3D 37 1F
 (2025-08-07 21:04:11.422976)  can0  000   [8]  AC 0D A7 19 BC 1F F8 CA
 (2025-08-07 21:04:11.424748)  can0  000   [8]  74 D9 8F 3C 25 72 14 D7
 (2025-08-07 21:04:11.424929)  can0  043   [4]  00 8D 35 00
 (2025-08-07 21:04:11.425034)  can0  098   [1]  00
 (2025-08-07 21:04:11.426514)  can0  000   [8]  B2 FB E5 6F 83 42 80 F5
 (2025-08-07 21:04:11.427186)  can0  02F   [2]  F5 01
 (2025-08-07 21:04:11.428263)  can0  000   [8]  D1 25 71 F8 F2 4D 19 9D
 (2025-08-07 21:04:11.430384)  can0  000   [8]  A8 39 E5 FB 90 F9 43 9F
 (2025-08-07 21:04:11.431666)  can0  000   [8]  59 BB 00 43 EC 2C B7 99
 (2025-08-07 21:04:11.433794)  can0  000   [8]  5A 17 06 F4 22 B3 BF 92
 (2025-08-07 21:04:11.434736)  can0  043   [4]  00 8D 35 00
 (2025-08-07 21:04:11.434869)  can0  098   [1]  00
 (2025-08-07 21:04:11.435106)  can0  000   [8]  2B 5E B4 04 6D F7 45 3B
 (2025-08-07 21:04:11.437022)  can0  000   [8]  84 6C 16 92 5A C8 C8 8B
 (2025-08-07 21:04:11.439082)  can0  000   [8]  19 28 A1 C0 D2 16 09 B6
 (2025-08-07 21:04:11.440410)  can0  000   [8]  1C 1F 3A E3 05 E9 1C 0D
 (2025-08-07 21:04:11.442148)  can0  000   [8]  AA BA AD E3 D3 E2 56 FF
 (2025-08-07 21:04:11.442459)  can0  02F   [2]  F5 01
 (2025-08-07 21:04:11.443907)  can0  000   [8]  6C B6 D8 11 2B B3 B5 4E
 (2025-08-07 21:04:11.444609)  can0  043   [4]  00 8D 35 00
 (2025-08-07 21:04:11.444701)  can0  098   [1]  00
 (2025-08-07 21:04:11.445729)  can0  000   [8]  2A 54 47 EB CF 65 8D E3
 (2025-08-07 21:04:11.447499)  can0  000   [8]  15 E8 32 25 46 6D 86 5E
 (2025-08-07 21:04:11.449303)  can0  000   [8]  19 4B 4C B9 28 88 25 C8
 (2025-08-07 21:04:11.451094)  can0  000   [8]  6A 62 06 00 AA 77 14 EF
 (2025-08-07 21:04:11.453431)  can0  000   [8]  17 DF CB B2 66 19 20 68
 (2025-08-07 21:04:11.454746)  can0  000   [8]  9E 9D 55 BC 80 57 2D C4
 (2025-08-07 21:04:11.455123)  can0  043   [4]  00 8D 35 00
 (2025-08-07 21:04:11.455225)  can0  098   [1]  00
 (2025-08-07 21:04:11.456518)  can0  000   [8]  8F 2F DA EE 8D D6 E0 0A
 (2025-08-07 21:04:11.457499)  can0  02F   [2]  FF 01
 (2025-08-07 21:04:11.458703)  can0  000   [8]  DB 83 F4 B9 B9 9D EF 8D
 (2025-08-07 21:04:11.460022)  can0  000   [8]  EB 3A CD 09 17 95 91 F6
 (2025-08-07 21:04:11.461787)  can0  000   [8]  3D DB 34 7B E7 8F 23 F3
 (2025-08-07 21:04:11.463493)  can0  000   [8]  7C 39 CF FD ED 2C EF 1E
 (2025-08-07 21:04:11.465266)  can0  000   [8]  BB 58 70 93 90 A6 A7 55
 (2025-08-07 21:04:11.465432)  can0  043   [4]  00 8D 35 00
 (2025-08-07 21:04:11.465553)  can0  098   [1]  00
 (2025-08-07 21:04:11.467046)  can0  000   [8]  24 CD 22 98 33 FD 95 AB
 (2025-08-07 21:04:11.468921)  can0  000   [8]  EC E8 5D 9C CD 3A 5C DA
 (2025-08-07 21:04:11.470648)  can0  000   [8]  E0 1D 7D 66 2C F6 66 70
 (2025-08-07 21:04:11.472342)  can0  000   [8]  E5 1E 6B 88 23 11 B0 BD
 (2025-08-07 21:04:11.473193)  can0  02F   [2]  FF 01
 (2025-08-07 21:04:11.474504)  can0  000   [8]  22 C1 64 D6 26 49 6A 00
 (2025-08-07 21:04:11.474856)  can0  043   [4]  00 8D 35 00
 (2025-08-07 21:04:11.474995)  can0  098   [1]  00
 (2025-08-07 21:04:11.475868)  can0  000   [8]  AF B3 9D 67 CC 50 B1 F9
 (2025-08-07 21:04:11.477654)  can0  000   [8]  8A DB 79 6D A9 07 CB 8B
 (2025-08-07 21:04:11.479450)  can0  000   [8]  81 8D 65 6B C7 63 E5 72
 (2025-08-07 21:04:11.481225)  can0  000   [8]  CD AE 99 A1 7A 1F 48 E5
 (2025-08-07 21:04:11.482973)  can0  000   [8]  76 F2 B4 E4 7F 46 36 45
 (2025-08-07 21:04:11.484747)  can0  000   [8]  7B 73 31 68 11 E3 BB AA
 (2025-08-07 21:04:11.484958)  can0  043   [4]  00 8D 35 00
 (2025-08-07 21:04:11.485069)  can0  098   [1]  00
 (2025-08-07 21:04:11.486482)  can0  000   [8]  7C 7A 75 21 DA CD 5A DA
 (2025-08-07 21:04:11.488203)  can0  000   [8]  7E 84 8B 4F 11 01 55 3B
 (2025-08-07 21:04:11.488424)  can0  02F   [2]  FF 01
 (2025-08-07 21:04:11.490376)  can0  000   [8]  72 9D D3 9C 86 C5 7B 9A
 (2025-08-07 21:04:11.491706)  can0  000   [8]  FF D1 13 71 E6 0C 25 BE
 (2025-08-07 21:04:11.493507)  can0  000   [8]  56 54 59 44 E3 CC 2E 7E
 (2025-08-07 21:04:11.494956)  can0  043   [4]  00 8D 35 00
 (2025-08-07 21:04:11.495011)  can0  098   [1]  00
 (2025-08-07 21:04:11.495343)  can0  000   [8]  D5 10 40 88 51 AE 47 00
 (2025-08-07 21:04:11.497245)  can0  000   [8]  70 3E 4E 65 E5 77 F0 D7
 (2025-08-07 21:04:11.498968)  can0  000   [8]  C8 01 69 3D 17 04 C1 1A
 (2025-08-07 21:04:11.500767)  can0  000   [8]  00 AC 2D 54 D0 20 74 B5
 (2025-08-07 21:04:11.502848)  can0  000   [8]  28 32 BD 27 B2 CC 2C 2D
 (2025-08-07 21:04:11.503708)  can0  02F   [2]  09 02
 (2025-08-07 21:04:11.504205)  can0  000   [8]  07 C6 23 E5 96 AC AF 97
 (2025-08-07 21:04:11.504895)  can0  043   [4]  00 8D 35 00
 (2025-08-07 21:04:11.504997)  can0  098   [1]  00
 (2025-08-07 21:04:11.506052)  can0  000   [8]  59 99 0B 97 93 7F 70 37
 (2025-08-07 21:04:11.507815)  can0  000   [8]  0F 0C 29 C0 78 CC 47 6D
 (2025-08-07 21:04:11.509609)  can0  000   [8]  1C DF 3A 37 BC 74 15 0F
 (2025-08-07 21:04:11.511473)  can0  000   [8]  A2 9D E0 3B 1F 72 0F B9
 (2025-08-07 21:04:11.513270)  can0  000   [8]  3D 06 0B AA D4 FE 8A 07
 (2025-08-07 21:04:11.514958)  can0  043   [4]  00 8D 35 00
 (2025-08-07 21:04:11.515026)  can0  098   [1]  00
 (2025-08-07 21:04:11.515407)  can0  000   [8]  DF D3 F0 48 79 57 5B A9
 (2025-08-07 21:04:11.516748)  can0  000   [8]  D2 00 00 19 8D B3 13 2D
 (2025-08-07 21:04:11.518300)  can0  02F   [2]  09 02
 (2025-08-07 21:04:11.518513)  can0  000   [8]  E8 49 26 9C 70 E2 CA D8
 (2025-08-07 21:04:11.520262)  can0  000   [8]  5B BB C4 63 F4 6D 6F 8E
 (2025-08-07 21:04:11.522089)  can0  000   [8]  98 12 67 84 0A 34 9D 56
 (2025-08-07 21:04:11.523836)  can0  000   [8]  95 DB 7B CB D2 88 01 08
 (2025-08-07 21:04:11.524872)  can0  043   [4]  00 8D 35 00
 (2025-08-07 21:04:11.524966)  can0  098   [1]  00
 (2025-08-07 21:04:11.525829)  can0  000   [8]  F4 72 29 16 35 88 21 66
 (2025-08-07 21:04:11.527617)  can0  000   [8]  29 58 99 14 F7 05 B3 BA
 (2025-08-07 21:04:11.529377)  can0  000   [8]  D0 2A 99 79 5C 33 AE FF
 (2025-08-07 21:04:11.531141)  can0  000   [8]  4E 91 22 73 F2 62 38 34
 (2025-08-07 21:04:11.532987)  can0  02F   [2]  13 02
 (2025-08-07 21:04:11.533338)  can0  000   [8]  2C 21 89 C5 97 FB C9 DB
 (2025-08-07 21:04:11.534677)  can0  000   [8]  0B 3C D6 B5 09 1C E0 BD
 (2025-08-07 21:04:11.534864)  can0  043   [4]  00 8D 35 00
 (2025-08-07 21:04:11.534988)  can0  098   [1]  00
 (2025-08-07 21:04:11.536446)  can0  000   [8]  B8 1A 58 F3 AC 18 C7 31
 (2025-08-07 21:04:11.538305)  can0  000   [8]  33 AF D7 0A DD 23 EA 73
 (2025-08-07 21:04:11.540053)  can0  000   [8]  44 13 1F 5E 8D A8 34 DF
 (2025-08-07 21:04:11.541806)  can0  000   [8]  BF 14 BF CB F5 3A 4A 2D
 (2025-08-07 21:04:11.543535)  can0  000   [8]  42 A5 93 18 BF 1F 38 78
 (2025-08-07 21:04:11.545166)  can0  043   [4]  00 8D 35 00
 (2025-08-07 21:04:11.545377)  can0  000   [8]  5E 5A 08 19 65 FD B2 B4
 (2025-08-07 21:04:11.545484)  can0  098   [1]  00
 (2025-08-07 21:04:11.547132)  can0  000   [8]  29 D7 AF 51 D0 AF 51 CD
 (2025-08-07 21:04:11.548307)  can0  02F   [2]  13 02
 (2025-08-07 21:04:11.548982)  can0  000   [8]  39 5F 43 EC 9C C9 35 1C
 (2025-08-07 21:04:11.551070)  can0  000   [8]  56 C4 F9 EF DB FC 51 E0
 (2025-08-07 21:04:11.552409)  can0  000   [8]  18 19 48 B8 5C D1 28 CA
 (2025-08-07 21:04:11.554524)  can0  000   [8]  DD 5F 6B AB 2D 24 4D D7
 (2025-08-07 21:04:11.554690)  can0  043   [4]  00 8D 35 00
 (2025-08-07 21:04:11.554806)  can0  098   [1]  00
 (2025-08-07 21:04:11.555904)  can0  000   [8]  ED 3D 4C 6C C7 3E C2 F8
 (2025-08-07 21:04:11.557691)  can0  000   [8]  82 40 BE B1 1F 17 14 5F
 (2025-08-07 21:04:11.559443)  can0  000   [8]  A9 45 3D 00 79 DE CE FB
 (2025-08-07 21:04:11.561194)  can0  000   [8]  EB 9D 2A 4E 38 C3 35 77
 (2025-08-07 21:04:11.562889)  can0  000   [8]  ED 15 65 15 49 F6 68 21
 (2025-08-07 21:04:11.563200)  can0  02F   [2]  1E 02
 (2025-08-07 21:04:11.564700)  can0  000   [8]  59 19 D4 29 30 78 14 02
 (2025-08-07 21:04:11.565046)  can0  043   [4]  00 8D 35 00
 (2025-08-07 21:04:11.565151)  can0  098   [1]  00
 (2025-08-07 21:04:11.566451)  can0  000   [8]  76 7C 7D AD B2 8E BA 10
 (2025-08-07 21:04:11.568231)  can0  000   [8]  F9 81 C9 76 A2 AB 01 BE
 (2025-08-07 21:04:11.570345)  can0  000   [8]  66 9C B4 54 A5 3E 82 18
 (2025-08-07 21:04:11.571638)  can0  000   [8]  B8 A1 D0 D3 F2 C5 33 5E
 (2025-08-07 21:04:11.573420)  can0  000   [8]  8E E7 39 A7 E6 C1 30 6C
 (2025-08-07 21:04:11.575150)  can0  000   [8]  F7 E0 AA FA F4 E7 5F 2D
 (2025-08-07 21:04:11.575319)  can0  043   [4]  00 8D 35 00
 (2025-08-07 21:04:11.575476)  can0  098   [1]  00
 (2025-08-07 21:04:11.577011)  can0  000   [8]  23 16 D8 AF F2 5B DA 45
 (2025-08-07 21:04:11.578332)  can0  02F   [2]  1E 02
 (2025-08-07 21:04:11.578765)  can0  000   [8]  2D DE B4 6B 0F 37 ED 2A
 (2025-08-07 21:04:11.580619)  can0  000   [8]  C9 60 5A 8A E4 89 67 69
 (2025-08-07 21:04:11.582426)  can0  000   [8]  FA 81 4A 06 CC 37 CF 69
 (2025-08-07 21:04:11.584548)  can0  000   [8]  2C 3D 9D D5 6C A5 A5 C7
 (2025-08-07 21:04:11.584711)  can0  043   [4]  00 8D 35 00
 (2025-08-07 21:04:11.584829)  can0  098   [1]  00
 (2025-08-07 21:04:11.585906)  can0  000   [8]  57 4C 26 C6 5A AF E7 50
 (2025-08-07 21:04:11.587670)  can0  000   [8]  1D 4E 51 0D DB EA 72 A6
 (2025-08-07 21:04:11.589435)  can0  000   [8]  E8 02 92 F4 3A BB 2A 82
 (2025-08-07 21:04:11.591131)  can0  000   [8]  42 A0 F5 C2 96 2C 28 BC
 (2025-08-07 21:04:11.593290)  can0  000   [8]  48 54 F5 9F 87 3F 41 95
 (2025-08-07 21:04:11.593567)  can0  02F   [2]  1E 02
 (2025-08-07 21:04:11.594630)  can0  000   [8]  0B CE DB 9E E9 7A C1 7C
 (2025-08-07 21:04:11.594833)  can0  043   [4]  00 8D 35 00
 (2025-08-07 21:04:11.594983)  can0  098   [1]  00
 (2025-08-07 21:04:11.596431)  can0  000   [8]  CB 8B 23 4D 0B 8E 90 6D
 (2025-08-07 21:04:11.598218)  can0  000   [8]  55 5F 9A A9 77 C2 8A 47
 (2025-08-07 21:04:11.599933)  can0  000   [8]  4F 59 23 A1 3E 08 66 61
 (2025-08-07 21:04:11.601701)  can0  000   [8]  F7 F3 54 4B E9 46 BF 33
 (2025-08-07 21:04:11.603499)  can0  000   [8]  18 B2 58 05 10 6F 14 A5
 (2025-08-07 21:04:11.605223)  can0  043   [4]  00 8D 35 00
 (2025-08-07 21:04:11.605433)  can0  000   [8]  70 44 72 EA A4 58 E0 E9
 (2025-08-07 21:04:11.605555)  can0  098   [1]  00
 (2025-08-07 21:04:11.607144)  can0  000   [8]  EA 48 8D 1B D5 18 09 0E
 (2025-08-07 21:04:11.609384)  can0  000   [8]  B4 06 8A 2B 55 E5 B3 F3
 (2025-08-07 21:04:11.609506)  can0  02F   [2]  28 02
 (2025-08-07 21:04:11.611109)  can0  000   [8]  F0 41 73 FF 56 70 0A 0F
 (2025-08-07 21:04:11.612408)  can0  000   [8]  4A C5 EA 6B 7D 9F 16 F0
 (2025-08-07 21:04:11.614160)  can0  000   [8]  8A C0 5D CF AE 31 D2 1E
 (2025-08-07 21:04:11.615241)  can0  043   [4]  00 8D 35 00
 (2025-08-07 21:04:11.615346)  can0  098   [1]  00
 (2025-08-07 21:04:11.615959)  can0  000   [8]  EE 11 9A CD 7C C4 B1 54
 (2025-08-07 21:04:11.617842)  can0  000   [8]  44 66 50 B4 A7 C7 17 AE
 (2025-08-07 21:04:11.619597)  can0  000   [8]  24 49 A5 C0 8E A5 A0 03
 (2025-08-07 21:04:11.621349)  can0  000   [8]  0A 8D 8A 2B 2C 73 36 B8
 (2025-08-07 21:04:11.623048)  can0  000   [8]  52 E7 22 E9 FA 06 36 9D
 (2025-08-07 21:04:11.624636)  can0  02F   [2]  28 02
 (2025-08-07 21:04:11.624845)  can0  000   [8]  86 85 1D 62 91 55 05 C2
 (2025-08-07 21:04:11.625186)  can0  043   [4]  00 8D 35 00
 (2025-08-07 21:04:11.625295)  can0  098   [1]  00
 (2025-08-07 21:04:11.626709)  can0  000   [8]  3C BE 06 CD D8 6F 07 F2
 (2025-08-07 21:04:11.628444)  can0  000   [8]  5F 32 E1 19 FB 05 94 08
 (2025-08-07 21:04:11.630562)  can0  000   [8]  91 94 6B 81 15 BA C5 A4
 (2025-08-07 21:04:11.631856)  can0  000   [8]  0A 80 91 14 91 DD 43 9E
 (2025-08-07 21:04:11.633632)  can0  000   [8]  50 35 CC 67 1A F0 9D EA
 (2025-08-07 21:04:11.635222)  can0  043   [4]  00 8D 35 00
 (2025-08-07 21:04:11.635437)  can0  000   [8]  EA 87 15 3E 87 F8 A4 89
 (2025-08-07 21:04:11.635577)  can0  098   [1]  00
 (2025-08-07 21:04:11.637215)  can0  000   [8]  B0 B3 C9 B5 A1 C0 AD 74
 (2025-08-07 21:04:11.638981)  can0  000   [8]  3E DD F8 5A EF 72 CF 42
 (2025-08-07 21:04:11.640413)  can0  02F   [2]  28 02
 (2025-08-07 21:04:11.640854)  can0  000   [8]  65 B6 4F 94 09 96 6B 0C
 (2025-08-07 21:04:11.642670)  can0  000   [8]  1F 76 BB DF AB 21 E5 D6
 (2025-08-07 21:04:11.644789)  can0  000   [8]  47 38 F7 A3 F4 40 90 90
 (2025-08-07 21:04:11.644958)  can0  043   [4]  00 8D 35 00
 (2025-08-07 21:04:11.645087)  can0  098   [1]  00
 (2025-08-07 21:04:11.646164)  can0  000   [8]  5E F3 28 A6 34 DA C4 73
 (2025-08-07 21:04:11.647917)  can0  000   [8]  46 86 52 CB E5 4C 68 5D
 (2025-08-07 21:04:11.649689)  can0  000   [8]  51 C4 E6 8C 91 A2 B1 72
 (2025-08-07 21:04:11.651431)  can0  000   [8]  4C A5 72 62 8B 92 B6 E9
 (2025-08-07 21:04:11.653183)  can0  000   [8]  44 1D 28 96 A8 49 75 49
 (2025-08-07 21:04:11.654791)  can0  043   [4]  00 8D 35 00
 (2025-08-07 21:04:11.655084)  can0  000   [8]  03 EC 7A 0E A2 C0 0C B8
 (2025-08-07 21:04:11.655135)  can0  098   [1]  00
 (2025-08-07 21:04:11.656685)  can0  02F   [2]  32 02
 (2025-08-07 21:04:11.656894)  can0  000   [8]  5F DB AB B4 06 6D E5 17
 (2025-08-07 21:04:11.658582)  can0  000   [8]  A3 BD 22 A1 17 63 19 CB
 (2025-08-07 21:04:11.660304)  can0  000   [8]  0F D4 D0 C7 19 CC B8 89
 (2025-08-07 21:04:11.662427)  can0  000   [8]  3C 4C 7C BF F8 06 59 2A
 (2025-08-07 21:04:11.663743)  can0  000   [8]  94 60 3E E9 D2 AA 6D EC
 (2025-08-07 21:04:11.665292)  can0  043   [4]  00 8D 35 00
 (2025-08-07 21:04:11.665394)  can0  098   [1]  00
 (2025-08-07 21:04:11.665629)  can0  000   [8]  65 6B 78 31 97 2C 99 A6
 (2025-08-07 21:04:11.667340)  can0  000   [8]  D7 90 22 F7 3C DA C1 30
 (2025-08-07 21:04:11.669105)  can0  000   [8]  94 1C 29 62 81 8A 6A ED
 (2025-08-07 21:04:11.670820)  can0  000   [8]  CE B2 37 60 DE 8D 59 6E
 (2025-08-07 21:04:11.671411)  can0  02F   [2]  32 02
 (2025-08-07 21:04:11.672582)  can0  000   [8]  C3 31 A3 9F 65 5F 1D C2
 (2025-08-07 21:04:11.674362)  can0  000   [8]  7F F6 5D C0 ED 9B 0A B9
 (2025-08-07 21:04:11.675211)  can0  043   [4]  00 8D 35 00
 (2025-08-07 21:04:11.675307)  can0  098   [1]  00
 (2025-08-07 21:04:11.676552)  can0  000   [8]  B1 BB FC 89 56 99 1A 8F
 (2025-08-07 21:04:11.677879)  can0  000   [8]  60 3D B9 BA D7 2D ED EB
 (2025-08-07 21:04:11.679640)  can0  000   [8]  50 B6 A1 BB 8F FF 87 15
 (2025-08-07 21:04:11.681412)  can0  000   [8]  2A 56 06 87 DD 51 DD 5A
 (2025-08-07 21:04:11.683128)  can0  000   [8]  A3 5C 0E 59 83 93 9F 05
 (2025-08-07 21:04:11.684932)  can0  000   [8]  DF C5 9C AE 88 FE F0 AE
 (2025-08-07 21:04:11.685195)  can0  043   [4]  00 8D 35 00
 (2025-08-07 21:04:11.685302)  can0  098   [1]  00
 (2025-08-07 21:04:11.686671)  can0  000   [8]  9E A3 14 D3 64 2D 29 2A
 (2025-08-07 21:04:11.686805)  can0  02F   [2]  32 02
 (2025-08-07 21:04:11.688504)  can0  000   [8]  84 E6 84 DE F6 78 D9 81
 (2025-08-07 21:04:11.690325)  can0  000   [8]  4B B7 FF 2E 5B 13 62 14
 (2025-08-07 21:04:11.692048)  can0  000   [8]  D6 B4 3F 7C 69 2D 9F 83
 (2025-08-07 21:04:11.694188)  can0  000   [8]  28 95 43 D9 F5 79 CB E7
 (2025-08-07 21:04:11.695229)  can0  043   [4]  00 8D 35 00
 (2025-08-07 21:04:11.695330)  can0  098   [1]  00
 (2025-08-07 21:04:11.695561)  can0  000   [8]  DB 8D D0 6D 16 3F 34 8C
 (2025-08-07 21:04:11.697437)  can0  000   [8]  1F 28 F3 AD 11 78 3A CD
 (2025-08-07 21:04:11.699174)  can0  000   [8]  35 12 F3 30 0A EA 4E 46
 (2025-08-07 21:04:11.700982)  can0  000   [8]  B5 67 5F 92 74 0A 27 44
 (2025-08-07 21:04:11.702520)  can0  02F   [2]  3C 02
 (2025-08-07 21:04:11.702736)  can0  000   [8]  B3 1E A7 F8 2A A1 14 93
 (2025-08-07 21:04:11.704446)  can0  000   [8]  81 1B 36 47 29 1D CD 3A
 (2025-08-07 21:04:11.705206)  can0  043   [4]  00 8D 35 00
 (2025-08-07 21:04:11.705308)  can0  098   [1]  00
 (2025-08-07 21:04:11.706279)  can0  000   [8]  C0 63 FB 17 3A 23 27 13
 (2025-08-07 21:04:11.708451)  can0  000   [8]  21 A8 86 A5 5B 4B 66 E2
 (2025-08-07 21:04:11.709759)  can0  000   [8]  91 A4 B8 83 3F 84 62 91
 (2025-08-07 21:04:11.711501)  can0  000   [8]  DD 72 F2 10 14 B5 91 AF
 (2025-08-07 21:04:11.713255)  can0  000   [8]  F2 30 06 36 4E A6 21 0B
 (2025-08-07 21:04:11.714965)  can0  000   [8]  EC 24 15 59 B2 E1 56 A8
 (2025-08-07 21:04:11.715262)  can0  043   [4]  00 8D 35 00
 (2025-08-07 21:04:11.715360)  can0  098   [1]  00
 (2025-08-07 21:04:11.716798)  can0  000   [8]  BA 09 59 7B 28 0B 9D 7D
 (2025-08-07 21:04:11.718533)  can0  000   [8]  52 23 6F FD E5 69 C5 A5
 (2025-08-07 21:04:11.718690)  can0  02F   [2]  3C 02
 (2025-08-07 21:04:11.720260)  can0  000   [8]  69 A8 CA 04 E7 AC 78 A1
 (2025-08-07 21:04:11.722440)  can0  000   [8]  54 63 D5 77 64 74 7A 62
 (2025-08-07 21:04:11.723732)  can0  000   [8]  8C 1B 50 D5 EB DB 39 98
 (2025-08-07 21:04:11.724686)  can0  043   [4]  00 8D 35 00
 (2025-08-07 21:04:11.724790)  can0  098   [1]  00
 (2025-08-07 21:04:11.725570)  can0  000   [8]  45 77 47 1D 7F 00 1C 1F
 (2025-08-07 21:04:11.727370)  can0  000   [8]  53 85 9A 33 76 5C 2F 10
 (2025-08-07 21:04:11.729507)  can0  000   [8]  0C 13 9E 1F 69 69 51 93
 (2025-08-07 21:04:11.730808)  can0  000   [8]  F7 4B 64 73 1E 71 9A 3D
 (2025-08-07 21:04:11.732547)  can0  000   [8]  07 ED DC F9 2D 34 01 DC
 (2025-08-07 21:04:11.734415)  can0  000   [8]  3B 56 5B B6 44 BD 21 17
 (2025-08-07 21:04:11.734565)  can0  02F   [2]  3C 02
 (2025-08-07 21:04:11.735212)  can0  043   [4]  00 8D 35 00
 (2025-08-07 21:04:11.735320)  can0  098   [1]  00
 (2025-08-07 21:04:11.736203)  can0  000   [8]  B1 9D 94 52 EF B1 CE A8
 (2025-08-07 21:04:11.738006)  can0  000   [8]  98 93 32 E4 3D AB A6 4C
 (2025-08-07 21:04:11.739728)  can0  000   [8]  6A 50 DA 8C 14 1C A2 ED
 (2025-08-07 21:04:11.741827)  can0  000   [8]  92 B8 C1 06 1B F6 49 2F
 (2025-08-07 21:04:11.743121)  can0  000   [8]  A9 3F 2E FD F4 68 7F 3E
 (2025-08-07 21:04:11.744915)  can0  000   [8]  4A 71 A0 45 E4 75 00 E1
 (2025-08-07 21:04:11.745416)  can0  043   [4]  00 8D 35 00
 (2025-08-07 21:04:11.745522)  can0  098   [1]  00
 (2025-08-07 21:04:11.746660)  can0  000   [8]  A9 68 5A 61 C9 25 88 61
 (2025-08-07 21:04:11.748446)  can0  000   [8]  F5 88 1B 95 D9 B0 41 E2
 (2025-08-07 21:04:11.749951)  can0  02F   [2]  47 02
 (2025-08-07 21:04:11.750285)  can0  000   [8]  15 A2 84 B8 19 0A AD 27
 (2025-08-07 21:04:11.752098)  can0  000   [8]  AB 2A 9F 98 76 64 5F 76
 (2025-08-07 21:04:11.753883)  can0  000   [8]  02 0D A3 06 91 B5 67 F4
 (2025-08-07 21:04:11.754633)  can0  043   [4]  00 8D 35 00
 (2025-08-07 21:04:11.754735)  can0  098   [1]  00
 (2025-08-07 21:04:11.756067)  can0  000   [8]  8F A9 BC FF 99 37 9B 52
 (2025-08-07 21:04:11.757385)  can0  000   [8]  03 DB FD 37 26 F6 21 CB
 (2025-08-07 21:04:11.759592)  can0  000   [8]  18 69 09 4F A2 01 09 7E
 (2025-08-07 21:04:11.760938)  can0  000   [8]  FC 5A 9D 51 76 D9 5C 59
 (2025-08-07 21:04:11.762758)  can0  000   [8]  8A 63 95 DC FF F9 AB 8F
 (2025-08-07 21:04:11.764515)  can0  000   [8]  EF 69 3A B7 36 B4 34 7E
 (2025-08-07 21:04:11.765065)  can0  043   [4]  00 8D 35 00
 (2025-08-07 21:04:11.765192)  can0  098   [1]  00
 (2025-08-07 21:04:11.765296)  can0  02F   [2]  47 02
 (2025-08-07 21:04:11.766312)  can0  000   [8]  27 9E 1E 43 68 19 BB 3C
 (2025-08-07 21:04:11.768040)  can0  000   [8]  AE 78 49 AA 02 8D FD 08
 (2025-08-07 21:04:11.769792)  can0  000   [8]  F7 A3 AA 7C BF C4 39 88
 (2025-08-07 21:04:11.771547)  can0  000   [8]  7D F8 4C E4 55 2B 6A 76
 (2025-08-07 21:04:11.773311)  can0  000   [8]  32 C3 90 E9 3D B9 B8 64
 (2025-08-07 21:04:11.775011)  can0  000   [8]  98 49 F9 43 D7 52 FF AB
 (2025-08-07 21:04:11.775178)  can0  043   [4]  00 8D 35 00
 (2025-08-07 21:04:11.775282)  can0  098   [1]  00
 (2025-08-07 21:04:11.776917)  can0  000   [8]  E6 D9 E1 A2 FF E4 FF A6
 (2025-08-07 21:04:11.778971)  can0  000   [8]  05 6A 25 9C 14 8F 97 06
 (2025-08-07 21:04:11.780658)  can0  000   [8]  8E DD CA 38 7F 87 FD 9E
 (2025-08-07 21:04:11.780788)  can0  02F   [2]  47 02
 (2025-08-07 21:04:11.781966)  can0  000   [8]  58 C8 B7 1D 69 DC 43 D0
 (2025-08-07 21:04:11.783701)  can0  000   [8]  16 A8 5C E5 65 3A 37 FD
 (2025-08-07 21:04:11.785346)  can0  043   [4]  00 8D 35 00
 (2025-08-07 21:04:11.785414)  can0  098   [1]  00
 (2025-08-07 21:04:11.786010)  can0  000   [8]  92 0F 0B 53 84 87 D7 00
 (2025-08-07 21:04:11.787366)  can0  000   [8]  F4 1F 71 D6 A9 EA 20 19
 (2025-08-07 21:04:11.789128)  can0  000   [8]  63 D6 A7 DF 2D 20 7D 1E
 (2025-08-07 21:04:11.790830)  can0  000   [8]  12 AE A8 19 5E FC 6A 84
 (2025-08-07 21:04:11.792571)  can0  000   [8]  E1 36 0B 34 B9 BE 6F AF
 (2025-08-07 21:04:11.794726)  can0  000   [8]  9C 15 57 13 5C 0C 45 79
 (2025-08-07 21:04:11.795561)  can0  043   [4]  00 8D 35 00
 (2025-08-07 21:04:11.795666)  can0  098   [1]  00
 (2025-08-07 21:04:11.795795)  can0  02F   [2]  51 02
 (2025-08-07 21:04:11.796033)  can0  000   [8]  34 BB 2D 36 12 BC AF B6
 (2025-08-07 21:04:11.797952)  can0  000   [8]  18 6A 21 85 F4 44 31 DE
 (2025-08-07 21:04:11.799685)  can0  000   [8]  80 3D DF 82 37 89 E0 57
 (2025-08-07 21:04:11.801447)  can0  000   [8]  96 47 02 19 B7 81 CD 5E
 (2025-08-07 21:04:11.803162)  can0  000   [8]  42 1C 0D AA 7A 4C AA 50
 (2025-08-07 21:04:11.804948)  can0  000   [8]  00 84 38 65 44 39 E7 65
 (2025-08-07 21:04:11.805378)  can0  043   [4]  00 8D 35 00
 (2025-08-07 21:04:11.805494)  can0  098   [1]  00
 (2025-08-07 21:04:11.806699)  can0  000   [8]  15 97 1B FD ED CE 95 BA
 (2025-08-07 21:04:11.808431)  can0  000   [8]  C0 92 94 91 30 9E 90 AD
 (2025-08-07 21:04:11.810508)  can0  000   [8]  31 A5 51 B3 6D 6D F0 2C
 (2025-08-07 21:04:11.811821)  can0  000   [8]  4D 09 CC 54 FC A8 BA DB
 (2025-08-07 21:04:11.811941)  can0  02F   [2]  51 02
 (2025-08-07 21:04:11.813604)  can0  000   [8]  2D 03 97 E4 7B 8C 04 3D
 (2025-08-07 21:04:11.815357)  can0  000   [8]  55 33 91 F2 FA 81 24 58
 (2025-08-07 21:04:11.815545)  can0  043   [4]  00 8D 35 00
 (2025-08-07 21:04:11.815627)  can0  098   [1]  00
 (2025-08-07 21:04:11.817121)  can0  000   [8]  A7 DD 1C 0D 69 46 4F E0
 (2025-08-07 21:04:11.819176)  can0  000   [8]  0B 2F DE 2A D4 16 6E D9
 (2025-08-07 21:04:11.820483)  can0  000   [8]  FE A5 D3 F4 33 C0 CD DF
 (2025-08-07 21:04:11.822255)  can0  000   [8]  B8 7C 12 86 5D C7 81 B9
 (2025-08-07 21:04:11.823965)  can0  000   [8]  9D C4 F1 6C 0A EC 09 B6
 (2025-08-07 21:04:11.824790)  can0  043   [4]  00 8D 35 00
 (2025-08-07 21:04:11.824884)  can0  098   [1]  00
 (2025-08-07 21:04:11.825835)  can0  000   [8]  D9 5F 3A F2 44 3E B3 CF
 (2025-08-07 21:04:11.827190)  can0  02F   [2]  51 02
 (2025-08-07 21:04:11.827600)  can0  000   [8]  AA F9 21 39 CC B4 98 7A
 (2025-08-07 21:04:11.829430)  can0  000   [8]  81 DE C7 8A 5E 2D 98 B2
 (2025-08-07 21:04:11.831388)  can0  000   [8]  3A DB DD 6F BB 95 39 E8
 (2025-08-07 21:04:11.833183)  can0  000   [8]  8C EF F4 D4 6A 6B 74 4F
 (2025-08-07 21:04:11.834818)  can0  043   [4]  00 8D 35 00
 (2025-08-07 21:04:11.835033)  can0  000   [8]  FB 65 4F 24 C4 52 55 36
 (2025-08-07 21:04:11.835153)  can0  098   [1]  00
 (2025-08-07 21:04:11.836800)  can0  000   [8]  61 FA 26 BB 1C CA 59 C8
 (2025-08-07 21:04:11.838916)  can0  000   [8]  8B 23 0A F1 CF 9D 8F F3
 (2025-08-07 21:04:11.840230)  can0  000   [8]  84 4A 9A 4A D2 F2 39 D8
 (2025-08-07 21:04:11.842067)  can0  000   [8]  AF E5 4E 08 E0 F1 F8 23
 (2025-08-07 21:04:11.843114)  can0  02F   [2]  5B 02
 (2025-08-07 21:04:11.844093)  can0  000   [8]  EA DE 13 B8 91 69 44 77
 (2025-08-07 21:04:11.844792)  can0  043   [4]  00 8D 35 00
 (2025-08-07 21:04:11.844888)  can0  098   [1]  00
 (2025-08-07 21:04:11.845941)  can0  000   [8]  C2 6F 64 ED DB 02 02 67
 (2025-08-07 21:04:11.847715)  can0  000   [8]  6C 9C 85 1D FF BE C4 A6
 (2025-08-07 21:04:11.849544)  can0  000   [8]  0F 1C 5C 5E 9F 34 FF DB
 (2025-08-07 21:04:11.851673)  can0  000   [8]  58 17 A5 97 57 E8 79 CE
 (2025-08-07 21:04:11.853348)  can0  000   [8]  D5 F4 DA D2 51 8A 46 33
 (2025-08-07 21:04:11.854660)  can0  000   [8]  91 FC 90 C7 9D BD A3 1B
 (2025-08-07 21:04:11.854885)  can0  043   [4]  00 8D 35 00
 (2025-08-07 21:04:11.854994)  can0  098   [1]  00
 (2025-08-07 21:04:11.856437)  can0  000   [8]  F6 4A 58 25 3E E2 9C 68
 (2025-08-07 21:04:11.858229)  can0  000   [8]  E1 46 21 78 91 D8 12 54
 (2025-08-07 21:04:11.858358)  can0  02F   [2]  5B 02
 (2025-08-07 21:04:11.859952)  can0  000   [8]  91 48 59 52 21 45 3A 50
 (2025-08-07 21:04:11.861738)  can0  000   [8]  17 70 F2 1D 6D 97 65 83
 (2025-08-07 21:04:11.863510)  can0  000   [8]  59 07 58 A6 AA 18 32 26
 (2025-08-07 21:04:11.865038)  can0  043   [4]  00 8D 35 00
 (2025-08-07 21:04:11.865107)  can0  098   [1]  00
 (2025-08-07 21:04:11.865694)  can0  000   [8]  66 D0 49 A3 19 7F AE 28
 (2025-08-07 21:04:11.867509)  can0  000   [8]  23 C2 19 31 30 69 EB 41
 (2025-08-07 21:04:11.868821)  can0  000   [8]  4A A3 95 F7 AB EC 8C B4
 (2025-08-07 21:04:11.870598)  can0  000   [8]  E0 43 3F 73 7F 39 96 83
 (2025-08-07 21:04:11.872343)  can0  000   [8]  EA EB AC D6 21 3E AF B1
 (2025-08-07 21:04:11.873421)  can0  02F   [2]  65 02
 (2025-08-07 21:04:11.874187)  can0  000   [8]  EE 7B 25 E8 7F A8 3B A9
 (2025-08-07 21:04:11.875249)  can0  043   [4]  00 8D 35 00
 (2025-08-07 21:04:11.875346)  can0  098   [1]  00
 (2025-08-07 21:04:11.876023)  can0  000   [8]  7F 6E 18 31 2A 3F E8 6C
 (2025-08-07 21:04:11.877895)  can0  000   [8]  35 B0 0C 5B 82 32 55 69
 (2025-08-07 21:04:11.879617)  can0  000   [8]  B3 E1 DF 26 03 CC 2F BC
 (2025-08-07 21:04:11.881367)  can0  000   [8]  9E A6 6B B7 D2 C4 A2 C4
 (2025-08-07 21:04:11.883119)  can0  000   [8]  E8 73 BB 02 ED 11 92 57
 (2025-08-07 21:04:11.884982)  can0  000   [8]  CE 62 3B E2 42 EE 5D 55
 (2025-08-07 21:04:11.885146)  can0  043   [4]  00 8D 35 00
 (2025-08-07 21:04:11.885257)  can0  098   [1]  00
 (2025-08-07 21:04:11.887062)  can0  000   [8]  5F 3A A7 3F 61 4E 20 BE
 (2025-08-07 21:04:11.888407)  can0  000   [8]  49 5C 1C 0F E0 56 73 A3
 (2025-08-07 21:04:11.888534)  can0  02F   [2]  65 02
 (2025-08-07 21:04:11.890217)  can0  000   [8]  63 E1 25 37 D1 3B A4 43
 (2025-08-07 21:04:11.891937)  can0  000   [8]  D4 FC 07 3C D6 E8 38 E0
 (2025-08-07 21:04:11.893679)  can0  000   [8]  F2 2E 97 16 E3 22 36 B9
 (2025-08-07 21:04:11.895241)  can0  043   [4]  00 8D 35 00
 (2025-08-07 21:04:11.895333)  can0  098   [1]  00
 (2025-08-07 21:04:11.895923)  can0  000   [8]  39 BE DC 27 8C AA B2 23
 (2025-08-07 21:04:11.897247)  can0  000   [8]  C9 14 42 72 79 12 5D C5
 (2025-08-07 21:04:11.898989)  can0  000   [8]  C3 CC C0 52 BA B7 F3 4E
 (2025-08-07 21:04:11.901177)  can0  000   [8]  25 B8 97 C5 05 48 AD 72
 (2025-08-07 21:04:11.902485)  can0  000   [8]  78 33 E7 EA D5 8B 5A F4
 (2025-08-07 21:04:11.904276)  can0  02F   [2]  65 02
 (2025-08-07 21:04:11.904485)  can0  000   [8]  28 9F 47 DC 83 AE 2E 0A
 (2025-08-07 21:04:11.905327)  can0  043   [4]  00 8D 35 00
 (2025-08-07 21:04:11.905425)  can0  098   [1]  00
 (2025-08-07 21:04:11.906334)  can0  000   [8]  D1 A6 0A B6 29 0F D5 64
 (2025-08-07 21:04:11.908108)  can0  000   [8]  40 24 59 81 D5 B1 DF 4A
 (2025-08-07 21:04:11.909888)  can0  000   [8]  55 84 D4 B8 14 0E 34 69
 (2025-08-07 21:04:11.911630)  can0  000   [8]  0C 9A C3 76 10 D8 44 8A
 (2025-08-07 21:04:11.913740)  can0  000   [8]  6B F6 2B AA 85 F4 BC 60
 (2025-08-07 21:04:11.915077)  can0  000   [8]  2E 0F F7 F5 23 25 E9 A8
 (2025-08-07 21:04:11.915296)  can0  043   [4]  00 8D 35 00
 (2025-08-07 21:04:11.915416)  can0  098   [1]  00
 (2025-08-07 21:04:11.916909)  can0  000   [8]  22 7D 5A 27 6A 2A 7A 1E
 (2025-08-07 21:04:11.918658)  can0  000   [8]  87 D3 A0 18 47 0B 20 D6
 (2025-08-07 21:04:11.918791)  can0  02F   [2]  70 02
 (2025-08-07 21:04:11.920414)  can0  000   [8]  FB A3 B3 BC B0 EA 67 00
 (2025-08-07 21:04:11.922199)  can0  000   [8]  19 C9 00 FB 25 39 67 1E
 (2025-08-07 21:04:11.923931)  can0  000   [8]  D5 2F 2F 67 5D C7 0E 08
 (2025-08-07 21:04:11.925693)  can0  000   [8]  99 AE 76 76 D5 7B 99 E8
 (2025-08-07 21:04:11.925856)  can0  043   [4]  00 8D 35 00
 (2025-08-07 21:04:11.925964)  can0  098   [1]  00
 (2025-08-07 21:04:11.927464)  can0  000   [8]  49 B5 1C D9 24 A1 13 90
 (2025-08-07 21:04:11.929633)  can0  000   [8]  E8 7E C8 D2 6A 1C 57 82
 (2025-08-07 21:04:11.930965)  can0  000   [8]  5C 09 5B 4C D4 01 75 DB
 (2025-08-07 21:04:11.932742)  can0  000   [8]  E3 B0 74 68 89 AB C4 3D
 (2025-08-07 21:04:11.934048)  can0  02F   [2]  70 02
 (2025-08-07 21:04:11.934483)  can0  000   [8]  F4 F3 74 1D 6F A8 35 0E
 (2025-08-07 21:04:11.935828)  can0  043   [4]  00 8D 35 00
 (2025-08-07 21:04:11.935931)  can0  098   [1]  00
 (2025-08-07 21:04:11.936333)  can0  000   [8]  CC 48 6E AC 0C 26 7D E3
 (2025-08-07 21:04:11.938326)  can0  000   [8]  7B 6E 46 03 F7 23 75 47
 (2025-08-07 21:04:11.940091)  can0  000   [8]  7C 24 59 FB 77 F1 FB D9
 (2025-08-07 21:04:11.941848)  can0  000   [8]  D5 C8 23 E6 F0 2B 35 E9
 (2025-08-07 21:04:11.943572)  can0  000   [8]  1C 39 BC D6 63 7E E4 6A
 (2025-08-07 21:04:11.945362)  can0  000   [8]  B7 F9 D0 23 A8 8F 8A C4
 (2025-08-07 21:04:11.945752)  can0  043   [4]  00 8D 35 00
 (2025-08-07 21:04:11.945851)  can0  098   [1]  00
 (2025-08-07 21:04:11.947548)  can0  000   [8]  CF 5C 78 58 6D 1C C6 52
 (2025-08-07 21:04:11.948864)  can0  000   [8]  00 27 4A 64 EF 33 9F 9E
 (2025-08-07 21:04:11.949938)  can0  02F   [2]  70 02
 (2025-08-07 21:04:11.950628)  can0  000   [8]  4B B9 71 23 38 D1 70 88
 (2025-08-07 21:04:11.952454)  can0  000   [8]  33 50 1E 3B E3 6C 02 C5
 (2025-08-07 21:04:11.954275)  can0  000   [8]  0F F8 0A DC EE 97 FF 2E
 (2025-08-07 21:04:11.955636)  can0  043   [4]  00 8D 35 00
 (2025-08-07 21:04:11.955753)  can0  098   [1]  00
 (2025-08-07 21:04:11.955994)  can0  000   [8]  BC 02 B8 C3 42 1C BF 0C
 (2025-08-07 21:04:11.958058)  can0  000   [8]  8A 0A 28 75 40 0B 53 CF
 (2025-08-07 21:04:11.959820)  can0  000   [8]  DD F3 23 B0 54 32 5E 8F
 (2025-08-07 21:04:11.961592)  can0  000   [8]  07 FB E4 33 66 BC 8A F2
 (2025-08-07 21:04:11.963746)  can0  000   [8]  7B 31 4E 02 70 B2 12 00
 (2025-08-07 21:04:11.964002)  can0  02F   [2]  7A 02
 (2025-08-07 21:04:11.965071)  can0  000   [8]  9F BE A3 24 5F 9F 16 34
 (2025-08-07 21:04:11.965746)  can0  043   [4]  00 8D 35 00
 (2025-08-07 21:04:11.965838)  can0  098   [1]  00
 (2025-08-07 21:04:11.967250)  can0  000   [8]  A5 93 99 6F E4 E7 D4 E6
 (2025-08-07 21:04:11.968665)  can0  000   [8]  7B DC 92 C5 62 A0 AA 34
 (2025-08-07 21:04:11.970432)  can0  000   [8]  8D FB D4 A2 57 9D CF 64
 (2025-08-07 21:04:11.972145)  can0  000   [8]  21 B0 B1 39 5E C0 AE DD
 (2025-08-07 21:04:11.973903)  can0  000   [8]  15 B2 B4 75 3C 86 98 80
 (2025-08-07 21:04:11.975617)  can0  000   [8]  62 B7 2F E7 55 E0 B5 A8
 (2025-08-07 21:04:11.975776)  can0  043   [4]  00 8D 35 00
 (2025-08-07 21:04:11.975887)  can0  098   [1]  00
 (2025-08-07 21:04:11.977465)  can0  000   [8]  7B 1A 33 3E A6 DD C5 97
 (2025-08-07 21:04:11.979626)  can0  000   [8]  60 BF A8 4C A0 A1 64 7B
 (2025-08-07 21:04:11.980625)  can0  02F   [2]  7A 02
 (2025-08-07 21:04:11.980985)  can0  000   [8]  2A A3 A9 0F DD 6A 41 6F
 (2025-08-07 21:04:11.982816)  can0  000   [8]  C1 20 00 14 66 9E 25 E9
 (2025-08-07 21:04:11.984588)  can0  000   [8]  E8 30 B1 BB 96 F1 10 CC
 (2025-08-07 21:04:11.985728)  can0  043   [4]  00 8D 35 00
 (2025-08-07 21:04:11.985828)  can0  098   [1]  00
 (2025-08-07 21:04:11.986457)  can0  000   [8]  00 52 E6 97 1E F3 FC 95
 (2025-08-07 21:04:11.988298)  can0  000   [8]  44 3B 68 5B 62 95 8E F0
 (2025-08-07 21:04:11.990069)  can0  000   [8]  E7 03 DE 12 22 82 B2 1B
 (2025-08-07 21:04:11.992199)  can0  000   [8]  EA B1 3D 5E 0C 2D 38 EE
 (2025-08-07 21:04:11.993530)  can0  000   [8]  88 A1 AC 2C A9 D7 B9 6E
 (2025-08-07 21:04:11.995292)  can0  000   [8]  31 9E 3A 8C 8D AF A8 9E
 (2025-08-07 21:04:11.995465)  can0  02F   [2]  7A 02
 (2025-08-07 21:04:11.995828)  can0  043   [4]  00 8D 35 00
 (2025-08-07 21:04:11.995935)  can0  098   [1]  00
 (2025-08-07 21:04:11.997100)  can0  000   [8]  D8 0E 8D 0F C6 46 56 98
 (2025-08-07 21:04:11.998848)  can0  000   [8]  DE 60 E1 F2 57 C1 03 05
 (2025-08-07 21:04:12.000634)  can0  000   [8]  38 BD BF 11 3F EB DB D5
 (2025-08-07 21:04:12.002376)  can0  000   [8]  42 87 75 42 AB DA 9C 54
 (2025-08-07 21:04:12.004101)  can0  000   [8]  D6 48 C9 38 AB 5F CA B6
