 (2025-08-07 21:04:57.484827)  can0  5F2   [8]  3B 42 4C A0 42 17 10 36
 (2025-08-07 21:04:57.485671)  can0  043   [4]  00 B3 D1 00
 (2025-08-07 21:04:57.485755)  can0  098   [1]  00
 (2025-08-07 21:04:57.493835)  can0  02F   [2]  7A 00
 (2025-08-07 21:04:57.495647)  can0  043   [4]  00 B3 D1 00
 (2025-08-07 21:04:57.495769)  can0  098   [1]  00
 (2025-08-07 21:04:57.496169)  can0  5D4   [8]  55 D5 F3 42 7B E3 54 D1
 (2025-08-07 21:04:57.505776)  can0  043   [4]  00 B3 D1 00
 (2025-08-07 21:04:57.505869)  can0  098   [1]  00
 (2025-08-07 21:04:57.507607)  can0  53A   [8]  E1 D8 B6 E4 54 37 55 BF
 (2025-08-07 21:04:57.510303)  can0  02F   [2]  84 00
 (2025-08-07 21:04:57.515717)  can0  043   [4]  00 B3 D1 00
 (2025-08-07 21:04:57.515799)  can0  098   [1]  00
 (2025-08-07 21:04:57.519544)  can0  5D9   [8]  00 CB CF 32 63 3B 9C BB
 (2025-08-07 21:04:57.525688)  can0  043   [4]  00 B3 D1 00
 (2025-08-07 21:04:57.525809)  can0  02F   [2]  84 00
 (2025-08-07 21:04:57.525909)  can0  098   [1]  00
 (2025-08-07 21:04:57.530581)  can0  5D5   [8]  AA D8 A1 60 48 17 D8 57
 (2025-08-07 21:04:57.535797)  can0  043   [4]  00 B3 D1 00
 (2025-08-07 21:04:57.535874)  can0  098   [1]  00
 (2025-08-07 21:04:57.541050)  can0  56A   [8]  E3 6C F4 D4 A3 46 94 F9
 (2025-08-07 21:04:57.541801)  can0  02F   [2]  8F 00
 (2025-08-07 21:04:57.546020)  can0  043   [4]  00 B3 D1 00
 (2025-08-07 21:04:57.546093)  can0  098   [1]  00
 (2025-08-07 21:04:57.552440)  can0  556   [8]  D7 89 C7 99 AA 6C F9 6A
 (2025-08-07 21:04:57.555878)  can0  043   [4]  00 B3 D1 00
 (2025-08-07 21:04:57.555954)  can0  098   [1]  00
 (2025-08-07 21:04:57.557098)  can0  02F   [2]  8F 00
 (2025-08-07 21:04:57.563687)  can0  5E7   [8]  BC E7 EB F9 07 6E 53 BE
 (2025-08-07 21:04:57.566125)  can0  043   [4]  00 B3 D1 00
 (2025-08-07 21:04:57.566210)  can0  098   [1]  00
 (2025-08-07 21:04:57.572322)  can0  02F   [2]  99 00
 (2025-08-07 21:04:57.575291)  can0  043   [4]  00 B3 D1 00
 (2025-08-07 21:04:57.575378)  can0  098   [1]  00
 (2025-08-07 21:04:57.575610)  can0  5D9   [8]  4B 23 E8 45 64 51 08 17
 (2025-08-07 21:04:57.585972)  can0  530   [8]  14 35 5F 6E 27 75 C8 A7
 (2025-08-07 21:04:57.586198)  can0  043   [4]  00 B3 D1 00
 (2025-08-07 21:04:57.586295)  can0  098   [1]  00
 (2025-08-07 21:04:57.587317)  can0  02F   [2]  99 00
 (2025-08-07 21:04:57.596169)  can0  043   [4]  00 B3 D1 00
 (2025-08-07 21:04:57.596240)  can0  098   [1]  00
 (2025-08-07 21:04:57.597258)  can0  5B9   [8]  82 3D 24 51 15 22 F1 B9
 (2025-08-07 21:04:57.602449)  can0  02F   [2]  99 00
 (2025-08-07 21:04:57.606163)  can0  043   [4]  00 B3 D1 00
 (2025-08-07 21:04:57.606235)  can0  098   [1]  00
 (2025-08-07 21:04:57.608495)  can0  59F   [8]  CF 06 32 54 18 FF 4C D4
 (2025-08-07 21:04:57.616216)  can0  043   [4]  00 B3 D1 00
 (2025-08-07 21:04:57.616292)  can0  098   [1]  00
 (2025-08-07 21:04:57.619713)  can0  53F   [8]  B3 80 57 AC EE CB D8 CA
 (2025-08-07 21:04:57.620765)  can0  02F   [2]  A3 00
 (2025-08-07 21:04:57.626161)  can0  043   [4]  00 B3 D1 00
 (2025-08-07 21:04:57.626268)  can0  098   [1]  00
 (2025-08-07 21:04:57.630896)  can0  51E   [8]  1D 49 EA 0B 26 F6 8D C0
 (2025-08-07 21:04:57.634431)  can0  02F   [2]  A3 00
 (2025-08-07 21:04:57.636183)  can0  043   [4]  00 B3 D1 00
 (2025-08-07 21:04:57.636291)  can0  098   [1]  00
 (2025-08-07 21:04:57.642128)  can0  531   [8]  57 8D 02 70 39 53 47 C3
 (2025-08-07 21:04:57.646106)  can0  043   [4]  00 B3 D1 00
 (2025-08-07 21:04:57.646191)  can0  098   [1]  00
 (2025-08-07 21:04:57.647258)  can0  02F   [2]  A3 00
 (2025-08-07 21:04:57.653875)  can0  59E   [8]  54 AF FE 5F 90 AA 4B 1C
 (2025-08-07 21:04:57.655647)  can0  043   [4]  00 B3 D1 00
 (2025-08-07 21:04:57.655727)  can0  098   [1]  00
 (2025-08-07 21:04:57.662816)  can0  02F   [2]  AD 00
 (2025-08-07 21:04:57.664916)  can0  52E   [8]  2A 48 D9 FB 57 17 DA 09
 (2025-08-07 21:04:57.666284)  can0  043   [4]  00 B3 D1 00
 (2025-08-07 21:04:57.666358)  can0  098   [1]  00
 (2025-08-07 21:04:57.675435)  can0  543   [8]  7D 02 9B 4E 7D 83 EA D3
 (2025-08-07 21:04:57.675695)  can0  043   [4]  00 B3 D1 00
 (2025-08-07 21:04:57.675769)  can0  098   [1]  00
 (2025-08-07 21:04:57.678151)  can0  02F   [2]  AD 00
 (2025-08-07 21:04:57.685269)  can0  043   [4]  00 B3 D1 00
 (2025-08-07 21:04:57.685385)  can0  098   [1]  00
 (2025-08-07 21:04:57.687276)  can0  5A9   [8]  A8 C4 9B 99 9C 70 1C E9
 (2025-08-07 21:04:57.693081)  can0  02F   [2]  AD 00
 (2025-08-07 21:04:57.696393)  can0  043   [4]  00 B3 D1 00
 (2025-08-07 21:04:57.696498)  can0  098   [1]  00
 (2025-08-07 21:04:57.697709)  can0  55B   [8]  6A BE 60 EF FA 06 CF 3E
 (2025-08-07 21:04:57.706383)  can0  043   [4]  00 B3 D1 00
 (2025-08-07 21:04:57.706463)  can0  098   [1]  00
 (2025-08-07 21:04:57.708666)  can0  02F   [2]  B8 00
 (2025-08-07 21:04:57.708916)  can0  5B1   [8]  1F AE E3 6A 23 C7 F5 F2
 (2025-08-07 21:04:57.716362)  can0  043   [4]  00 B3 D1 00
 (2025-08-07 21:04:57.716447)  can0  098   [1]  00
 (2025-08-07 21:04:57.720798)  can0  59A   [8]  2E 20 54 CD A3 B2 0B 50
 (2025-08-07 21:04:57.723619)  can0  02F   [2]  B8 00
 (2025-08-07 21:04:57.726367)  can0  043   [4]  00 B3 D1 00
 (2025-08-07 21:04:57.726472)  can0  098   [1]  00
 (2025-08-07 21:04:57.731341)  can0  524   [8]  60 6F 92 0E 3B 86 96 A4
 (2025-08-07 21:04:57.736347)  can0  043   [4]  00 B3 D1 00
 (2025-08-07 21:04:57.736427)  can0  098   [1]  00
 (2025-08-07 21:04:57.738524)  can0  02F   [2]  C2 00
 (2025-08-07 21:04:57.743044)  can0  52B   [8]  59 C3 55 84 93 3C 50 F7
 (2025-08-07 21:04:57.746308)  can0  043   [4]  00 B3 D1 00
 (2025-08-07 21:04:57.746398)  can0  098   [1]  00
 (2025-08-07 21:04:57.754295)  can0  02F   [2]  C2 00
 (2025-08-07 21:04:57.754703)  can0  5BA   [8]  B1 A0 AB EE F2 54 F9 C0
 (2025-08-07 21:04:57.757261)  can0  043   [4]  00 B3 D1 00
 (2025-08-07 21:04:57.757344)  can0  098   [1]  00
 (2025-08-07 21:04:57.766984)  can0  549   [8]  34 9E 2F 3A 19 A3 3F 04
 (2025-08-07 21:04:57.767379)  can0  043   [4]  00 B3 D1 00
 (2025-08-07 21:04:57.767468)  can0  098   [1]  00
 (2025-08-07 21:04:57.769913)  can0  02F   [2]  C2 00
 (2025-08-07 21:04:57.777412)  can0  5C3   [8]  37 7E 7A 5E 18 4C 68 18
 (2025-08-07 21:04:57.777581)  can0  043   [4]  00 B3 D1 00
 (2025-08-07 21:04:57.777690)  can0  098   [1]  00
 (2025-08-07 21:04:57.784622)  can0  02F   [2]  CC 00
 (2025-08-07 21:04:57.787727)  can0  043   [4]  00 B3 D1 00
 (2025-08-07 21:04:57.787810)  can0  098   [1]  00
 (2025-08-07 21:04:57.788695)  can0  5E8   [8]  F4 B0 9E 85 43 30 AF 9F
 (2025-08-07 21:04:57.797435)  can0  043   [4]  00 B3 D1 00
 (2025-08-07 21:04:57.797532)  can0  098   [1]  00
 (2025-08-07 21:04:57.799613)  can0  02F   [2]  CC 00
 (2025-08-07 21:04:57.800174)  can0  53E   [8]  27 62 F4 7E 99 56 21 B6
 (2025-08-07 21:04:57.807507)  can0  043   [4]  00 B3 D1 00
 (2025-08-07 21:04:57.807612)  can0  098   [1]  00
 (2025-08-07 21:04:57.812107)  can0  5F8   [8]  7C 22 BF 66 78 7C F4 FC
 (2025-08-07 21:04:57.815361)  can0  02F   [2]  CC 00
 (2025-08-07 21:04:57.818316)  can0  043   [4]  00 B3 D1 00
 (2025-08-07 21:04:57.818395)  can0  098   [1]  00
 (2025-08-07 21:04:57.823927)  can0  524   [8]  7D 84 69 FD 89 58 2E 08
 (2025-08-07 21:04:57.827260)  can0  043   [4]  00 B3 D1 00
 (2025-08-07 21:04:57.827347)  can0  098   [1]  00
 (2025-08-07 21:04:57.829610)  can0  02F   [2]  D6 00
 (2025-08-07 21:04:57.834995)  can0  58E   [8]  B7 FE 8C 9A E1 EA 1A 4F
 (2025-08-07 21:04:57.837300)  can0  043   [4]  00 B3 D1 00
 (2025-08-07 21:04:57.837376)  can0  098   [1]  00
 (2025-08-07 21:04:57.844522)  can0  02F   [2]  D6 00
 (2025-08-07 21:04:57.845575)  can0  555   [8]  82 18 87 2C 69 3F A2 B5
 (2025-08-07 21:04:57.848908)  can0  043   [4]  00 B3 D1 00
 (2025-08-07 21:04:57.849004)  can0  098   [1]  00
 (2025-08-07 21:04:57.857380)  can0  5D0   [8]  C3 E8 2D 2D 67 BE 0C EB
 (2025-08-07 21:04:57.860299)  can0  043   [4]  00 B3 D1 00
 (2025-08-07 21:04:57.860390)  can0  098   [1]  00
 (2025-08-07 21:04:57.860811)  can0  02F   [2]  D6 00
 (2025-08-07 21:04:57.867860)  can0  5FB   [8]  62 53 0A 2E FD 29 C6 6C
 (2025-08-07 21:04:57.869382)  can0  043   [4]  00 B3 D1 00
 (2025-08-07 21:04:57.869475)  can0  098   [1]  00
 (2025-08-07 21:04:57.875701)  can0  02F   [2]  E1 00
 (2025-08-07 21:04:57.879023)  can0  5E3   [8]  57 82 27 81 AE 0D 8D 77
 (2025-08-07 21:04:57.879502)  can0  043   [4]  00 B3 D1 00
 (2025-08-07 21:04:57.879589)  can0  098   [1]  00
 (2025-08-07 21:04:57.889366)  can0  043   [4]  00 B3 D1 00
 (2025-08-07 21:04:57.889458)  can0  098   [1]  00
 (2025-08-07 21:04:57.890294)  can0  544   [8]  02 EC C8 87 FD 96 E2 5B
 (2025-08-07 21:04:57.891013)  can0  02F   [2]  E1 00
 (2025-08-07 21:04:57.899366)  can0  043   [4]  00 B3 D1 00
 (2025-08-07 21:04:57.899452)  can0  098   [1]  00
 (2025-08-07 21:04:57.901527)  can0  517   [8]  E9 24 69 F6 E3 84 FF 50
 (2025-08-07 21:04:57.905635)  can0  02F   [2]  E1 00
 (2025-08-07 21:04:57.909396)  can0  043   [4]  00 B3 D1 00
 (2025-08-07 21:04:57.909487)  can0  098   [1]  00
 (2025-08-07 21:04:57.913246)  can0  556   [8]  A0 C5 41 F9 6C D3 6F 0C
 (2025-08-07 21:04:57.919919)  can0  043   [4]  00 B3 D1 00
 (2025-08-07 21:04:57.920008)  can0  098   [1]  00
 (2025-08-07 21:04:57.921311)  can0  02F   [2]  EB 00
 (2025-08-07 21:04:57.924298)  can0  5FD   [8]  2C 4D 7C 05 A2 75 01 57
 (2025-08-07 21:04:57.929934)  can0  043   [4]  00 B3 D1 00
 (2025-08-07 21:04:57.930019)  can0  098   [1]  00
 (2025-08-07 21:04:57.934778)  can0  5EA   [8]  FA 51 58 94 7A E8 DE 5C
 (2025-08-07 21:04:57.936095)  can0  02F   [2]  EB 00
 (2025-08-07 21:04:57.940192)  can0  043   [4]  00 B3 D1 00
 (2025-08-07 21:04:57.940274)  can0  098   [1]  00
 (2025-08-07 21:04:57.946102)  can0  52B   [8]  A5 FF 89 1B 12 41 BC C2
 (2025-08-07 21:04:57.950235)  can0  043   [4]  00 B3 D1 00
 (2025-08-07 21:04:57.950328)  can0  098   [1]  00
 (2025-08-07 21:04:57.951477)  can0  02F   [2]  EB 00
 (2025-08-07 21:04:57.957319)  can0  5EA   [8]  FB BB 1C C1 42 63 D2 9D
 (2025-08-07 21:04:57.959351)  can0  043   [4]  00 B3 D1 00
 (2025-08-07 21:04:57.959446)  can0  098   [1]  00
 (2025-08-07 21:04:57.967073)  can0  02F   [2]  F5 00
 (2025-08-07 21:04:57.969089)  can0  5EC   [8]  48 EB 62 72 49 BD 4E 86
 (2025-08-07 21:04:57.969392)  can0  043   [4]  00 B3 D1 00
 (2025-08-07 21:04:57.969498)  can0  098   [1]  00
 (2025-08-07 21:04:57.979393)  can0  043   [4]  00 B3 D1 00
 (2025-08-07 21:04:57.979490)  can0  098   [1]  00
 (2025-08-07 21:04:57.979714)  can0  519   [8]  1C 00 94 4D 79 F1 B4 BA
 (2025-08-07 21:04:57.981711)  can0  02F   [2]  F5 00
 (2025-08-07 21:04:57.989386)  can0  043   [4]  00 B3 D1 00
 (2025-08-07 21:04:57.989469)  can0  098   [1]  00
 (2025-08-07 21:04:57.991579)  can0  550   [8]  26 3A BB 9B 67 B4 F8 04
 (2025-08-07 21:04:57.996971)  can0  02F   [2]  F5 00
 (2025-08-07 21:04:57.999380)  can0  043   [4]  00 B3 D1 00
 (2025-08-07 21:04:57.999466)  can0  098   [1]  00
 (2025-08-07 21:04:58.002093)  can0  5AA   [8]  F4 EB 29 65 33 D6 FF 2F
 (2025-08-07 21:04:58.009876)  can0  043   [4]  00 B3 D1 00
 (2025-08-07 21:04:58.009979)  can0  098   [1]  00
 (2025-08-07 21:04:58.012114)  can0  02F   [2]  FF 00
 (2025-08-07 21:04:58.014217)  can0  5B3   [8]  4B F2 57 15 B3 6B DB 0C
 (2025-08-07 21:04:58.019970)  can0  043   [4]  00 B3 D1 00
 (2025-08-07 21:04:58.020058)  can0  098   [1]  00
 (2025-08-07 21:04:58.024723)  can0  59D   [8]  8C 98 AC 88 02 37 AB 30
 (2025-08-07 21:04:58.027881)  can0  02F   [2]  FF 00
 (2025-08-07 21:04:58.030036)  can0  043   [4]  00 B3 D1 00
 (2025-08-07 21:04:58.030120)  can0  098   [1]  00
 (2025-08-07 21:04:58.036620)  can0  56B   [8]  73 D6 FA 02 5E 20 AE E2
 (2025-08-07 21:04:58.039515)  can0  043   [4]  00 B3 D1 00
 (2025-08-07 21:04:58.039603)  can0  098   [1]  00
 (2025-08-07 21:04:58.042907)  can0  02F   [2]  FF 00
 (2025-08-07 21:04:58.047118)  can0  5F8   [8]  21 D2 ED 17 FC 9B CF 76
 (2025-08-07 21:04:58.049859)  can0  043   [4]  00 B3 D1 00
 (2025-08-07 21:04:58.049940)  can0  098   [1]  00
 (2025-08-07 21:04:58.058247)  can0  02F   [2]  09 01
 (2025-08-07 21:04:58.058839)  can0  5A1   [8]  A3 B4 38 10 02 E3 25 37
 (2025-08-07 21:04:58.059862)  can0  043   [4]  00 B3 D1 00
 (2025-08-07 21:04:58.059948)  can0  098   [1]  00
 (2025-08-07 21:04:58.069856)  can0  043   [4]  00 B3 D1 00
 (2025-08-07 21:04:58.069929)  can0  098   [1]  00
 (2025-08-07 21:04:58.070519)  can0  5DA   [8]  3E 68 DA 1A 7E 71 7A 86
 (2025-08-07 21:04:58.072957)  can0  02F   [2]  09 01
 (2025-08-07 21:04:58.079911)  can0  043   [4]  00 B3 D1 00
 (2025-08-07 21:04:58.079981)  can0  098   [1]  00
 (2025-08-07 21:04:58.082084)  can0  508   [8]  DB 12 18 DD AF 15 10 22
 (2025-08-07 21:04:58.088139)  can0  02F   [2]  09 01
 (2025-08-07 21:04:58.089807)  can0  043   [4]  00 B3 D1 00
 (2025-08-07 21:04:58.089920)  can0  098   [1]  00
 (2025-08-07 21:04:58.093972)  can0  55C   [8]  3E 41 99 70 56 64 50 AC
 (2025-08-07 21:04:58.099807)  can0  043   [4]  00 B3 D1 00
 (2025-08-07 21:04:58.099883)  can0  098   [1]  00
 (2025-08-07 21:04:58.103048)  can0  02F   [2]  14 01
 (2025-08-07 21:04:58.104477)  can0  50C   [8]  62 A0 B3 A2 55 51 6A AF
 (2025-08-07 21:04:58.109815)  can0  043   [4]  00 B3 D1 00
 (2025-08-07 21:04:58.109898)  can0  098   [1]  00
 (2025-08-07 21:04:58.115847)  can0  5BA   [8]  D2 88 93 A9 6C 15 85 9C
 (2025-08-07 21:04:58.118089)  can0  02F   [2]  14 01
 (2025-08-07 21:04:58.119972)  can0  043   [4]  00 B3 D1 00
 (2025-08-07 21:04:58.120075)  can0  098   [1]  00
 (2025-08-07 21:04:58.127808)  can0  505   [8]  F5 0F EB 98 32 1A 56 03
 (2025-08-07 21:04:58.129787)  can0  043   [4]  00 B3 D1 00
 (2025-08-07 21:04:58.129859)  can0  098   [1]  00
 (2025-08-07 21:04:58.132959)  can0  02F   [2]  1E 01
 (2025-08-07 21:04:58.138844)  can0  50F   [8]  B0 1A 1B 4B 2D 3C A7 EA
 (2025-08-07 21:04:58.139794)  can0  043   [4]  00 B3 D1 00
 (2025-08-07 21:04:58.139869)  can0  098   [1]  00
 (2025-08-07 21:04:58.148053)  can0  02F   [2]  1E 01
 (2025-08-07 21:04:58.149306)  can0  576   [8]  7C EC D0 D1 67 5C 59 15
 (2025-08-07 21:04:58.149851)  can0  043   [4]  00 B3 D1 00
 (2025-08-07 21:04:58.149934)  can0  098   [1]  00
 (2025-08-07 21:04:58.159735)  can0  043   [4]  00 B3 D1 00
 (2025-08-07 21:04:58.159813)  can0  098   [1]  00
 (2025-08-07 21:04:58.160707)  can0  516   [8]  28 0E 00 35 7A C3 2D 7E
 (2025-08-07 21:04:58.162897)  can0  02F   [2]  1E 01
 (2025-08-07 21:04:58.169811)  can0  043   [4]  00 B3 D1 00
 (2025-08-07 21:04:58.169881)  can0  098   [1]  00
 (2025-08-07 21:04:58.172142)  can0  554   [8]  F8 16 B8 97 E7 0E 0D AB
 (2025-08-07 21:04:58.178017)  can0  02F   [2]  28 01
 (2025-08-07 21:04:58.179766)  can0  043   [4]  00 B3 D1 00
 (2025-08-07 21:04:58.179873)  can0  098   [1]  00
 (2025-08-07 21:04:58.184131)  can0  577   [8]  5F 04 73 36 DF 9E 3B 18
 (2025-08-07 21:04:58.189812)  can0  043   [4]  00 B3 D1 00
 (2025-08-07 21:04:58.189890)  can0  098   [1]  00
 (2025-08-07 21:04:58.193012)  can0  02F   [2]  28 01
 (2025-08-07 21:04:58.194638)  can0  53F   [8]  82 67 F9 11 0A CD 42 BA
 (2025-08-07 21:04:58.199869)  can0  043   [4]  00 B3 D1 00
 (2025-08-07 21:04:58.199942)  can0  098   [1]  00
 (2025-08-07 21:04:58.206639)  can0  5F2   [8]  7D 77 7D 31 27 95 AD 31
 (2025-08-07 21:04:58.207853)  can0  02F   [2]  28 01
 (2025-08-07 21:04:58.209697)  can0  043   [4]  00 B3 D1 00
 (2025-08-07 21:04:58.209800)  can0  098   [1]  00
 (2025-08-07 21:04:58.217832)  can0  5E8   [8]  A3 D5 53 66 FD C9 51 06
 (2025-08-07 21:04:58.217939)  can0  098   [1]  00
 (2025-08-07 21:04:58.218106)  can0  043   [4]  00 12 4A 00
 (2025-08-07 21:04:58.218873)  can0  098   [1]  00
 (2025-08-07 21:04:58.219975)  can0  043   [4]  00 12 4A 00
 (2025-08-07 21:04:58.220080)  can0  098   [1]  01
 (2025-08-07 21:04:58.223109)  can0  02F   [2]  32 01
 (2025-08-07 21:04:58.228965)  can0  50D   [8]  69 87 EA 11 4C 85 DB D2
 (2025-08-07 21:04:58.230206)  can0  043   [4]  00 12 4A 00
 (2025-08-07 21:04:58.230287)  can0  098   [1]  01
 (2025-08-07 21:04:58.239511)  can0  531   [8]  C0 AC 19 9D 79 B7 DF 3A
 (2025-08-07 21:04:58.240263)  can0  043   [4]  00 12 4A 00
 (2025-08-07 21:04:58.240359)  can0  02F   [2]  32 01
 (2025-08-07 21:04:58.240479)  can0  098   [1]  01
 (2025-08-07 21:04:58.250161)  can0  043   [4]  00 12 4A 00
 (2025-08-07 21:04:58.250234)  can0  098   [1]  01
 (2025-08-07 21:04:58.251122)  can0  509   [8]  C9 F8 E0 DF 14 2A EC 1F
 (2025-08-07 21:04:58.254488)  can0  02F   [2]  32 01
 (2025-08-07 21:04:58.260094)  can0  043   [4]  00 12 4A 00
 (2025-08-07 21:04:58.260185)  can0  098   [1]  01
 (2025-08-07 21:04:58.262554)  can0  53F   [8]  21 F1 AC 17 1C 65 14 E0
 (2025-08-07 21:04:58.269296)  can0  02F   [2]  3D 01
 (2025-08-07 21:04:58.270053)  can0  043   [4]  00 12 4A 00
 (2025-08-07 21:04:58.270169)  can0  098   [1]  01
 (2025-08-07 21:04:58.273940)  can0  5F6   [8]  B9 83 04 79 00 8F 0D 2D
 (2025-08-07 21:04:58.280117)  can0  043   [4]  00 12 4A 00
 (2025-08-07 21:04:58.280197)  can0  098   [1]  01
 (2025-08-07 21:04:58.285270)  can0  57F   [8]  1F 5C 69 A9 01 53 51 10
 (2025-08-07 21:04:58.285405)  can0  02F   [2]  3D 01
 (2025-08-07 21:04:58.290098)  can0  043   [4]  00 12 4A 00
 (2025-08-07 21:04:58.290185)  can0  098   [1]  01
 (2025-08-07 21:04:58.297245)  can0  510   [8]  F2 67 07 50 9B F1 D1 EB
 (2025-08-07 21:04:58.300193)  can0  043   [4]  00 12 4A 00
 (2025-08-07 21:04:58.300314)  can0  02F   [2]  3D 01
 (2025-08-07 21:04:58.300471)  can0  098   [1]  01
 (2025-08-07 21:04:58.307729)  can0  58C   [8]  FF 02 27 77 EF 69 B5 56
 (2025-08-07 21:04:58.309378)  can0  043   [4]  00 12 4A 00
 (2025-08-07 21:04:58.309457)  can0  098   [1]  01
 (2025-08-07 21:04:58.315591)  can0  02F   [2]  47 01
 (2025-08-07 21:04:58.319118)  can0  542   [8]  44 F9 8C 31 03 F7 80 87
 (2025-08-07 21:04:58.319359)  can0  043   [4]  00 12 4A 00
 (2025-08-07 21:04:58.319475)  can0  098   [1]  01
 (2025-08-07 21:04:58.329638)  can0  043   [4]  00 12 4A 00
 (2025-08-07 21:04:58.329719)  can0  098   [1]  01
 (2025-08-07 21:04:58.330810)  can0  5EE   [8]  17 EE D6 2B 17 71 78 2A
 (2025-08-07 21:04:58.331031)  can0  02F   [2]  47 01
 (2025-08-07 21:04:58.339379)  can0  043   [4]  00 12 4A 00
 (2025-08-07 21:04:58.339459)  can0  098   [1]  01
 (2025-08-07 21:04:58.342858)  can0  5AC   [8]  7B AA CD 65 F7 01 C6 EC
 (2025-08-07 21:04:58.345499)  can0  02F   [2]  47 01
 (2025-08-07 21:04:58.349882)  can0  043   [4]  00 12 4A 00
 (2025-08-07 21:04:58.349994)  can0  098   [1]  01
 (2025-08-07 21:04:58.353363)  can0  556   [8]  D7 14 B1 DB 37 4C 1D 2E
 (2025-08-07 21:04:58.359995)  can0  043   [4]  00 12 4A 00
 (2025-08-07 21:04:58.360077)  can0  098   [1]  01
 (2025-08-07 21:04:58.361776)  can0  02F   [2]  51 01
 (2025-08-07 21:04:58.364944)  can0  539   [8]  8C B4 52 33 5A 33 EF 97
 (2025-08-07 21:04:58.369973)  can0  043   [4]  00 12 4A 00
 (2025-08-07 21:04:58.370056)  can0  098   [1]  01
 (2025-08-07 21:04:58.376444)  can0  02F   [2]  51 01
 (2025-08-07 21:04:58.376853)  can0  559   [8]  A6 9E F3 8C 6A D5 D1 6B
 (2025-08-07 21:04:58.379971)  can0  043   [4]  00 12 4A 00
 (2025-08-07 21:04:58.380089)  can0  098   [1]  01
 (2025-08-07 21:04:58.387610)  can0  573   [8]  E2 11 EC E6 5C F2 9C 53
 (2025-08-07 21:04:58.390038)  can0  043   [4]  00 12 4A 00
 (2025-08-07 21:04:58.390122)  can0  098   [1]  01
 (2025-08-07 21:04:58.391645)  can0  02F   [2]  51 01
 (2025-08-07 21:04:58.398987)  can0  521   [8]  B8 AE 96 57 48 72 6B 3E
 (2025-08-07 21:04:58.399975)  can0  043   [4]  00 12 4A 00
 (2025-08-07 21:04:58.400064)  can0  098   [1]  01
 (2025-08-07 21:04:58.406300)  can0  02F   [2]  5B 01
 (2025-08-07 21:04:58.410235)  can0  043   [4]  00 12 4A 00
 (2025-08-07 21:04:58.410314)  can0  098   [1]  01
 (2025-08-07 21:04:58.410554)  can0  571   [8]  8F 33 F2 BE 18 FD A9 EE
 (2025-08-07 21:04:58.420276)  can0  043   [4]  00 12 4A 00
 (2025-08-07 21:04:58.420358)  can0  098   [1]  01
 (2025-08-07 21:04:58.421570)  can0  02F   [2]  5B 01
 (2025-08-07 21:04:58.422718)  can0  5EB   [8]  BC D7 8B 20 13 80 E8 6E
 (2025-08-07 21:04:58.430308)  can0  043   [4]  00 12 4A 00
 (2025-08-07 21:04:58.430382)  can0  098   [1]  01
 (2025-08-07 21:04:58.433224)  can0  5A6   [8]  1E C0 28 FC 8C 59 09 61
 (2025-08-07 21:04:58.436394)  can0  02F   [2]  5B 01
 (2025-08-07 21:04:58.439795)  can0  043   [4]  00 12 4A 00
 (2025-08-07 21:04:58.439898)  can0  098   [1]  01
 (2025-08-07 21:04:58.444562)  can0  538   [8]  BC 6A AD 2D 38 1A 03 5B
 (2025-08-07 21:04:58.449788)  can0  043   [4]  00 12 4A 00
 (2025-08-07 21:04:58.449868)  can0  098   [1]  01
 (2025-08-07 21:04:58.452172)  can0  02F   [2]  66 01
 (2025-08-07 21:04:58.455975)  can0  568   [8]  32 26 21 0F FC 8E FA 3D
 (2025-08-07 21:04:58.459700)  can0  043   [4]  00 12 4A 00
 (2025-08-07 21:04:58.459783)  can0  098   [1]  01
 (2025-08-07 21:04:58.466962)  can0  02F   [2]  66 01
 (2025-08-07 21:04:58.467506)  can0  59D   [8]  F1 2A 37 7A 0B BC B5 BF
 (2025-08-07 21:04:58.469739)  can0  043   [4]  00 12 4A 00
 (2025-08-07 21:04:58.469822)  can0  098   [1]  01
 (2025-08-07 21:04:58.478973)  can0  5EB   [8]  15 A2 55 1A 27 70 B9 94
 (2025-08-07 21:04:58.479854)  can0  043   [4]  00 12 4A 00
 (2025-08-07 21:04:58.479937)  can0  098   [1]  01
 (2025-08-07 21:04:58.482506)  can0  02F   [2]  66 01
 (2025-08-07 21:04:58.489869)  can0  043   [4]  00 12 4A 00
 (2025-08-07 21:04:58.489944)  can0  098   [1]  01
 (2025-08-07 21:04:58.490556)  can0  599   [8]  E4 B7 A4 3A 40 87 89 3D
 (2025-08-07 21:04:58.498584)  can0  02F   [2]  70 01
 (2025-08-07 21:04:58.499375)  can0  043   [4]  00 12 4A 00
 (2025-08-07 21:04:58.499466)  can0  098   [1]  01
 (2025-08-07 21:04:58.502048)  can0  523   [8]  CF 7D 7A A5 1A B1 18 1D
 (2025-08-07 21:04:58.509680)  can0  043   [4]  00 12 4A 00
 (2025-08-07 21:04:58.509759)  can0  098   [1]  01
 (2025-08-07 21:04:58.513184)  can0  02F   [2]  70 01
 (2025-08-07 21:04:58.513578)  can0  5EA   [8]  6A 9E 27 03 B6 7B 0B F7
 (2025-08-07 21:04:58.519746)  can0  043   [4]  00 12 4A 00
 (2025-08-07 21:04:58.519818)  can0  098   [1]  01
 (2025-08-07 21:04:58.524910)  can0  5C4   [8]  83 B4 A7 74 D1 6A 5B 29
 (2025-08-07 21:04:58.529712)  can0  043   [4]  00 12 4A 00
 (2025-08-07 21:04:58.529798)  can0  02F   [2]  70 01
 (2025-08-07 21:04:58.529932)  can0  098   [1]  01
 (2025-08-07 21:04:58.536847)  can0  5C2   [8]  E2 C5 38 1C B9 BC 0E 88
 (2025-08-07 21:04:58.539755)  can0  043   [4]  00 12 4A 00
 (2025-08-07 21:04:58.539875)  can0  098   [1]  01
 (2025-08-07 21:04:58.544541)  can0  02F   [2]  7A 01
 (2025-08-07 21:04:58.547987)  can0  538   [8]  37 08 77 EC 4A 15 39 2E
 (2025-08-07 21:04:58.549698)  can0  043   [4]  00 12 4A 00
 (2025-08-07 21:04:58.549771)  can0  098   [1]  01
 (2025-08-07 21:04:58.558436)  can0  5FB   [8]  21 6B 2E 90 C4 55 D7 A3
 (2025-08-07 21:04:58.558993)  can0  02F   [2]  7A 01
 (2025-08-07 21:04:58.559714)  can0  043   [4]  00 12 4A 00
 (2025-08-07 21:04:58.559803)  can0  098   [1]  01
 (2025-08-07 21:04:58.569697)  can0  043   [4]  00 12 4A 00
 (2025-08-07 21:04:58.569779)  can0  098   [1]  01
 (2025-08-07 21:04:58.570157)  can0  52D   [8]  E9 8D 2D 9D DB 8A 4C C9
 (2025-08-07 21:04:58.574017)  can0  02F   [2]  7A 01
 (2025-08-07 21:04:58.579655)  can0  043   [4]  00 12 4A 00
 (2025-08-07 21:04:58.579760)  can0  098   [1]  01
 (2025-08-07 21:04:58.582152)  can0  522   [8]  1D 69 BA 03 AE B2 79 5B
 (2025-08-07 21:04:58.588872)  can0  02F   [2]  84 01
 (2025-08-07 21:04:58.589657)  can0  043   [4]  00 12 4A 00
 (2025-08-07 21:04:58.589762)  can0  098   [1]  01
 (2025-08-07 21:04:58.592633)  can0  544   [8]  E1 08 7F 29 D6 8E F9 33
 (2025-08-07 21:04:58.599682)  can0  043   [4]  00 12 4A 00
 (2025-08-07 21:04:58.599753)  can0  098   [1]  01
 (2025-08-07 21:04:58.603733)  can0  02F   [2]  84 01
 (2025-08-07 21:04:58.604155)  can0  5FA   [8]  8E 4D 79 5F 61 40 F8 0A
 (2025-08-07 21:04:58.609644)  can0  043   [4]  00 12 4A 00
 (2025-08-07 21:04:58.609728)  can0  098   [1]  01
 (2025-08-07 21:04:58.615532)  can0  51B   [8]  B4 5C 53 56 5A 21 BA AB
 (2025-08-07 21:04:58.619003)  can0  02F   [2]  84 01
 (2025-08-07 21:04:58.619540)  can0  043   [4]  00 12 4A 00
 (2025-08-07 21:04:58.619658)  can0  098   [1]  01
 (2025-08-07 21:04:58.627518)  can0  557   [8]  FE BA E0 20 67 9B 5F C0
 (2025-08-07 21:04:58.629645)  can0  043   [4]  00 12 4A 00
 (2025-08-07 21:04:58.629723)  can0  098   [1]  01
 (2025-08-07 21:04:58.633802)  can0  02F   [2]  8E 01
 (2025-08-07 21:04:58.637991)  can0  58E   [8]  1A 33 83 C1 67 0F 45 9A
 (2025-08-07 21:04:58.639681)  can0  043   [4]  00 12 4A 00
 (2025-08-07 21:04:58.639766)  can0  098   [1]  01
 (2025-08-07 21:04:58.648704)  can0  02F   [2]  8E 01
 (2025-08-07 21:04:58.649532)  can0  5A4   [8]  96 7B C7 05 C5 83 FF E6
 (2025-08-07 21:04:58.649771)  can0  043   [4]  00 12 4A 00
 (2025-08-07 21:04:58.649880)  can0  098   [1]  01
 (2025-08-07 21:04:58.659632)  can0  043   [4]  00 12 4A 00
 (2025-08-07 21:04:58.659717)  can0  098   [1]  01
 (2025-08-07 21:04:58.661240)  can0  598   [8]  26 40 AA 7A 1A FE D8 A4
 (2025-08-07 21:04:58.663831)  can0  02F   [2]  8E 01
 (2025-08-07 21:04:58.670119)  can0  043   [4]  00 12 4A 00
 (2025-08-07 21:04:58.670222)  can0  098   [1]  01
 (2025-08-07 21:04:58.673172)  can0  5C0   [8]  37 ED 00 84 E1 FF 49 49
 (2025-08-07 21:04:58.678911)  can0  02F   [2]  99 01
 (2025-08-07 21:04:58.679963)  can0  043   [4]  00 12 4A 00
 (2025-08-07 21:04:58.680055)  can0  098   [1]  01
 (2025-08-07 21:04:58.683694)  can0  523   [8]  D7 4D 7C A0 E6 F4 11 E6
 (2025-08-07 21:04:58.689501)  can0  043   [4]  00 12 4A 00
 (2025-08-07 21:04:58.689582)  can0  098   [1]  01
 (2025-08-07 21:04:58.694866)  can0  02F   [2]  99 01
 (2025-08-07 21:04:58.695094)  can0  543   [8]  50 F9 89 3B 5E 8D 15 5D
 (2025-08-07 21:04:58.699660)  can0  043   [4]  00 12 4A 00
 (2025-08-07 21:04:58.699738)  can0  098   [1]  01
 (2025-08-07 21:04:58.707144)  can0  56E   [8]  1F 3E 8E CF 28 3A E3 2E
 (2025-08-07 21:04:58.709507)  can0  043   [4]  00 12 4A 00
 (2025-08-07 21:04:58.709586)  can0  098   [1]  01
 (2025-08-07 21:04:58.711032)  can0  02F   [2]  99 01
 (2025-08-07 21:04:58.718160)  can0  5A9   [8]  26 64 30 65 78 FD A2 1B
 (2025-08-07 21:04:58.719521)  can0  043   [4]  00 12 4A 00
 (2025-08-07 21:04:58.719596)  can0  098   [1]  01
 (2025-08-07 21:04:58.726817)  can0  02F   [2]  A3 01
 (2025-08-07 21:04:58.728655)  can0  5AD   [8]  83 2D 39 45 DC E3 2D A0
 (2025-08-07 21:04:58.729526)  can0  043   [4]  00 12 4A 00
 (2025-08-07 21:04:58.729604)  can0  098   [1]  01
 (2025-08-07 21:04:58.739536)  can0  043   [4]  00 12 4A 00
 (2025-08-07 21:04:58.739609)  can0  098   [1]  01
 (2025-08-07 21:04:58.739967)  can0  519   [8]  BF 9B CE 8F BF 3B DD C9
 (2025-08-07 21:04:58.742821)  can0  02F   [2]  A3 01
 (2025-08-07 21:04:58.749512)  can0  043   [4]  00 12 4A 00
 (2025-08-07 21:04:58.749615)  can0  098   [1]  01
 (2025-08-07 21:04:58.751271)  can0  5C9   [8]  86 59 6B 8B 9C 70 7F F0
 (2025-08-07 21:04:58.758812)  can0  02F   [2]  A3 01
 (2025-08-07 21:04:58.759642)  can0  043   [4]  00 12 4A 00
 (2025-08-07 21:04:58.759757)  can0  098   [1]  01
 (2025-08-07 21:04:58.763041)  can0  5C9   [8]  5C 91 F2 E2 74 7C 23 F0
 (2025-08-07 21:04:58.769529)  can0  043   [4]  00 12 4A 00
 (2025-08-07 21:04:58.769648)  can0  098   [1]  01
 (2025-08-07 21:04:58.773485)  can0  50B   [8]  94 52 A8 09 C6 52 5F 6C
 (2025-08-07 21:04:58.774828)  can0  02F   [2]  AD 01
 (2025-08-07 21:04:58.779505)  can0  043   [4]  00 12 4A 00
 (2025-08-07 21:04:58.779619)  can0  098   [1]  01
 (2025-08-07 21:04:58.784667)  can0  5FA   [8]  61 2B A8 CC 9C 33 14 94
 (2025-08-07 21:04:58.789535)  can0  043   [4]  00 12 4A 00
 (2025-08-07 21:04:58.789607)  can0  098   [1]  01
 (2025-08-07 21:04:58.790718)  can0  02F   [2]  AD 01
 (2025-08-07 21:04:58.796429)  can0  530   [8]  ED D1 FB 0C 61 E4 CE AF
 (2025-08-07 21:04:58.799498)  can0  043   [4]  00 12 4A 00
 (2025-08-07 21:04:58.799604)  can0  098   [1]  01
 (2025-08-07 21:04:58.806770)  can0  02F   [2]  B7 01
 (2025-08-07 21:04:58.807584)  can0  523   [8]  C9 CE E0 5E 7D 5A A4 96
 (2025-08-07 21:04:58.809520)  can0  043   [4]  00 12 4A 00
 (2025-08-07 21:04:58.809624)  can0  098   [1]  01
 (2025-08-07 21:04:58.818631)  can0  529   [8]  12 A5 9B 39 2D C9 55 4D
 (2025-08-07 21:04:58.819501)  can0  043   [4]  00 12 4A 00
 (2025-08-07 21:04:58.819583)  can0  098   [1]  01
 (2025-08-07 21:04:58.822643)  can0  02F   [2]  B7 01
 (2025-08-07 21:04:58.829669)  can0  5DE   [8]  19 76 B6 8D D0 D2 63 23
 (2025-08-07 21:04:58.829841)  can0  043   [4]  00 12 4A 00
 (2025-08-07 21:04:58.829970)  can0  098   [1]  01
 (2025-08-07 21:04:58.838577)  can0  02F   [2]  B7 01
 (2025-08-07 21:04:58.839435)  can0  043   [4]  00 12 4A 00
 (2025-08-07 21:04:58.839512)  can0  098   [1]  01
 (2025-08-07 21:04:58.840910)  can0  5EF   [8]  EB A7 58 29 B2 4E 51 E0
 (2025-08-07 21:04:58.849511)  can0  043   [4]  00 12 4A 00
 (2025-08-07 21:04:58.849590)  can0  098   [1]  01
 (2025-08-07 21:04:58.851437)  can0  55E   [8]  90 1A 84 09 24 66 CE 71
 (2025-08-07 21:04:58.854656)  can0  02F   [2]  C2 01
 (2025-08-07 21:04:58.859721)  can0  043   [4]  00 12 4A 00
 (2025-08-07 21:04:58.859793)  can0  098   [1]  01
 (2025-08-07 21:04:58.862630)  can0  5A8   [8]  BA 07 F9 2F 95 90 09 17
 (2025-08-07 21:04:58.869425)  can0  043   [4]  00 12 4A 00
 (2025-08-07 21:04:58.869503)  can0  098   [1]  01
 (2025-08-07 21:04:58.870629)  can0  02F   [2]  C2 01
 (2025-08-07 21:04:58.873879)  can0  5D1   [8]  AA CA 60 CF D1 7B 3F A1
 (2025-08-07 21:04:58.879565)  can0  043   [4]  00 12 4A 00
 (2025-08-07 21:04:58.879643)  can0  098   [1]  01
 (2025-08-07 21:04:58.885631)  can0  531   [8]  72 65 1F 7D 9D C8 B4 EA
 (2025-08-07 21:04:58.887205)  can0  02F   [2]  CC 01
 (2025-08-07 21:04:58.889527)  can0  043   [4]  00 12 4A 00
 (2025-08-07 21:04:58.889635)  can0  098   [1]  01
 (2025-08-07 21:04:58.896116)  can0  576   [8]  8E A0 E7 8A F7 AF C5 08
 (2025-08-07 21:04:58.899527)  can0  043   [4]  00 12 4A 00
 (2025-08-07 21:04:58.899605)  can0  098   [1]  01
 (2025-08-07 21:04:58.902819)  can0  02F   [2]  CC 01
 (2025-08-07 21:04:58.907360)  can0  542   [8]  DE 1F 77 E2 70 CC 83 55
 (2025-08-07 21:04:58.909507)  can0  043   [4]  00 12 4A 00
 (2025-08-07 21:04:58.909587)  can0  098   [1]  01
 (2025-08-07 21:04:58.918560)  can0  5E6   [8]  D1 41 23 E6 27 29 68 F0
 (2025-08-07 21:04:58.918739)  can0  02F   [2]  CC 01
 (2025-08-07 21:04:58.919623)  can0  043   [4]  00 12 4A 00
 (2025-08-07 21:04:58.919730)  can0  098   [1]  01
 (2025-08-07 21:04:58.929580)  can0  043   [4]  00 12 4A 00
 (2025-08-07 21:04:58.929663)  can0  098   [1]  01
 (2025-08-07 21:04:58.929901)  can0  5B8   [8]  C7 1D 03 B1 40 8E BF 3B
 (2025-08-07 21:04:58.934997)  can0  02F   [2]  D6 01
 (2025-08-07 21:04:58.939733)  can0  043   [4]  00 12 4A 00
 (2025-08-07 21:04:58.939809)  can0  098   [1]  01
 (2025-08-07 21:04:58.941577)  can0  520   [8]  88 ED 23 66 B3 B1 9A B2
 (2025-08-07 21:04:58.949897)  can0  043   [4]  00 12 4A 00
 (2025-08-07 21:04:58.949971)  can0  098   [1]  01
 (2025-08-07 21:04:58.950654)  can0  02F   [2]  D6 01
 (2025-08-07 21:04:58.952055)  can0  56B   [8]  51 EA BD 3B 80 8F AD 54
 (2025-08-07 21:04:58.959813)  can0  043   [4]  00 12 4A 00
 (2025-08-07 21:04:58.959891)  can0  098   [1]  01
 (2025-08-07 21:04:58.963306)  can0  518   [8]  1C 42 61 2F 8A 10 C8 0C
 (2025-08-07 21:04:58.965747)  can0  02F   [2]  E0 01
 (2025-08-07 21:04:58.969785)  can0  043   [4]  00 12 4A 00
 (2025-08-07 21:04:58.969902)  can0  098   [1]  01
 (2025-08-07 21:04:58.974494)  can0  56D   [8]  E0 52 6F 01 10 5C C5 F4
 (2025-08-07 21:04:58.980245)  can0  043   [4]  00 12 4A 00
 (2025-08-07 21:04:58.980321)  can0  098   [1]  01
 (2025-08-07 21:04:58.981361)  can0  02F   [2]  E0 01
 (2025-08-07 21:04:58.985695)  can0  542   [8]  C7 11 D8 14 C2 21 0A 55
 (2025-08-07 21:04:58.990134)  can0  043   [4]  00 12 4A 00
 (2025-08-07 21:04:58.990211)  can0  098   [1]  01
 (2025-08-07 21:04:58.996010)  can0  02F   [2]  E0 01
 (2025-08-07 21:04:58.996924)  can0  5BA   [8]  EA 3D C6 D1 18 81 06 82
 (2025-08-07 21:04:59.000206)  can0  043   [4]  00 12 4A 00
 (2025-08-07 21:04:59.000287)  can0  098   [1]  01
 (2025-08-07 21:04:59.008179)  can0  56D   [8]  D7 3B 90 A1 84 B8 E5 CD
 (2025-08-07 21:04:59.010167)  can0  043   [4]  00 12 4A 00
 (2025-08-07 21:04:59.010248)  can0  098   [1]  01
 (2025-08-07 21:04:59.013042)  can0  02F   [2]  EB 01
 (2025-08-07 21:04:59.020010)  can0  5CA   [8]  FC 3F F0 CC 95 19 A1 76
 (2025-08-07 21:04:59.020222)  can0  043   [4]  00 12 4A 00
 (2025-08-07 21:04:59.020333)  can0  098   [1]  01
 (2025-08-07 21:04:59.027124)  can0  02F   [2]  EB 01
 (2025-08-07 21:04:59.030420)  can0  043   [4]  00 12 4A 00
 (2025-08-07 21:04:59.030504)  can0  098   [1]  01
 (2025-08-07 21:04:59.030760)  can0  5D5   [8]  2D 0C C8 24 38 69 E8 2B
 (2025-08-07 21:04:59.040230)  can0  043   [4]  00 12 4A 00
 (2025-08-07 21:04:59.040307)  can0  098   [1]  01
 (2025-08-07 21:04:59.041705)  can0  5D2   [8]  83 7C 7D A1 DF 5F 62 88
 (2025-08-07 21:04:59.043474)  can0  02F   [2]  EB 01
 (2025-08-07 21:04:59.050177)  can0  043   [4]  00 12 4A 00
 (2025-08-07 21:04:59.050248)  can0  098   [1]  01
 (2025-08-07 21:04:59.052875)  can0  515   [8]  61 E5 81 50 09 9E 55 4A
 (2025-08-07 21:04:59.056527)  can0  02F   [2]  F5 01
 (2025-08-07 21:04:59.060165)  can0  043   [4]  00 12 4A 00
 (2025-08-07 21:04:59.060235)  can0  098   [1]  01
 (2025-08-07 21:04:59.064620)  can0  520   [8]  6E E8 C0 D3 6C 3B 78 50
 (2025-08-07 21:04:59.070158)  can0  043   [4]  00 12 4A 00
 (2025-08-07 21:04:59.070232)  can0  098   [1]  01
 (2025-08-07 21:04:59.071761)  can0  02F   [2]  F5 01
 (2025-08-07 21:04:59.075750)  can0  562   [8]  AA 41 E4 AB 1F EA 4F E4
 (2025-08-07 21:04:59.080107)  can0  043   [4]  00 12 4A 00
 (2025-08-07 21:04:59.080203)  can0  098   [1]  01
 (2025-08-07 21:04:59.086239)  can0  02F   [2]  F5 01
 (2025-08-07 21:04:59.086782)  can0  5D2   [8]  AC F2 E6 23 5D DA 05 38
 (2025-08-07 21:04:59.090075)  can0  043   [4]  00 12 4A 00
 (2025-08-07 21:04:59.090163)  can0  098   [1]  01
 (2025-08-07 21:04:59.097863)  can0  592   [8]  09 36 07 45 A7 C9 EB C1
 (2025-08-07 21:04:59.100130)  can0  043   [4]  00 12 4A 00
 (2025-08-07 21:04:59.100219)  can0  098   [1]  01
 (2025-08-07 21:04:59.101239)  can0  02F   [2]  FF 01
 (2025-08-07 21:04:59.108334)  can0  573   [8]  2F 81 AB 33 0D 02 11 CE
 (2025-08-07 21:04:59.110109)  can0  043   [4]  00 12 4A 00
 (2025-08-07 21:04:59.110206)  can0  098   [1]  01
 (2025-08-07 21:04:59.116255)  can0  02F   [2]  FF 01
 (2025-08-07 21:04:59.119562)  can0  511   [8]  51 85 FD B8 8E 20 BB E7
 (2025-08-07 21:04:59.120148)  can0  043   [4]  00 12 4A 00
 (2025-08-07 21:04:59.120235)  can0  098   [1]  01
 (2025-08-07 21:04:59.130123)  can0  043   [4]  00 12 4A 00
 (2025-08-07 21:04:59.130223)  can0  098   [1]  01
 (2025-08-07 21:04:59.130860)  can0  566   [8]  A7 EB 46 0C 6F 1A 0B 30
 (2025-08-07 21:04:59.131233)  can0  02F   [2]  FF 01
 (2025-08-07 21:04:59.140172)  can0  043   [4]  00 12 4A 00
 (2025-08-07 21:04:59.140247)  can0  098   [1]  01
 (2025-08-07 21:04:59.142198)  can0  5AD   [8]  C4 F8 67 25 E1 4B 3E 9D
 (2025-08-07 21:04:59.147020)  can0  02F   [2]  09 02
 (2025-08-07 21:04:59.150136)  can0  043   [4]  00 12 4A 00
 (2025-08-07 21:04:59.150246)  can0  098   [1]  01
 (2025-08-07 21:04:59.153370)  can0  57F   [8]  44 95 E7 5F 6B 4E ED 7A
 (2025-08-07 21:04:59.160158)  can0  043   [4]  00 12 4A 00
 (2025-08-07 21:04:59.160233)  can0  098   [1]  01
 (2025-08-07 21:04:59.161276)  can0  02F   [2]  09 02
 (2025-08-07 21:04:59.164567)  can0  528   [8]  9A 19 21 F3 49 A6 78 D7
 (2025-08-07 21:04:59.170119)  can0  043   [4]  00 12 4A 00
 (2025-08-07 21:04:59.170196)  can0  098   [1]  01
 (2025-08-07 21:04:59.176192)  can0  02F   [2]  09 02
 (2025-08-07 21:04:59.176377)  can0  589   [8]  8E 88 3A FA A8 71 14 4B
 (2025-08-07 21:04:59.180328)  can0  043   [4]  00 12 4A 00
 (2025-08-07 21:04:59.180407)  can0  098   [1]  01
 (2025-08-07 21:04:59.187031)  can0  5B5   [8]  D5 81 92 AE CE BE 58 5F
 (2025-08-07 21:04:59.190254)  can0  043   [4]  00 12 4A 00
 (2025-08-07 21:04:59.190336)  can0  098   [1]  01
 (2025-08-07 21:04:59.191275)  can0  02F   [2]  13 02
 (2025-08-07 21:04:59.198280)  can0  540   [8]  1D DC 8D 29 83 CC F9 1D
 (2025-08-07 21:04:59.200181)  can0  043   [4]  00 12 4A 00
 (2025-08-07 21:04:59.200262)  can0  098   [1]  01
 (2025-08-07 21:04:59.206407)  can0  02F   [2]  13 02
 (2025-08-07 21:04:59.210011)  can0  586   [8]  F4 7D BF 6F 40 0D DE D0
 (2025-08-07 21:04:59.210173)  can0  043   [4]  00 12 4A 00
 (2025-08-07 21:04:59.210281)  can0  098   [1]  01
 (2025-08-07 21:04:59.220276)  can0  043   [4]  00 12 4A 00
 (2025-08-07 21:04:59.220364)  can0  098   [1]  00
 (2025-08-07 21:04:59.221150)  can0  5BE   [8]  EC E8 97 EF DF 26 55 8E
 (2025-08-07 21:04:59.221699)  can0  02F   [2]  13 02
 (2025-08-07 21:04:59.230254)  can0  043   [4]  00 12 4A 00
 (2025-08-07 21:04:59.230325)  can0  098   [1]  00
 (2025-08-07 21:04:59.231718)  can0  51A   [8]  AC 04 01 B1 55 FC 57 62
 (2025-08-07 21:04:59.236804)  can0  02F   [2]  1E 02
 (2025-08-07 21:04:59.239698)  can0  043   [4]  00 12 4A 00
 (2025-08-07 21:04:59.239769)  can0  098   [1]  00
 (2025-08-07 21:04:59.243577)  can0  58A   [8]  72 4B 98 A6 AA A7 15 77
 (2025-08-07 21:04:59.249761)  can0  043   [4]  00 12 4A 00
 (2025-08-07 21:04:59.249842)  can0  098   [1]  00
 (2025-08-07 21:04:59.252018)  can0  02F   [2]  1E 02
 (2025-08-07 21:04:59.254055)  can0  5FC   [8]  FE 6D C2 E7 A2 BB C5 32
 (2025-08-07 21:04:59.259914)  can0  043   [4]  00 12 4A 00
 (2025-08-07 21:04:59.259990)  can0  098   [1]  00
 (2025-08-07 21:04:59.265803)  can0  566   [8]  A2 0F 53 E4 7A 31 59 50
 (2025-08-07 21:04:59.267238)  can0  02F   [2]  1E 02
 (2025-08-07 21:04:59.269995)  can0  043   [4]  00 12 4A 00
 (2025-08-07 21:04:59.270107)  can0  098   [1]  00
 (2025-08-07 21:04:59.276294)  can0  59B   [8]  22 31 3F D7 97 92 C5 75
 (2025-08-07 21:04:59.280083)  can0  043   [4]  00 12 4A 00
 (2025-08-07 21:04:59.280160)  can0  098   [1]  00
 (2025-08-07 21:04:59.282382)  can0  02F   [2]  28 02
 (2025-08-07 21:04:59.287506)  can0  5A1   [8]  86 41 8A AA D6 C2 14 A2
 (2025-08-07 21:04:59.289765)  can0  043   [4]  00 12 4A 00
 (2025-08-07 21:04:59.289839)  can0  098   [1]  00
 (2025-08-07 21:04:59.297195)  can0  02F   [2]  28 02
 (2025-08-07 21:04:59.298705)  can0  5EE   [8]  08 C8 B8 87 EB 3E BD 89
 (2025-08-07 21:04:59.300240)  can0  043   [4]  00 12 4A 00
 (2025-08-07 21:04:59.300319)  can0  098   [1]  00
 (2025-08-07 21:04:59.309327)  can0  043   [4]  00 12 4A 00
 (2025-08-07 21:04:59.309406)  can0  098   [1]  00
 (2025-08-07 21:04:59.309985)  can0  5D5   [8]  0A 7A B4 99 91 CC 95 EB
 (2025-08-07 21:04:59.312607)  can0  02F   [2]  32 02
 (2025-08-07 21:04:59.319295)  can0  043   [4]  00 12 4A 00
 (2025-08-07 21:04:59.319379)  can0  098   [1]  00
 (2025-08-07 21:04:59.321872)  can0  527   [8]  2D E1 D1 D0 47 F7 BF E1
 (2025-08-07 21:04:59.327619)  can0  02F   [2]  32 02
 (2025-08-07 21:04:59.329327)  can0  043   [4]  00 12 4A 00
 (2025-08-07 21:04:59.329411)  can0  098   [1]  00
 (2025-08-07 21:04:59.332372)  can0  515   [8]  11 37 41 89 D5 EF 93 B2
 (2025-08-07 21:04:59.339357)  can0  043   [4]  00 12 4A 00
 (2025-08-07 21:04:59.339446)  can0  098   [1]  00
 (2025-08-07 21:04:59.342827)  can0  02F   [2]  3C 02
 (2025-08-07 21:04:59.344254)  can0  530   [8]  12 61 AA D5 B8 8E B9 B8
 (2025-08-07 21:04:59.349421)  can0  043   [4]  00 12 4A 00
 (2025-08-07 21:04:59.349507)  can0  098   [1]  00
 (2025-08-07 21:04:59.355344)  can0  5E9   [8]  3F 4E CD E0 74 7F 4B CC
 (2025-08-07 21:04:59.357763)  can0  02F   [2]  3C 02
 (2025-08-07 21:04:59.359470)  can0  043   [4]  00 12 4A 00
 (2025-08-07 21:04:59.359550)  can0  098   [1]  00
 (2025-08-07 21:04:59.365763)  can0  51C   [8]  3C 77 AB EF F3 F1 A1 C7
 (2025-08-07 21:04:59.369870)  can0  043   [4]  00 12 4A 00
 (2025-08-07 21:04:59.369967)  can0  098   [1]  00
 (2025-08-07 21:04:59.372582)  can0  02F   [2]  47 02
 (2025-08-07 21:04:59.377751)  can0  5BF   [8]  C1 97 4D 08 31 61 9E 6F
 (2025-08-07 21:04:59.379501)  can0  043   [4]  00 12 4A 00
 (2025-08-07 21:04:59.379589)  can0  098   [1]  00
 (2025-08-07 21:04:59.387839)  can0  02F   [2]  47 02
 (2025-08-07 21:04:59.388244)  can0  554   [8]  8C 06 55 AA A9 7F 40 9C
 (2025-08-07 21:04:59.389603)  can0  043   [4]  00 12 4A 00
 (2025-08-07 21:04:59.389697)  can0  098   [1]  00
 (2025-08-07 21:04:59.399542)  can0  5F6   [8]  A9 3E C4 A6 62 CA 81 FC
 (2025-08-07 21:04:59.399756)  can0  043   [4]  00 12 4A 00
 (2025-08-07 21:04:59.399868)  can0  098   [1]  00
 (2025-08-07 21:04:59.403134)  can0  02F   [2]  47 02
 (2025-08-07 21:04:59.409662)  can0  043   [4]  00 12 4A 00
 (2025-08-07 21:04:59.409746)  can0  098   [1]  00
 (2025-08-07 21:04:59.410863)  can0  598   [8]  2B AA 6E F6 E3 0E 22 02
 (2025-08-07 21:04:59.419731)  can0  043   [4]  00 12 4A 00
 (2025-08-07 21:04:59.419810)  can0  02F   [2]  51 02
 (2025-08-07 21:04:59.419950)  can0  098   [1]  00
 (2025-08-07 21:04:59.422660)  can0  5BE   [8]  F1 8B 15 CB 03 D8 08 D0
 (2025-08-07 21:04:59.429943)  can0  043   [4]  00 12 4A 00
 (2025-08-07 21:04:59.430017)  can0  098   [1]  00
 (2025-08-07 21:04:59.433146)  can0  5BB   [8]  DF 33 E5 D6 96 08 FF 6C
 (2025-08-07 21:04:59.433811)  can0  02F   [2]  51 02
 (2025-08-07 21:04:59.439842)  can0  043   [4]  00 12 4A 00
 (2025-08-07 21:04:59.439925)  can0  098   [1]  00
 (2025-08-07 21:04:59.444881)  can0  569   [8]  1C F1 79 9F ED 75 B7 D9
 (2025-08-07 21:04:59.447898)  can0  02F   [2]  51 02
 (2025-08-07 21:04:59.449782)  can0  043   [4]  00 12 4A 00
 (2025-08-07 21:04:59.449863)  can0  098   [1]  00
 (2025-08-07 21:04:59.455421)  can0  54E   [8]  82 71 11 1B 50 7C 7A FD
 (2025-08-07 21:04:59.459700)  can0  043   [4]  00 12 4A 00
 (2025-08-07 21:04:59.459791)  can0  098   [1]  00
 (2025-08-07 21:04:59.463265)  can0  02F   [2]  5B 02
 (2025-08-07 21:04:59.466604)  can0  5A9   [8]  18 70 6C 01 8F B3 01 D3
 (2025-08-07 21:04:59.469706)  can0  043   [4]  00 12 4A 00
 (2025-08-07 21:04:59.469802)  can0  098   [1]  00
 (2025-08-07 21:04:59.478427)  can0  54C   [8]  6B 04 12 45 3C B7 88 21
 (2025-08-07 21:04:59.478526)  can0  02F   [2]  5B 02
 (2025-08-07 21:04:59.480080)  can0  043   [4]  00 12 4A 00
 (2025-08-07 21:04:59.480169)  can0  098   [1]  00
 (2025-08-07 21:04:59.488910)  can0  565   [8]  26 0F 11 BF 39 97 8A 0C
 (2025-08-07 21:04:59.489742)  can0  043   [4]  00 12 4A 00
 (2025-08-07 21:04:59.489834)  can0  098   [1]  00
 (2025-08-07 21:04:59.493898)  can0  02F   [2]  5B 02
 (2025-08-07 21:04:59.499718)  can0  043   [4]  00 12 4A 00
 (2025-08-07 21:04:59.499811)  can0  098   [1]  00
 (2025-08-07 21:04:59.500189)  can0  5BC   [8]  5B 7C D2 97 37 DD F4 7E
 (2025-08-07 21:04:59.508127)  can0  02F   [2]  65 02
 (2025-08-07 21:04:59.510010)  can0  043   [4]  00 12 4A 00
 (2025-08-07 21:04:59.510093)  can0  098   [1]  00
 (2025-08-07 21:04:59.511543)  can0  552   [8]  E7 40 FB 9B F5 B4 83 CE
 (2025-08-07 21:04:59.520110)  can0  043   [4]  00 12 4A 00
 (2025-08-07 21:04:59.520207)  can0  098   [1]  00
 (2025-08-07 21:04:59.522731)  can0  510   [8]  AA 26 89 A5 7A AC E3 2B
 (2025-08-07 21:04:59.525476)  can0  02F   [2]  65 02
 (2025-08-07 21:04:59.529986)  can0  043   [4]  00 12 4A 00
 (2025-08-07 21:04:59.530075)  can0  098   [1]  00
 (2025-08-07 21:04:59.534077)  can0  5CF   [8]  06 D0 17 81 8F DC 30 C9
 (2025-08-07 21:04:59.539019)  can0  02F   [2]  65 02
 (2025-08-07 21:04:59.540315)  can0  043   [4]  00 12 4A 00
 (2025-08-07 21:04:59.540397)  can0  098   [1]  00
 (2025-08-07 21:04:59.545836)  can0  55D   [8]  26 35 7C 8D D7 59 8A C5
 (2025-08-07 21:04:59.550080)  can0  043   [4]  00 12 4A 00
 (2025-08-07 21:04:59.550165)  can0  098   [1]  00
 (2025-08-07 21:04:59.554314)  can0  02F   [2]  70 02
 (2025-08-07 21:04:59.556305)  can0  522   [8]  67 3B 4D 61 71 AB DC A2
 (2025-08-07 21:04:59.559606)  can0  043   [4]  00 12 4A 00
 (2025-08-07 21:04:59.559698)  can0  098   [1]  00
 (2025-08-07 21:04:59.567546)  can0  521   [8]  E0 B8 64 6D 31 47 E7 D6
 (2025-08-07 21:04:59.569656)  can0  043   [4]  00 12 4A 00
 (2025-08-07 21:04:59.569732)  can0  098   [1]  00
 (2025-08-07 21:04:59.569883)  can0  02F   [2]  70 02
 (2025-08-07 21:04:59.578752)  can0  5C8   [8]  29 6A E2 E3 E9 41 A4 93
 (2025-08-07 21:04:59.579569)  can0  043   [4]  00 12 4A 00
 (2025-08-07 21:04:59.579652)  can0  098   [1]  00
 (2025-08-07 21:04:59.585608)  can0  02F   [2]  7A 02
 (2025-08-07 21:04:59.590056)  can0  51F   [8]  35 9E 21 24 97 F6 94 E3
 (2025-08-07 21:04:59.590233)  can0  043   [4]  00 12 4A 00
 (2025-08-07 21:04:59.590353)  can0  098   [1]  00
 (2025-08-07 21:04:59.599849)  can0  043   [4]  00 12 4A 00
 (2025-08-07 21:04:59.599928)  can0  098   [1]  00
 (2025-08-07 21:04:59.601208)  can0  02F   [2]  7A 02
 (2025-08-07 21:04:59.601422)  can0  59C   [8]  51 B9 15 14 BA E5 12 80
 (2025-08-07 21:04:59.609867)  can0  043   [4]  00 12 4A 00
 (2025-08-07 21:04:59.609956)  can0  098   [1]  00
 (2025-08-07 21:04:59.612563)  can0  5E3   [8]  8C F5 A4 3A C0 22 FD F0
 (2025-08-07 21:04:59.616271)  can0  02F   [2]  84 02
 (2025-08-07 21:04:59.619842)  can0  043   [4]  00 12 4A 00
 (2025-08-07 21:04:59.619957)  can0  098   [1]  00
 (2025-08-07 21:04:59.624416)  can0  532   [8]  9B B6 B4 E4 06 2B EB 51
 (2025-08-07 21:04:59.629871)  can0  043   [4]  00 12 4A 00
 (2025-08-07 21:04:59.629952)  can0  098   [1]  00
 (2025-08-07 21:04:59.631163)  can0  02F   [2]  84 02
 (2025-08-07 21:04:59.634999)  can0  57C   [8]  0D AB 32 B4 AC E1 9C BE
 (2025-08-07 21:04:59.639885)  can0  043   [4]  00 12 4A 00
 (2025-08-07 21:04:59.639978)  can0  098   [1]  00
 (2025-08-07 21:04:59.646186)  can0  5CD   [8]  5E 0F 2B 48 D1 C9 FE 04
 (2025-08-07 21:04:59.646295)  can0  02F   [2]  8E 02
 (2025-08-07 21:04:59.649997)  can0  043   [4]  00 12 4A 00
 (2025-08-07 21:04:59.650098)  can0  098   [1]  00
 (2025-08-07 21:04:59.657355)  can0  584   [8]  26 8B 75 C5 31 60 5D 55
 (2025-08-07 21:04:59.659969)  can0  043   [4]  00 12 4A 00
 (2025-08-07 21:04:59.660060)  can0  098   [1]  00
 (2025-08-07 21:04:59.661248)  can0  02F   [2]  8E 02
 (2025-08-07 21:04:59.668520)  can0  5F4   [8]  13 50 F9 03 0E F1 D7 05
 (2025-08-07 21:04:59.669987)  can0  043   [4]  00 12 4A 00
 (2025-08-07 21:04:59.670077)  can0  098   [1]  00
 (2025-08-07 21:04:59.676058)  can0  02F   [2]  98 02
 (2025-08-07 21:04:59.679990)  can0  043   [4]  00 12 4A 00
 (2025-08-07 21:04:59.680093)  can0  098   [1]  00
 (2025-08-07 21:04:59.680464)  can0  57F   [8]  9F 87 BC 0B 7E FB EE 9E
 (2025-08-07 21:04:59.689867)  can0  043   [4]  00 12 4A 00
 (2025-08-07 21:04:59.689956)  can0  098   [1]  00
 (2025-08-07 21:04:59.690848)  can0  5DC   [8]  81 53 1E F3 FE AE E9 92
 (2025-08-07 21:04:59.691110)  can0  02F   [2]  98 02
 (2025-08-07 21:04:59.699722)  can0  043   [4]  00 12 4A 00
 (2025-08-07 21:04:59.699792)  can0  098   [1]  00
 (2025-08-07 21:04:59.702150)  can0  5F7   [8]  36 7F A3 3D 94 B3 75 CA
 (2025-08-07 21:04:59.706038)  can0  02F   [2]  A3 02
 (2025-08-07 21:04:59.709836)  can0  043   [4]  00 12 4A 00
 (2025-08-07 21:04:59.709951)  can0  098   [1]  00
 (2025-08-07 21:04:59.713314)  can0  5CA   [8]  2B 42 F9 F7 B4 77 77 C7
 (2025-08-07 21:04:59.720215)  can0  043   [4]  00 12 4A 00
 (2025-08-07 21:04:59.720292)  can0  098   [1]  00
 (2025-08-07 21:04:59.721428)  can0  02F   [2]  A3 02
 (2025-08-07 21:04:59.725316)  can0  57E   [8]  2F 67 02 C8 83 DA 3C DF
 (2025-08-07 21:04:59.729698)  can0  043   [4]  00 12 4A 00
 (2025-08-07 21:04:59.729772)  can0  098   [1]  00
 (2025-08-07 21:04:59.735742)  can0  5D9   [8]  85 4D 54 A7 2F D1 AC C4
 (2025-08-07 21:04:59.736971)  can0  02F   [2]  AD 02
 (2025-08-07 21:04:59.739676)  can0  043   [4]  00 12 4A 00
 (2025-08-07 21:04:59.739777)  can0  098   [1]  00
 (2025-08-07 21:04:59.746977)  can0  578   [8]  6C AA 9D 4F B1 7F D3 AC
 (2025-08-07 21:04:59.749813)  can0  043   [4]  00 12 4A 00
 (2025-08-07 21:04:59.749890)  can0  098   [1]  00
 (2025-08-07 21:04:59.752260)  can0  02F   [2]  AD 02
 (2025-08-07 21:04:59.758811)  can0  5E4   [8]  30 58 FF 02 17 F3 E3 C2
 (2025-08-07 21:04:59.759929)  can0  043   [4]  00 12 4A 00
 (2025-08-07 21:04:59.760006)  can0  098   [1]  00
 (2025-08-07 21:04:59.767088)  can0  02F   [2]  B7 02
 (2025-08-07 21:04:59.769456)  can0  54F   [8]  71 ED EE EF 64 BB F4 E1
 (2025-08-07 21:04:59.769894)  can0  043   [4]  00 12 4A 00
 (2025-08-07 21:04:59.769971)  can0  098   [1]  00
 (2025-08-07 21:04:59.779860)  can0  043   [4]  00 12 4A 00
 (2025-08-07 21:04:59.779936)  can0  098   [1]  00
 (2025-08-07 21:04:59.780714)  can0  5FB   [8]  4C 7B BA E6 47 45 C4 1C
 (2025-08-07 21:04:59.781961)  can0  02F   [2]  B7 02
 (2025-08-07 21:04:59.789820)  can0  043   [4]  00 12 4A 00
 (2025-08-07 21:04:59.789890)  can0  098   [1]  00
 (2025-08-07 21:04:59.791964)  can0  554   [8]  94 F9 35 6C C3 B9 2C E1
 (2025-08-07 21:04:59.797573)  can0  02F   [2]  B7 02
 (2025-08-07 21:04:59.799318)  can0  043   [4]  00 12 4A 00
 (2025-08-07 21:04:59.799430)  can0  098   [1]  00
 (2025-08-07 21:04:59.803789)  can0  5CF   [8]  A5 F1 95 2E 98 4E E2 F6
 (2025-08-07 21:04:59.809459)  can0  043   [4]  00 12 4A 00
 (2025-08-07 21:04:59.809533)  can0  098   [1]  00
 (2025-08-07 21:04:59.812641)  can0  02F   [2]  C1 02
 (2025-08-07 21:04:59.814292)  can0  5F8   [8]  01 C8 D3 0E B1 43 8F AB
 (2025-08-07 21:04:59.819586)  can0  043   [4]  00 12 4A 00
 (2025-08-07 21:04:59.819665)  can0  098   [1]  00
 (2025-08-07 21:04:59.826028)  can0  562   [8]  50 58 D2 0A 06 5E 19 1E
 (2025-08-07 21:04:59.828511)  can0  02F   [2]  C1 02
 (2025-08-07 21:04:59.829823)  can0  043   [4]  00 12 4A 00
 (2025-08-07 21:04:59.829930)  can0  098   [1]  00
 (2025-08-07 21:04:59.836500)  can0  55D   [8]  AD 25 ED DF 1B D7 F3 89
 (2025-08-07 21:04:59.839812)  can0  043   [4]  00 12 4A 00
 (2025-08-07 21:04:59.839890)  can0  098   [1]  00
 (2025-08-07 21:04:59.845482)  can0  02F   [2]  C1 02
 (2025-08-07 21:04:59.848316)  can0  5D0   [8]  39 2D F7 8F 73 F4 FF 24
 (2025-08-07 21:04:59.849553)  can0  043   [4]  00 12 4A 00
 (2025-08-07 21:04:59.849627)  can0  098   [1]  00
 (2025-08-07 21:04:59.859434)  can0  5D8   [8]  73 46 06 8C F2 AC 38 BF
 (2025-08-07 21:04:59.859639)  can0  02F   [2]  CC 02
 (2025-08-07 21:04:59.860106)  can0  043   [4]  00 12 4A 00
 (2025-08-07 21:04:59.860211)  can0  098   [1]  00
 (2025-08-07 21:04:59.869902)  can0  5DA   [8]  56 8E BC 0F E8 F9 AC 35
 (2025-08-07 21:04:59.870073)  can0  043   [4]  00 12 4A 00
 (2025-08-07 21:04:59.870184)  can0  098   [1]  00
 (2025-08-07 21:04:59.875013)  can0  02F   [2]  CC 02
 (2025-08-07 21:04:59.879995)  can0  043   [4]  00 12 4A 00
 (2025-08-07 21:04:59.880068)  can0  098   [1]  00
 (2025-08-07 21:04:59.881728)  can0  5DC   [8]  56 AB 22 D8 2F 32 86 32
 (2025-08-07 21:04:59.890369)  can0  043   [4]  00 12 4A 00
 (2025-08-07 21:04:59.890484)  can0  02F   [2]  CC 02
 (2025-08-07 21:04:59.890600)  can0  098   [1]  00
 (2025-08-07 21:04:59.892774)  can0  50F   [8]  36 BA 15 5B 3D 53 95 08
 (2025-08-07 21:04:59.899980)  can0  043   [4]  00 12 4A 00
 (2025-08-07 21:04:59.900051)  can0  098   [1]  00
 (2025-08-07 21:04:59.903298)  can0  505   [8]  1E 4F 1C 00 E3 C0 31 69
 (2025-08-07 21:04:59.905878)  can0  02F   [2]  D6 02
 (2025-08-07 21:04:59.909194)  can0  043   [4]  00 12 4A 00
 (2025-08-07 21:04:59.909267)  can0  098   [1]  00
 (2025-08-07 21:04:59.914523)  can0  520   [8]  6B E5 AD B4 22 46 6F 90
 (2025-08-07 21:04:59.919306)  can0  043   [4]  00 12 4A 00
 (2025-08-07 21:04:59.919386)  can0  098   [1]  00
 (2025-08-07 21:04:59.920643)  can0  02F   [2]  D6 02
 (2025-08-07 21:04:59.925739)  can0  50C   [8]  BE E0 2C 76 5B 90 17 85
 (2025-08-07 21:04:59.929271)  can0  043   [4]  00 12 4A 00
 (2025-08-07 21:04:59.929347)  can0  098   [1]  00
 (2025-08-07 21:04:59.935415)  can0  02F   [2]  D6 02
 (2025-08-07 21:04:59.936928)  can0  56E   [8]  B6 97 3F DC FC 2A 4E 80
 (2025-08-07 21:04:59.939170)  can0  043   [4]  00 12 4A 00
 (2025-08-07 21:04:59.939248)  can0  098   [1]  00
 (2025-08-07 21:04:59.948083)  can0  567   [8]  6E C8 F0 56 A5 27 EC 92
 (2025-08-07 21:04:59.949222)  can0  043   [4]  00 12 4A 00
 (2025-08-07 21:04:59.949302)  can0  098   [1]  00
 (2025-08-07 21:04:59.950387)  can0  02F   [2]  E0 02
 (2025-08-07 21:04:59.959301)  can0  591   [8]  08 67 34 35 09 4A A9 56
 (2025-08-07 21:04:59.959615)  can0  043   [4]  00 12 4A 00
 (2025-08-07 21:04:59.959696)  can0  098   [1]  00
 (2025-08-07 21:04:59.965958)  can0  02F   [2]  E0 02
 (2025-08-07 21:04:59.970152)  can0  043   [4]  00 12 4A 00
 (2025-08-07 21:04:59.970235)  can0  098   [1]  00
 (2025-08-07 21:04:59.971163)  can0  5CF   [8]  FC 11 F1 32 3F 84 D7 BD
 (2025-08-07 21:04:59.980303)  can0  043   [4]  00 12 4A 00
 (2025-08-07 21:04:59.980376)  can0  098   [1]  00
 (2025-08-07 21:04:59.981453)  can0  02F   [2]  E0 02
 (2025-08-07 21:04:59.981684)  can0  5CC   [8]  21 D8 D4 EA B5 86 32 E3
 (2025-08-07 21:04:59.990246)  can0  043   [4]  00 12 4A 00
 (2025-08-07 21:04:59.990328)  can0  098   [1]  00
 (2025-08-07 21:04:59.993445)  can0  586   [8]  76 F4 D1 CE E7 C3 3B 45
 (2025-08-07 21:04:59.997485)  can0  02F   [2]  EA 02
 (2025-08-07 21:05:00.000454)  can0  043   [4]  00 12 4A 00
 (2025-08-07 21:05:00.000536)  can0  098   [1]  00
 (2025-08-07 21:05:00.004490)  can0  5D3   [8]  4C CD 60 FE 25 05 05 81
 (2025-08-07 21:05:00.010813)  can0  043   [4]  00 12 4A 00
 (2025-08-07 21:05:00.010889)  can0  098   [1]  00
 (2025-08-07 21:05:00.012229)  can0  02F   [2]  EA 02
 (2025-08-07 21:05:00.015000)  can0  5E2   [8]  D9 4C 42 51 EC 5E 30 77
 (2025-08-07 21:05:00.021100)  can0  043   [4]  00 12 4A 00
 (2025-08-07 21:05:00.021180)  can0  098   [1]  00
 (2025-08-07 21:05:00.026209)  can0  528   [8]  5A 32 71 5F 59 17 82 45
 (2025-08-07 21:05:00.027313)  can0  02F   [2]  EA 02
 (2025-08-07 21:05:00.030261)  can0  043   [4]  00 12 4A 00
 (2025-08-07 21:05:00.030353)  can0  098   [1]  00
 (2025-08-07 21:05:00.037443)  can0  536   [8]  0E 2F 6A 30 DC C9 7E F7
 (2025-08-07 21:05:00.040359)  can0  043   [4]  00 12 4A 00
 (2025-08-07 21:05:00.040439)  can0  098   [1]  00
 (2025-08-07 21:05:00.043035)  can0  02F   [2]  F5 02
 (2025-08-07 21:05:00.049291)  can0  5DB   [8]  98 AB EA 6A 04 9E 95 07
 (2025-08-07 21:05:00.050679)  can0  043   [4]  00 12 4A 00
 (2025-08-07 21:05:00.050751)  can0  098   [1]  00
 (2025-08-07 21:05:00.058132)  can0  02F   [2]  F5 02
 (2025-08-07 21:05:00.059789)  can0  51F   [8]  53 B4 02 7C 32 A9 8D 96
 (2025-08-07 21:05:00.060829)  can0  043   [4]  00 12 4A 00
 (2025-08-07 21:05:00.060908)  can0  098   [1]  00
 (2025-08-07 21:05:00.070818)  can0  043   [4]  00 12 4A 00
 (2025-08-07 21:05:00.070901)  can0  098   [1]  00
 (2025-08-07 21:05:00.071139)  can0  53F   [8]  A7 29 78 75 C2 04 20 B7
 (2025-08-07 21:05:00.074695)  can0  02F   [2]  F5 02
 (2025-08-07 21:05:00.081079)  can0  043   [4]  00 12 4A 00
 (2025-08-07 21:05:00.081159)  can0  098   [1]  00
 (2025-08-07 21:05:00.082377)  can0  538   [8]  0E A1 45 25 95 6A 24 0B
 (2025-08-07 21:05:00.088886)  can0  02F   [2]  FF 02
 (2025-08-07 21:05:00.091318)  can0  043   [4]  00 12 4A 00
 (2025-08-07 21:05:00.091391)  can0  098   [1]  00
 (2025-08-07 21:05:00.093584)  can0  5F2   [8]  5D 40 35 6E 65 44 4C 00
 (2025-08-07 21:05:00.101095)  can0  043   [4]  00 12 4A 00
 (2025-08-07 21:05:00.101174)  can0  098   [1]  00
 (2025-08-07 21:05:00.103265)  can0  02F   [2]  FF 02
 (2025-08-07 21:05:00.105355)  can0  5F0   [8]  35 59 F0 65 ED DE DB AC
 (2025-08-07 21:05:00.110986)  can0  043   [4]  00 12 4A 00
 (2025-08-07 21:05:00.111107)  can0  098   [1]  00
 (2025-08-07 21:05:00.116203)  can0  56C   [8]  8C B9 44 AC 92 49 B1 7B
 (2025-08-07 21:05:00.118252)  can0  02F   [2]  FF 02
 (2025-08-07 21:05:00.121049)  can0  043   [4]  00 12 4A 00
 (2025-08-07 21:05:00.121152)  can0  098   [1]  00
 (2025-08-07 21:05:00.127318)  can0  572   [8]  4F 38 7E 4B 7B C6 B7 62
 (2025-08-07 21:05:00.131032)  can0  043   [4]  00 12 4A 00
 (2025-08-07 21:05:00.131111)  can0  098   [1]  00
 (2025-08-07 21:05:00.133500)  can0  02F   [2]  09 03
 (2025-08-07 21:05:00.138620)  can0  509   [8]  B7 B1 4C 0B 5B AC 34 F6
 (2025-08-07 21:05:00.141066)  can0  043   [4]  00 12 4A 00
 (2025-08-07 21:05:00.141152)  can0  098   [1]  00
 (2025-08-07 21:05:00.148382)  can0  02F   [2]  09 03
 (2025-08-07 21:05:00.149941)  can0  524   [8]  91 67 D6 00 23 DE 66 B6
 (2025-08-07 21:05:00.151109)  can0  043   [4]  00 12 4A 00
 (2025-08-07 21:05:00.151187)  can0  098   [1]  00
 (2025-08-07 21:05:00.161121)  can0  54B   [8]  CE 0D 52 0B F5 0B F1 7E
 (2025-08-07 21:05:00.161303)  can0  043   [4]  00 12 4A 00
 (2025-08-07 21:05:00.161389)  can0  098   [1]  00
 (2025-08-07 21:05:00.164296)  can0  02F   [2]  09 03
 (2025-08-07 21:05:00.171071)  can0  043   [4]  00 12 4A 00
 (2025-08-07 21:05:00.171142)  can0  098   [1]  00
 (2025-08-07 21:05:00.172335)  can0  523   [8]  71 D7 63 49 B9 C4 D8 54
 (2025-08-07 21:05:00.179051)  can0  02F   [2]  13 03
 (2025-08-07 21:05:00.181064)  can0  043   [4]  00 12 4A 00
 (2025-08-07 21:05:00.181160)  can0  098   [1]  00
 (2025-08-07 21:05:00.183623)  can0  5BF   [8]  CA A9 89 8F D6 73 7B 84
 (2025-08-07 21:05:00.191094)  can0  043   [4]  00 12 4A 00
 (2025-08-07 21:05:00.191169)  can0  098   [1]  00
 (2025-08-07 21:05:00.194080)  can0  02F   [2]  13 03
 (2025-08-07 21:05:00.194855)  can0  546   [8]  E8 DC AF 45 FB 2E C5 6A
 (2025-08-07 21:05:00.201074)  can0  043   [4]  00 12 4A 00
 (2025-08-07 21:05:00.201155)  can0  098   [1]  00
 (2025-08-07 21:05:00.206750)  can0  549   [8]  4C 07 D5 10 50 E6 F0 18
 (2025-08-07 21:05:00.209053)  can0  02F   [2]  1D 03
 (2025-08-07 21:05:00.211073)  can0  043   [4]  00 12 4A 00
 (2025-08-07 21:05:00.211180)  can0  098   [1]  00
 (2025-08-07 21:05:00.217267)  can0  576   [8]  65 0C DD EE 9C ED 42 A0
 (2025-08-07 21:05:00.219119)  can0  098   [1]  00
 (2025-08-07 21:05:00.219260)  can0  043   [4]  00 71 C7 00
 (2025-08-07 21:05:00.219996)  can0  098   [1]  00
 (2025-08-07 21:05:00.221051)  can0  043   [4]  00 71 C7 00
 (2025-08-07 21:05:00.221172)  can0  098   [1]  01
 (2025-08-07 21:05:00.224110)  can0  02F   [2]  1D 03
 (2025-08-07 21:05:00.228478)  can0  54F   [8]  60 34 AD 13 96 C0 2F 3D
 (2025-08-07 21:05:00.231068)  can0  043   [4]  00 71 C7 00
 (2025-08-07 21:05:00.231170)  can0  098   [1]  01
 (2025-08-07 21:05:00.239759)  can0  57D   [8]  69 87 2B 72 BF 68 A7 1E
 (2025-08-07 21:05:00.240048)  can0  02F   [2]  28 03
 (2025-08-07 21:05:00.241715)  can0  043   [4]  00 71 C7 00
 (2025-08-07 21:05:00.241791)  can0  098   [1]  01
 (2025-08-07 21:05:00.251639)  can0  53B   [8]  D6 8C 47 E0 E7 E5 3B C0
 (2025-08-07 21:05:00.251808)  can0  043   [4]  00 71 C7 00
 (2025-08-07 21:05:00.251900)  can0  098   [1]  01
 (2025-08-07 21:05:00.255835)  can0  02F   [2]  28 03
 (2025-08-07 21:05:00.261821)  can0  043   [4]  00 71 C7 00
 (2025-08-07 21:05:00.261899)  can0  098   [1]  01
 (2025-08-07 21:05:00.262729)  can0  5B0   [8]  1A 28 43 B8 02 24 67 C7
 (2025-08-07 21:05:00.270865)  can0  02F   [2]  32 03
 (2025-08-07 21:05:00.271718)  can0  043   [4]  00 71 C7 00
 (2025-08-07 21:05:00.271798)  can0  098   [1]  01
 (2025-08-07 21:05:00.273761)  can0  5D0   [8]  B9 08 13 1E 2F E1 50 FA
 (2025-08-07 21:05:00.281613)  can0  043   [4]  00 71 C7 00
 (2025-08-07 21:05:00.281688)  can0  098   [1]  01
 (2025-08-07 21:05:00.284248)  can0  559   [8]  62 00 FB C7 ED C2 0F 54
 (2025-08-07 21:05:00.286080)  can0  02F   [2]  32 03
 (2025-08-07 21:05:00.291649)  can0  043   [4]  00 71 C7 00
 (2025-08-07 21:05:00.291740)  can0  098   [1]  01
 (2025-08-07 21:05:00.296081)  can0  5EC   [8]  15 99 C1 6A BC 21 A2 B8
 (2025-08-07 21:05:00.300958)  can0  02F   [2]  3C 03
 (2025-08-07 21:05:00.301706)  can0  043   [4]  00 71 C7 00
 (2025-08-07 21:05:00.301820)  can0  098   [1]  01
 (2025-08-07 21:05:00.306540)  can0  527   [8]  A4 65 2A 65 A0 DB C8 3F
 (2025-08-07 21:05:00.311624)  can0  043   [4]  00 71 C7 00
 (2025-08-07 21:05:00.311703)  can0  098   [1]  01
 (2025-08-07 21:05:00.315879)  can0  02F   [2]  3C 03
 (2025-08-07 21:05:00.317722)  can0  5B8   [8]  EB 93 CB 2E A6 6C 05 55
 (2025-08-07 21:05:00.321587)  can0  043   [4]  00 71 C7 00
 (2025-08-07 21:05:00.321666)  can0  098   [1]  01
 (2025-08-07 21:05:00.328918)  can0  5FE   [8]  ED 58 D9 51 AA A0 EA E0
 (2025-08-07 21:05:00.330759)  can0  02F   [2]  3C 03
 (2025-08-07 21:05:00.331652)  can0  043   [4]  00 71 C7 00
 (2025-08-07 21:05:00.331727)  can0  098   [1]  01
 (2025-08-07 21:05:00.340396)  can0  58A   [8]  3F ED B5 A6 EA 7A 8E 5D
 (2025-08-07 21:05:00.341672)  can0  043   [4]  00 71 C7 00
 (2025-08-07 21:05:00.341750)  can0  098   [1]  01
 (2025-08-07 21:05:00.345732)  can0  02F   [2]  46 03
 (2025-08-07 21:05:00.351596)  can0  043   [4]  00 71 C7 00
 (2025-08-07 21:05:00.351683)  can0  098   [1]  01
 (2025-08-07 21:05:00.352305)  can0  5DE   [8]  57 D6 C1 F6 DA BA A9 5F
 (2025-08-07 21:05:00.360743)  can0  02F   [2]  46 03
 (2025-08-07 21:05:00.361582)  can0  043   [4]  00 71 C7 00
 (2025-08-07 21:05:00.361690)  can0  098   [1]  01
 (2025-08-07 21:05:00.362788)  can0  5CB   [8]  C9 7E F1 C7 91 89 A5 DA
 (2025-08-07 21:05:00.371781)  can0  043   [4]  00 71 C7 00
 (2025-08-07 21:05:00.371857)  can0  098   [1]  01
 (2025-08-07 21:05:00.374062)  can0  5EE   [8]  97 F6 B8 BE 92 40 A9 15
 (2025-08-07 21:05:00.375916)  can0  02F   [2]  46 03
 (2025-08-07 21:05:00.381753)  can0  043   [4]  00 71 C7 00
 (2025-08-07 21:05:00.381825)  can0  098   [1]  01
 (2025-08-07 21:05:00.385285)  can0  57E   [8]  07 78 5B D5 48 BD DE F7
 (2025-08-07 21:05:00.391211)  can0  02F   [2]  51 03
 (2025-08-07 21:05:00.391728)  can0  043   [4]  00 71 C7 00
 (2025-08-07 21:05:00.391818)  can0  098   [1]  01
 (2025-08-07 21:05:00.396473)  can0  521   [8]  D4 9F 96 78 38 36 8E 04
 (2025-08-07 21:05:00.401747)  can0  043   [4]  00 71 C7 00
 (2025-08-07 21:05:00.401822)  can0  098   [1]  01
 (2025-08-07 21:05:00.406037)  can0  02F   [2]  51 03
 (2025-08-07 21:05:00.408282)  can0  529   [8]  73 7D 1C F4 18 84 63 96
 (2025-08-07 21:05:00.411757)  can0  043   [4]  00 71 C7 00
 (2025-08-07 21:05:00.411879)  can0  098   [1]  01
 (2025-08-07 21:05:00.418768)  can0  546   [8]  94 D5 3D A7 BF 43 59 8B
 (2025-08-07 21:05:00.420972)  can0  02F   [2]  51 03
 (2025-08-07 21:05:00.421655)  can0  043   [4]  00 71 C7 00
 (2025-08-07 21:05:00.421759)  can0  098   [1]  01
 (2025-08-07 21:05:00.430580)  can0  5B0   [8]  E5 BF F9 48 97 EE 98 48
 (2025-08-07 21:05:00.431748)  can0  043   [4]  00 71 C7 00
 (2025-08-07 21:05:00.431845)  can0  098   [1]  01
 (2025-08-07 21:05:00.435951)  can0  02F   [2]  5B 03
 (2025-08-07 21:05:00.441089)  can0  537   [8]  51 16 16 74 FB 5E B8 34
 (2025-08-07 21:05:00.441888)  can0  043   [4]  00 71 C7 00
 (2025-08-07 21:05:00.441965)  can0  098   [1]  01
 (2025-08-07 21:05:00.450911)  can0  02F   [2]  5B 03
 (2025-08-07 21:05:00.451834)  can0  043   [4]  00 71 C7 00
 (2025-08-07 21:05:00.451914)  can0  098   [1]  01
 (2025-08-07 21:05:00.452267)  can0  5BC   [8]  ED 9A 56 80 C9 C6 A6 04
 (2025-08-07 21:05:00.461783)  can0  043   [4]  00 71 C7 00
 (2025-08-07 21:05:00.461856)  can0  098   [1]  01
 (2025-08-07 21:05:00.463572)  can0  573   [8]  DC C4 CC CA 68 81 A8 68
 (2025-08-07 21:05:00.465949)  can0  02F   [2]  5B 03
 (2025-08-07 21:05:00.471773)  can0  043   [4]  00 71 C7 00
 (2025-08-07 21:05:00.471877)  can0  098   [1]  01
 (2025-08-07 21:05:00.474760)  can0  5A4   [8]  62 25 95 98 2E FF 13 23
 (2025-08-07 21:05:00.480898)  can0  02F   [2]  65 03
 (2025-08-07 21:05:00.481686)  can0  043   [4]  00 71 C7 00
 (2025-08-07 21:05:00.481805)  can0  098   [1]  01
 (2025-08-07 21:05:00.486040)  can0  5AE   [8]  F6 23 D3 A4 36 12 E8 FC
 (2025-08-07 21:05:00.491771)  can0  043   [4]  00 71 C7 00
 (2025-08-07 21:05:00.491851)  can0  098   [1]  01
 (2025-08-07 21:05:00.495935)  can0  02F   [2]  65 03
 (2025-08-07 21:05:00.497336)  can0  5ED   [8]  F5 7C 55 2F 9F 34 C5 E2
 (2025-08-07 21:05:00.501747)  can0  043   [4]  00 71 C7 00
 (2025-08-07 21:05:00.501826)  can0  098   [1]  01
 (2025-08-07 21:05:00.508500)  can0  535   [8]  DA 4C 42 EE 77 34 E8 7C
 (2025-08-07 21:05:00.510906)  can0  02F   [2]  65 03
 (2025-08-07 21:05:00.511653)  can0  043   [4]  00 71 C7 00
 (2025-08-07 21:05:00.511726)  can0  098   [1]  01
 (2025-08-07 21:05:00.519783)  can0  50F   [8]  F1 F2 AA 67 EE CB F1 6B
 (2025-08-07 21:05:00.521766)  can0  043   [4]  00 71 C7 00
 (2025-08-07 21:05:00.521846)  can0  098   [1]  01
 (2025-08-07 21:05:00.525952)  can0  02F   [2]  6F 03
 (2025-08-07 21:05:00.531617)  can0  51B   [8]  FC 34 CC C9 09 96 E1 05
 (2025-08-07 21:05:00.531792)  can0  043   [4]  00 71 C7 00
 (2025-08-07 21:05:00.531913)  can0  098   [1]  01
 (2025-08-07 21:05:00.540886)  can0  02F   [2]  6F 03
 (2025-08-07 21:05:00.541660)  can0  043   [4]  00 71 C7 00
 (2025-08-07 21:05:00.541740)  can0  098   [1]  01
 (2025-08-07 21:05:00.542148)  can0  561   [8]  4B 05 4D 5C CF ED 97 06
 (2025-08-07 21:05:00.551810)  can0  043   [4]  00 71 C7 00
 (2025-08-07 21:05:00.551888)  can0  098   [1]  01
 (2025-08-07 21:05:00.553417)  can0  563   [8]  19 82 B3 E1 87 94 51 7C
 (2025-08-07 21:05:00.555909)  can0  02F   [2]  6F 03
 (2025-08-07 21:05:00.561727)  can0  043   [4]  00 71 C7 00
 (2025-08-07 21:05:00.561831)  can0  098   [1]  01
 (2025-08-07 21:05:00.564563)  can0  595   [8]  EB BD 1C 5B 1F C9 05 22
 (2025-08-07 21:05:00.570981)  can0  02F   [2]  7A 03
 (2025-08-07 21:05:00.571760)  can0  043   [4]  00 71 C7 00
 (2025-08-07 21:05:00.571866)  can0  098   [1]  01
 (2025-08-07 21:05:00.576377)  can0  5DF   [8]  9C D0 A7 30 0D BE 21 6B
 (2025-08-07 21:05:00.581792)  can0  043   [4]  00 71 C7 00
 (2025-08-07 21:05:00.581866)  can0  098   [1]  01
 (2025-08-07 21:05:00.585884)  can0  02F   [2]  7A 03
 (2025-08-07 21:05:00.586873)  can0  547   [8]  4B DC BD 77 A0 E6 BA 73
 (2025-08-07 21:05:00.591774)  can0  043   [4]  00 71 C7 00
 (2025-08-07 21:05:00.591850)  can0  098   [1]  01
 (2025-08-07 21:05:00.598727)  can0  58A   [8]  53 C0 AB B4 64 54 49 A3
 (2025-08-07 21:05:00.600886)  can0  02F   [2]  7A 03
 (2025-08-07 21:05:00.601719)  can0  043   [4]  00 71 C7 00
 (2025-08-07 21:05:00.601825)  can0  098   [1]  01
 (2025-08-07 21:05:00.609215)  can0  562   [8]  62 38 E7 A9 06 80 6A 63
 (2025-08-07 21:05:00.611804)  can0  043   [4]  00 71 C7 00
 (2025-08-07 21:05:00.611885)  can0  098   [1]  01
 (2025-08-07 21:05:00.615772)  can0  02F   [2]  84 03
 (2025-08-07 21:05:00.620945)  can0  57E   [8]  6B B1 D7 2A 70 E1 6D AC
 (2025-08-07 21:05:00.621739)  can0  043   [4]  00 71 C7 00
 (2025-08-07 21:05:00.621813)  can0  098   [1]  01
 (2025-08-07 21:05:00.630812)  can0  02F   [2]  84 03
 (2025-08-07 21:05:00.631496)  can0  5D9   [8]  09 05 DC 40 F9 77 20 A9
 (2025-08-07 21:05:00.631949)  can0  043   [4]  00 71 C7 00
 (2025-08-07 21:05:00.632033)  can0  098   [1]  01
 (2025-08-07 21:05:00.641785)  can0  043   [4]  00 71 C7 00
 (2025-08-07 21:05:00.641854)  can0  098   [1]  01
 (2025-08-07 21:05:00.642848)  can0  530   [8]  0D 2E 30 09 4E 70 E5 BA
 (2025-08-07 21:05:00.645852)  can0  02F   [2]  84 03
 (2025-08-07 21:05:00.651782)  can0  043   [4]  00 71 C7 00
 (2025-08-07 21:05:00.651872)  can0  098   [1]  01
 (2025-08-07 21:05:00.654121)  can0  57F   [8]  1A C6 D7 5B 14 C8 FB 8C
 (2025-08-07 21:05:00.661724)  can0  043   [4]  00 71 C7 00
 (2025-08-07 21:05:00.661804)  can0  098   [1]  01
 (2025-08-07 21:05:00.664265)  can0  02F   [2]  8E 03
 (2025-08-07 21:05:00.665334)  can0  580   [8]  BC DE 41 91 FD 04 35 F8
 (2025-08-07 21:05:00.671765)  can0  043   [4]  00 71 C7 00
 (2025-08-07 21:05:00.671839)  can0  098   [1]  01
 (2025-08-07 21:05:00.676326)  can0  02F   [2]  8E 03
 (2025-08-07 21:05:00.676551)  can0  5E1   [8]  39 C6 D8 46 1E 6C AD 3C
 (2025-08-07 21:05:00.681783)  can0  043   [4]  00 71 C7 00
 (2025-08-07 21:05:00.681867)  can0  098   [1]  01
 (2025-08-07 21:05:00.687771)  can0  57F   [8]  23 63 F5 04 93 53 8B 4A
 (2025-08-07 21:05:00.691467)  can0  02F   [2]  8E 03
 (2025-08-07 21:05:00.691626)  can0  043   [4]  00 71 C7 00
 (2025-08-07 21:05:00.691741)  can0  098   [1]  01
 (2025-08-07 21:05:00.699585)  can0  55A   [8]  7F C4 7E 65 3F 5F EA 9D
 (2025-08-07 21:05:00.701713)  can0  043   [4]  00 71 C7 00
 (2025-08-07 21:05:00.701790)  can0  098   [1]  01
 (2025-08-07 21:05:00.705893)  can0  02F   [2]  98 03
 (2025-08-07 21:05:00.710061)  can0  593   [8]  8E C1 93 A9 7C 0F 45 58
 (2025-08-07 21:05:00.711784)  can0  043   [4]  00 71 C7 00
 (2025-08-07 21:05:00.711863)  can0  098   [1]  01
 (2025-08-07 21:05:00.720944)  can0  02F   [2]  98 03
 (2025-08-07 21:05:00.721316)  can0  527   [8]  A5 D0 E4 B5 B1 73 5E 9D
 (2025-08-07 21:05:00.721763)  can0  043   [4]  00 71 C7 00
 (2025-08-07 21:05:00.721845)  can0  098   [1]  01
 (2025-08-07 21:05:00.731476)  can0  043   [4]  00 71 C7 00
 (2025-08-07 21:05:00.731548)  can0  098   [1]  01
 (2025-08-07 21:05:00.732634)  can0  5B6   [8]  4C A2 FE E3 A4 01 CC 14
 (2025-08-07 21:05:00.737708)  can0  02F   [2]  98 03
 (2025-08-07 21:05:00.742093)  can0  043   [4]  00 71 C7 00
 (2025-08-07 21:05:00.742163)  can0  098   [1]  01
 (2025-08-07 21:05:00.744448)  can0  551   [8]  CF DA EE 7E 52 BF DE 27
 (2025-08-07 21:05:00.751429)  can0  043   [4]  00 71 C7 00
 (2025-08-07 21:05:00.751553)  can0  098   [1]  01
 (2025-08-07 21:05:00.752591)  can0  02F   [2]  A2 03
 (2025-08-07 21:05:00.754912)  can0  57E   [8]  89 17 55 B9 56 96 4A 19
 (2025-08-07 21:05:00.761840)  can0  043   [4]  00 71 C7 00
 (2025-08-07 21:05:00.761925)  can0  098   [1]  01
 (2025-08-07 21:05:00.766136)  can0  5FE   [8]  3D 67 A6 9A 59 DB EA 3F
 (2025-08-07 21:05:00.768008)  can0  02F   [2]  A2 03
 (2025-08-07 21:05:00.771851)  can0  043   [4]  00 71 C7 00
 (2025-08-07 21:05:00.771955)  can0  098   [1]  01
 (2025-08-07 21:05:00.777287)  can0  5B5   [8]  61 9E 50 74 55 9C 14 6D
 (2025-08-07 21:05:00.781745)  can0  043   [4]  00 71 C7 00
 (2025-08-07 21:05:00.781825)  can0  098   [1]  01
 (2025-08-07 21:05:00.783190)  can0  02F   [2]  A2 03
 (2025-08-07 21:05:00.788441)  can0  5BB   [8]  F0 BA CB A3 60 2A B9 73
 (2025-08-07 21:05:00.791728)  can0  043   [4]  00 71 C7 00
 (2025-08-07 21:05:00.791815)  can0  098   [1]  01
 (2025-08-07 21:05:00.798232)  can0  02F   [2]  AD 03
 (2025-08-07 21:05:00.799695)  can0  5A0   [8]  F4 1D 06 06 C8 1B FD 76
 (2025-08-07 21:05:00.801754)  can0  043   [4]  00 71 C7 00
 (2025-08-07 21:05:00.801840)  can0  098   [1]  01
 (2025-08-07 21:05:00.811501)  can0  5A4   [8]  FA 2F 57 40 D5 1C A6 C8
 (2025-08-07 21:05:00.811959)  can0  043   [4]  00 71 C7 00
 (2025-08-07 21:05:00.812039)  can0  098   [1]  01
 (2025-08-07 21:05:00.813208)  can0  02F   [2]  AD 03
 (2025-08-07 21:05:00.821771)  can0  043   [4]  00 71 C7 00
 (2025-08-07 21:05:00.821851)  can0  098   [1]  01
 (2025-08-07 21:05:00.822589)  can0  5AC   [8]  73 49 23 C3 28 AC 9B F2
 (2025-08-07 21:05:00.827973)  can0  02F   [2]  AD 03
 (2025-08-07 21:05:00.831786)  can0  043   [4]  00 71 C7 00
 (2025-08-07 21:05:00.831902)  can0  098   [1]  01
 (2025-08-07 21:05:00.833108)  can0  554   [8]  2B E3 27 37 34 D0 BC D1
 (2025-08-07 21:05:00.841762)  can0  043   [4]  00 71 C7 00
 (2025-08-07 21:05:00.841840)  can0  098   [1]  01
 (2025-08-07 21:05:00.843025)  can0  02F   [2]  B7 03
 (2025-08-07 21:05:00.844289)  can0  592   [8]  72 CA 9E 4D AD E4 89 EC
 (2025-08-07 21:05:00.851790)  can0  043   [4]  00 71 C7 00
 (2025-08-07 21:05:00.851865)  can0  098   [1]  01
 (2025-08-07 21:05:00.855530)  can0  599   [8]  50 D1 EB A6 93 2D 2E E0
 (2025-08-07 21:05:00.858030)  can0  02F   [2]  B7 03
 (2025-08-07 21:05:00.861712)  can0  043   [4]  00 71 C7 00
 (2025-08-07 21:05:00.861787)  can0  098   [1]  01
 (2025-08-07 21:05:00.867430)  can0  5D0   [8]  47 F4 87 F3 54 A8 2E 92
 (2025-08-07 21:05:00.871737)  can0  043   [4]  00 71 C7 00
 (2025-08-07 21:05:00.871829)  can0  098   [1]  01
 (2025-08-07 21:05:00.872875)  can0  02F   [2]  B7 03
 (2025-08-07 21:05:00.877895)  can0  5FA   [8]  20 EA 39 9B F9 B9 69 40
 (2025-08-07 21:05:00.881950)  can0  043   [4]  00 71 C7 00
 (2025-08-07 21:05:00.882022)  can0  098   [1]  01
 (2025-08-07 21:05:00.888820)  can0  02F   [2]  C1 03
 (2025-08-07 21:05:00.889036)  can0  5F9   [8]  54 AB 53 71 0D C5 AF 2E
 (2025-08-07 21:05:00.891384)  can0  043   [4]  00 71 C7 00
 (2025-08-07 21:05:00.891463)  can0  098   [1]  01
 (2025-08-07 21:05:00.900812)  can0  575   [8]  4E 9E 47 68 83 5A FE 3E
 (2025-08-07 21:05:00.901479)  can0  043   [4]  00 71 C7 00
 (2025-08-07 21:05:00.901566)  can0  098   [1]  01
 (2025-08-07 21:05:00.903981)  can0  02F   [2]  C1 03
 (2025-08-07 21:05:00.911345)  can0  51F   [8]  D9 CF FB AF 0A 52 74 E1
 (2025-08-07 21:05:00.912521)  can0  043   [4]  00 71 C7 00
 (2025-08-07 21:05:00.912600)  can0  098   [1]  01
 (2025-08-07 21:05:00.920887)  can0  02F   [2]  CB 03
 (2025-08-07 21:05:00.922566)  can0  56F   [8]  CD 0F ED AD 53 F2 B6 38
 (2025-08-07 21:05:00.922732)  can0  043   [4]  00 71 C7 00
 (2025-08-07 21:05:00.922856)  can0  098   [1]  01
 (2025-08-07 21:05:00.932581)  can0  043   [4]  00 71 C7 00
 (2025-08-07 21:05:00.932655)  can0  098   [1]  01
 (2025-08-07 21:05:00.934525)  can0  5D8   [8]  35 DC 7F 37 29 1B 56 9E
 (2025-08-07 21:05:00.935001)  can0  02F   [2]  CB 03
 (2025-08-07 21:05:00.942408)  can0  043   [4]  00 71 C7 00
 (2025-08-07 21:05:00.942480)  can0  098   [1]  01
 (2025-08-07 21:05:00.945031)  can0  58E   [8]  93 73 9F 0C 3C 83 B0 D1
 (2025-08-07 21:05:00.949773)  can0  02F   [2]  CB 03
 (2025-08-07 21:05:00.952421)  can0  043   [4]  00 71 C7 00
 (2025-08-07 21:05:00.952524)  can0  098   [1]  01
 (2025-08-07 21:05:00.956214)  can0  5D0   [8]  CC C9 EA EE 66 B9 82 32
 (2025-08-07 21:05:00.962492)  can0  043   [4]  00 71 C7 00
 (2025-08-07 21:05:00.962566)  can0  098   [1]  01
 (2025-08-07 21:05:00.964745)  can0  02F   [2]  D6 03
 (2025-08-07 21:05:00.967470)  can0  5BE   [8]  E2 4C 97 7C 4D 2C 90 7C
 (2025-08-07 21:05:00.972797)  can0  043   [4]  00 71 C7 00
 (2025-08-07 21:05:00.972878)  can0  098   [1]  01
 (2025-08-07 21:05:00.978689)  can0  534   [8]  AE 1D 36 97 5C 1D E4 A6
 (2025-08-07 21:05:00.980366)  can0  02F   [2]  D6 03
 (2025-08-07 21:05:00.982783)  can0  043   [4]  00 71 C7 00
 (2025-08-07 21:05:00.982891)  can0  098   [1]  01
 (2025-08-07 21:05:00.989927)  can0  537   [8]  F1 A3 57 D0 C7 C5 FE CF
 (2025-08-07 21:05:00.992800)  can0  043   [4]  00 71 C7 00
 (2025-08-07 21:05:00.992877)  can0  098   [1]  01
 (2025-08-07 21:05:00.995170)  can0  02F   [2]  D6 03
 (2025-08-07 21:05:01.001652)  can0  571   [8]  FE 8A EF 46 45 EA B9 87
 (2025-08-07 21:05:01.003090)  can0  043   [4]  00 71 C7 00
 (2025-08-07 21:05:01.003173)  can0  098   [1]  01
 (2025-08-07 21:05:01.010507)  can0  02F   [2]  E0 03
 (2025-08-07 21:05:01.012135)  can0  584   [8]  2F 20 41 68 9E 72 4F 5C
 (2025-08-07 21:05:01.012919)  can0  043   [4]  00 71 C7 00
 (2025-08-07 21:05:01.012997)  can0  098   [1]  01
 (2025-08-07 21:05:01.022852)  can0  043   [4]  00 71 C7 00
 (2025-08-07 21:05:01.022979)  can0  098   [1]  01
 (2025-08-07 21:05:01.023338)  can0  5F2   [8]  A7 91 A2 A9 27 9A B4 3D
 (2025-08-07 21:05:01.025489)  can0  02F   [2]  E0 03
 (2025-08-07 21:05:01.032772)  can0  043   [4]  00 71 C7 00
 (2025-08-07 21:05:01.032844)  can0  098   [1]  01
 (2025-08-07 21:05:01.035189)  can0  532   [8]  C3 56 70 74 28 D5 95 5E
 (2025-08-07 21:05:01.040370)  can0  02F   [2]  E0 03
 (2025-08-07 21:05:01.042814)  can0  043   [4]  00 71 C7 00
 (2025-08-07 21:05:01.042883)  can0  098   [1]  01
 (2025-08-07 21:05:01.046220)  can0  5C3   [8]  9D E9 0D 65 24 E9 7B 5D
 (2025-08-07 21:05:01.052825)  can0  043   [4]  00 71 C7 00
 (2025-08-07 21:05:01.052898)  can0  098   [1]  01
 (2025-08-07 21:05:01.055273)  can0  02F   [2]  EA 03
 (2025-08-07 21:05:01.056684)  can0  533   [8]  9C 55 C0 4C DD F1 1B 4B
 (2025-08-07 21:05:01.063077)  can0  043   [4]  00 71 C7 00
 (2025-08-07 21:05:01.063182)  can0  098   [1]  01
 (2025-08-07 21:05:01.067844)  can0  514   [8]  B0 85 CC 81 9B 74 A2 73
 (2025-08-07 21:05:01.071463)  can0  02F   [2]  EA 03
 (2025-08-07 21:05:01.072894)  can0  043   [4]  00 71 C7 00
 (2025-08-07 21:05:01.073003)  can0  098   [1]  01
 (2025-08-07 21:05:01.079636)  can0  51F   [8]  08 59 B9 40 C4 4B B7 10
 (2025-08-07 21:05:01.082816)  can0  043   [4]  00 71 C7 00
 (2025-08-07 21:05:01.082896)  can0  098   [1]  01
 (2025-08-07 21:05:01.086308)  can0  02F   [2]  F4 03
 (2025-08-07 21:05:01.090099)  can0  59C   [8]  C6 40 8C 62 FC 35 AD 8E
 (2025-08-07 21:05:01.092816)  can0  043   [4]  00 71 C7 00
 (2025-08-07 21:05:01.092894)  can0  098   [1]  01
 (2025-08-07 21:05:01.100275)  can0  02F   [2]  F4 03
 (2025-08-07 21:05:01.101960)  can0  568   [8]  F7 4A 74 A3 3C F8 6A C4
 (2025-08-07 21:05:01.102971)  can0  043   [4]  00 71 C7 00
 (2025-08-07 21:05:01.103032)  can0  098   [1]  01
 (2025-08-07 21:05:01.112362)  can0  51A   [8]  47 D5 29 BC 22 E3 03 09
 (2025-08-07 21:05:01.112896)  can0  043   [4]  00 71 C7 00
 (2025-08-07 21:05:01.112977)  can0  098   [1]  01
 (2025-08-07 21:05:01.118007)  can0  02F   [2]  F4 03
 (2025-08-07 21:05:01.122750)  can0  043   [4]  00 71 C7 00
 (2025-08-07 21:05:01.122860)  can0  098   [1]  01
 (2025-08-07 21:05:01.124267)  can0  5C2   [8]  21 82 C4 BA 36 DC 1F 46
 (2025-08-07 21:05:01.129916)  can0  02F   [2]  FE 03
 (2025-08-07 21:05:01.130030)  can0  02F   [2]  FE 03
 (2025-08-07 21:05:01.132749)  can0  043   [4]  00 71 C7 00
 (2025-08-07 21:05:01.132854)  can0  098   [1]  01
 (2025-08-07 21:05:01.135380)  can0  5AA   [8]  20 EF 67 34 31 FC 4E 09
 (2025-08-07 21:05:01.142746)  can0  043   [4]  00 71 C7 00
 (2025-08-07 21:05:01.142819)  can0  098   [1]  01
 (2025-08-07 21:05:01.145120)  can0  02F   [2]  FE 03
 (2025-08-07 21:05:01.146515)  can0  55F   [8]  AC 63 F9 1F 60 87 68 D4
 (2025-08-07 21:05:01.152747)  can0  043   [4]  00 71 C7 00
 (2025-08-07 21:05:01.152819)  can0  098   [1]  01
 (2025-08-07 21:05:01.157017)  can0  5BA   [8]  C7 61 63 E3 91 F9 A3 8B
 (2025-08-07 21:05:01.160021)  can0  02F   [2]  FE 03
 (2025-08-07 21:05:01.162773)  can0  043   [4]  00 71 C7 00
 (2025-08-07 21:05:01.162864)  can0  098   [1]  01
 (2025-08-07 21:05:01.168238)  can0  5DD   [8]  44 CA A3 3D 90 ED 9D 00
 (2025-08-07 21:05:01.172760)  can0  043   [4]  00 71 C7 00
 (2025-08-07 21:05:01.172834)  can0  098   [1]  01
 (2025-08-07 21:05:01.174875)  can0  02F   [2]  0A 00
 (2025-08-07 21:05:01.180026)  can0  59E   [8]  FA 93 3E CA B8 58 D7 7D
 (2025-08-07 21:05:01.182748)  can0  043   [4]  00 71 C7 00
 (2025-08-07 21:05:01.182841)  can0  098   [1]  01
 (2025-08-07 21:05:01.189857)  can0  02F   [2]  0A 00
 (2025-08-07 21:05:01.191166)  can0  5B5   [8]  D9 E4 7F F9 63 A1 B6 49
 (2025-08-07 21:05:01.192685)  can0  043   [4]  00 71 C7 00
 (2025-08-07 21:05:01.192805)  can0  098   [1]  01
 (2025-08-07 21:05:01.202226)  can0  508   [8]  0A 0A 6A 9E 17 2A 9C A7
 (2025-08-07 21:05:01.202695)  can0  043   [4]  00 71 C7 00
 (2025-08-07 21:05:01.202808)  can0  098   [1]  01
 (2025-08-07 21:05:01.204843)  can0  02F   [2]  0A 00
 (2025-08-07 21:05:01.212710)  can0  506   [8]  17 96 45 85 3E 3D 1A D4
 (2025-08-07 21:05:01.212880)  can0  043   [4]  00 71 C7 00
 (2025-08-07 21:05:01.213000)  can0  098   [1]  01
 (2025-08-07 21:05:01.219866)  can0  02F   [2]  14 00
 (2025-08-07 21:05:01.222713)  can0  043   [4]  00 71 C7 00
 (2025-08-07 21:05:01.222815)  can0  098   [1]  00
 (2025-08-07 21:05:01.223975)  can0  506   [8]  2D A9 27 F0 24 18 40 0B
 (2025-08-07 21:05:01.232728)  can0  043   [4]  00 71 C7 00
 (2025-08-07 21:05:01.232807)  can0  098   [1]  00
 (2025-08-07 21:05:01.234913)  can0  02F   [2]  14 00
 (2025-08-07 21:05:01.235127)  can0  505   [8]  8C A2 27 1A EC 16 D6 84
 (2025-08-07 21:05:01.242766)  can0  043   [4]  00 71 C7 00
 (2025-08-07 21:05:01.242841)  can0  098   [1]  00
 (2025-08-07 21:05:01.247014)  can0  596   [8]  EC 16 8F 4A 59 AE 14 2D
 (2025-08-07 21:05:01.249850)  can0  02F   [2]  14 00
 (2025-08-07 21:05:01.252738)  can0  043   [4]  00 71 C7 00
 (2025-08-07 21:05:01.252844)  can0  098   [1]  00
 (2025-08-07 21:05:01.258053)  can0  5C3   [8]  E5 CA E3 10 9D 27 E5 09
 (2025-08-07 21:05:01.262699)  can0  043   [4]  00 71 C7 00
 (2025-08-07 21:05:01.262774)  can0  098   [1]  00
 (2025-08-07 21:05:01.264978)  can0  02F   [2]  1E 00
 (2025-08-07 21:05:01.269121)  can0  5A5   [8]  A3 C4 5E 19 A7 3B 5A EA
 (2025-08-07 21:05:01.272675)  can0  043   [4]  00 71 C7 00
 (2025-08-07 21:05:01.272748)  can0  098   [1]  00
 (2025-08-07 21:05:01.279669)  can0  5D7   [8]  5A C9 DA B0 9E 62 57 68
 (2025-08-07 21:05:01.280370)  can0  02F   [2]  1E 00
 (2025-08-07 21:05:01.282740)  can0  043   [4]  00 71 C7 00
 (2025-08-07 21:05:01.282847)  can0  098   [1]  00
 (2025-08-07 21:05:01.290863)  can0  56B   [8]  99 DC F1 1B 4F 08 65 D5
 (2025-08-07 21:05:01.292768)  can0  043   [4]  00 71 C7 00
 (2025-08-07 21:05:01.292847)  can0  098   [1]  00
 (2025-08-07 21:05:01.295253)  can0  02F   [2]  1E 00
 (2025-08-07 21:05:01.302102)  can0  58B   [8]  42 F5 CE 8D B1 4E BC A4
 (2025-08-07 21:05:01.302671)  can0  043   [4]  00 71 C7 00
 (2025-08-07 21:05:01.302746)  can0  098   [1]  00
 (2025-08-07 21:05:01.309964)  can0  02F   [2]  28 00
 (2025-08-07 21:05:01.313140)  can0  043   [4]  00 71 C7 00
 (2025-08-07 21:05:01.313222)  can0  098   [1]  00
 (2025-08-07 21:05:01.313461)  can0  5EB   [8]  3C 86 39 7A F8 AC 25 39
 (2025-08-07 21:05:01.323191)  can0  043   [4]  00 71 C7 00
 (2025-08-07 21:05:01.323268)  can0  098   [1]  00
 (2025-08-07 21:05:01.324503)  can0  52F   [8]  79 53 53 9D 9E E7 A8 7B
 (2025-08-07 21:05:01.326171)  can0  02F   [2]  28 00
 (2025-08-07 21:05:01.333125)  can0  043   [4]  00 71 C7 00
 (2025-08-07 21:05:01.333228)  can0  098   [1]  00
 (2025-08-07 21:05:01.335757)  can0  5E2   [8]  D6 EA 9B B7 47 D7 36 B2
 (2025-08-07 21:05:01.340701)  can0  02F   [2]  28 00
 (2025-08-07 21:05:01.343160)  can0  043   [4]  00 71 C7 00
 (2025-08-07 21:05:01.343227)  can0  098   [1]  00
 (2025-08-07 21:05:01.347644)  can0  54C   [8]  0A DF A1 18 0E 41 52 3B
 (2025-08-07 21:05:01.353170)  can0  043   [4]  00 71 C7 00
 (2025-08-07 21:05:01.353242)  can0  098   [1]  00
 (2025-08-07 21:05:01.355476)  can0  02F   [2]  33 00
 (2025-08-07 21:05:01.358662)  can0  5D6   [8]  7F C3 2F F4 6B DD F6 02
 (2025-08-07 21:05:01.362650)  can0  043   [4]  00 71 C7 00
 (2025-08-07 21:05:01.362756)  can0  098   [1]  00
 (2025-08-07 21:05:01.369682)  can0  589   [8]  C3 F2 64 EA 66 C1 8D CD
 (2025-08-07 21:05:01.370994)  can0  02F   [2]  33 00
 (2025-08-07 21:05:01.372611)  can0  043   [4]  00 71 C7 00
 (2025-08-07 21:05:01.372715)  can0  098   [1]  00
 (2025-08-07 21:05:01.380718)  can0  5E8   [8]  FF 7A BD 9A F3 26 02 1B
 (2025-08-07 21:05:01.382549)  can0  043   [4]  00 71 C7 00
 (2025-08-07 21:05:01.382643)  can0  098   [1]  00
 (2025-08-07 21:05:01.388335)  can0  02F   [2]  3D 00
 (2025-08-07 21:05:01.391207)  can0  570   [8]  95 E3 54 54 8E 2F 3D 56
 (2025-08-07 21:05:01.392719)  can0  043   [4]  00 71 C7 00
 (2025-08-07 21:05:01.392797)  can0  098   [1]  00
 (2025-08-07 21:05:01.402421)  can0  556   [8]  CC F5 7E 1F 9A 5F 3D 58
 (2025-08-07 21:05:01.402576)  can0  02F   [2]  3D 00
 (2025-08-07 21:05:01.403119)  can0  043   [4]  00 71 C7 00
 (2025-08-07 21:05:01.403196)  can0  098   [1]  00
 (2025-08-07 21:05:01.413185)  can0  043   [4]  00 71 C7 00
 (2025-08-07 21:05:01.413268)  can0  098   [1]  00
 (2025-08-07 21:05:01.413650)  can0  596   [8]  A7 3D CB F5 73 16 E3 2F
 (2025-08-07 21:05:01.417232)  can0  02F   [2]  3D 00
 (2025-08-07 21:05:01.422230)  can0  043   [4]  00 71 C7 00
 (2025-08-07 21:05:01.422315)  can0  098   [1]  00
 (2025-08-07 21:05:01.425481)  can0  51C   [8]  5C AD 90 BB B5 0B F8 BE
 (2025-08-07 21:05:01.432379)  can0  043   [4]  00 71 C7 00
 (2025-08-07 21:05:01.432468)  can0  098   [1]  00
 (2025-08-07 21:05:01.432703)  can0  02F   [2]  47 00
 (2025-08-07 21:05:01.435920)  can0  592   [8]  74 92 9E 44 80 42 83 45
 (2025-08-07 21:05:01.442266)  can0  043   [4]  00 71 C7 00
 (2025-08-07 21:05:01.442355)  can0  098   [1]  00
 (2025-08-07 21:05:01.447597)  can0  02F   [2]  47 00
 (2025-08-07 21:05:01.447802)  can0  5F8   [8]  0F 03 53 A5 3B 82 C4 6D
 (2025-08-07 21:05:01.452239)  can0  043   [4]  00 71 C7 00
 (2025-08-07 21:05:01.452322)  can0  098   [1]  00
 (2025-08-07 21:05:01.458237)  can0  500   [8]  CA 70 AF D3 39 16 3C 98
 (2025-08-07 21:05:01.462661)  can0  043   [4]  00 71 C7 00
 (2025-08-07 21:05:01.462747)  can0  098   [1]  00
 (2025-08-07 21:05:01.463871)  can0  02F   [2]  47 00
 (2025-08-07 21:05:01.469953)  can0  586   [8]  7F DB D1 D0 58 97 23 EB
 (2025-08-07 21:05:01.472240)  can0  043   [4]  00 71 C7 00
 (2025-08-07 21:05:01.472328)  can0  098   [1]  00
 (2025-08-07 21:05:01.477597)  can0  02F   [2]  51 00
 (2025-08-07 21:05:01.480457)  can0  515   [8]  54 92 80 A6 E2 FF 0D B8
 (2025-08-07 21:05:01.482301)  can0  043   [4]  00 71 C7 00
 (2025-08-07 21:05:01.482391)  can0  098   [1]  00
 (2025-08-07 21:05:01.491634)  can0  5E5   [8]  7C A9 16 97 AD 78 47 EF
 (2025-08-07 21:05:01.492331)  can0  043   [4]  00 71 C7 00
 (2025-08-07 21:05:01.492433)  can0  098   [1]  00
 (2025-08-07 21:05:01.493311)  can0  02F   [2]  51 00
 (2025-08-07 21:05:01.502237)  can0  043   [4]  00 71 C7 00
 (2025-08-07 21:05:01.502312)  can0  098   [1]  00
 (2025-08-07 21:05:01.502830)  can0  51B   [8]  78 AB A3 AC 4F 72 7D EA
 (2025-08-07 21:05:01.507790)  can0  02F   [2]  51 00
 (2025-08-07 21:05:01.512229)  can0  043   [4]  00 71 C7 00
 (2025-08-07 21:05:01.512335)  can0  098   [1]  00
 (2025-08-07 21:05:01.514166)  can0  5D8   [8]  34 9F CC 9F 92 2C F2 27
 (2025-08-07 21:05:01.522444)  can0  043   [4]  00 71 C7 00
 (2025-08-07 21:05:01.522566)  can0  02F   [2]  5C 00
 (2025-08-07 21:05:01.522671)  can0  098   [1]  00
 (2025-08-07 21:05:01.525335)  can0  570   [8]  BE CA 09 FD 97 B6 04 BA
 (2025-08-07 21:05:01.532358)  can0  043   [4]  00 71 C7 00
 (2025-08-07 21:05:01.532435)  can0  098   [1]  00
 (2025-08-07 21:05:01.536690)  can0  531   [8]  A6 95 F9 E9 88 C1 BC 5A
 (2025-08-07 21:05:01.540916)  can0  02F   [2]  5C 00
 (2025-08-07 21:05:01.542256)  can0  043   [4]  00 71 C7 00
 (2025-08-07 21:05:01.542368)  can0  098   [1]  00
 (2025-08-07 21:05:01.548464)  can0  55B   [8]  BE 37 3C 17 03 62 B3 3B
 (2025-08-07 21:05:01.552544)  can0  02F   [2]  66 00
 (2025-08-07 21:05:01.552769)  can0  043   [4]  00 71 C7 00
 (2025-08-07 21:05:01.552891)  can0  098   [1]  00
 (2025-08-07 21:05:01.559578)  can0  58E   [8]  6B 1F BA 1B 58 DA 54 0F
 (2025-08-07 21:05:01.562545)  can0  043   [4]  00 71 C7 00
 (2025-08-07 21:05:01.562618)  can0  098   [1]  00
 (2025-08-07 21:05:01.567445)  can0  02F   [2]  66 00
 (2025-08-07 21:05:01.570625)  can0  5ED   [8]  32 BA 09 D3 08 4F EE 54
 (2025-08-07 21:05:01.572947)  can0  043   [4]  00 71 C7 00
 (2025-08-07 21:05:01.573020)  can0  098   [1]  00
 (2025-08-07 21:05:01.581668)  can0  56C   [8]  89 FD 06 F3 83 7E F3 E7
 (2025-08-07 21:05:01.582695)  can0  043   [4]  00 71 C7 00
 (2025-08-07 21:05:01.582801)  can0  098   [1]  00
 (2025-08-07 21:05:01.583713)  can0  02F   [2]  66 00
 (2025-08-07 21:05:01.592127)  can0  561   [8]  2E 7D 74 AA C8 4B E7 A9
 (2025-08-07 21:05:01.592600)  can0  043   [4]  00 71 C7 00
 (2025-08-07 21:05:01.592678)  can0  098   [1]  00
 (2025-08-07 21:05:01.599708)  can0  02F   [2]  70 00
 (2025-08-07 21:05:01.602574)  can0  043   [4]  00 71 C7 00
 (2025-08-07 21:05:01.602682)  can0  098   [1]  00
 (2025-08-07 21:05:01.603412)  can0  52B   [8]  3A 0B C3 73 A1 A5 6C AB
 (2025-08-07 21:05:01.612566)  can0  043   [4]  00 71 C7 00
 (2025-08-07 21:05:01.612643)  can0  098   [1]  00
 (2025-08-07 21:05:01.615276)  can0  57C   [8]  0C 28 B1 0D 17 FD 51 54
 (2025-08-07 21:05:01.615633)  can0  02F   [2]  70 00
 (2025-08-07 21:05:01.622451)  can0  043   [4]  00 71 C7 00
 (2025-08-07 21:05:01.622528)  can0  098   [1]  00
 (2025-08-07 21:05:01.625700)  can0  507   [8]  70 5F C8 F0 C1 E1 ED 64
 (2025-08-07 21:05:01.631860)  can0  02F   [2]  70 00
 (2025-08-07 21:05:01.632413)  can0  043   [4]  00 71 C7 00
 (2025-08-07 21:05:01.632515)  can0  098   [1]  00
 (2025-08-07 21:05:01.636867)  can0  5B2   [8]  AF BB 91 7F 91 D3 65 8D
 (2025-08-07 21:05:01.642481)  can0  043   [4]  00 71 C7 00
 (2025-08-07 21:05:01.642557)  can0  098   [1]  00
 (2025-08-07 21:05:01.647716)  can0  02F   [2]  7A 00
 (2025-08-07 21:05:01.648181)  can0  536   [8]  F3 E0 50 DE 45 34 D3 8E
 (2025-08-07 21:05:01.652595)  can0  043   [4]  00 71 C7 00
 (2025-08-07 21:05:01.652685)  can0  098   [1]  00
 (2025-08-07 21:05:01.659559)  can0  5CA   [8]  57 B1 6F 16 83 7B F1 DB
 (2025-08-07 21:05:01.662624)  can0  043   [4]  00 71 C7 00
 (2025-08-07 21:05:01.662717)  can0  098   [1]  00
 (2025-08-07 21:05:01.663767)  can0  02F   [2]  7A 00
 (2025-08-07 21:05:01.671379)  can0  5F8   [8]  73 BC 2A 73 D8 2A 17 B3
 (2025-08-07 21:05:01.672632)  can0  043   [4]  00 71 C7 00
 (2025-08-07 21:05:01.672721)  can0  098   [1]  00
 (2025-08-07 21:05:01.679853)  can0  02F   [2]  84 00
 (2025-08-07 21:05:01.681876)  can0  54D   [8]  2B 36 8D AA A6 63 CB 75
 (2025-08-07 21:05:01.682498)  can0  043   [4]  00 71 C7 00
 (2025-08-07 21:05:01.682591)  can0  098   [1]  00
 (2025-08-07 21:05:01.692833)  can0  043   [4]  00 71 C7 00
 (2025-08-07 21:05:01.692934)  can0  098   [1]  00
 (2025-08-07 21:05:01.693153)  can0  568   [8]  E5 1F 9E 1F D7 73 4C AA
 (2025-08-07 21:05:01.694905)  can0  02F   [2]  84 00
 (2025-08-07 21:05:01.702640)  can0  043   [4]  00 71 C7 00
 (2025-08-07 21:05:01.702710)  can0  098   [1]  00
 (2025-08-07 21:05:01.704364)  can0  5DD   [8]  0B 73 46 FF FF 00 1D 2D
 (2025-08-07 21:05:01.709834)  can0  02F   [2]  84 00
 (2025-08-07 21:05:01.712661)  can0  043   [4]  00 71 C7 00
 (2025-08-07 21:05:01.712749)  can0  098   [1]  00
 (2025-08-07 21:05:01.716257)  can0  5FC   [8]  76 86 D6 C4 06 4A F1 D9
 (2025-08-07 21:05:01.722606)  can0  043   [4]  00 71 C7 00
 (2025-08-07 21:05:01.722692)  can0  098   [1]  00
 (2025-08-07 21:05:01.724895)  can0  02F   [2]  8F 00
 (2025-08-07 21:05:01.727386)  can0  5F8   [8]  67 AE 2A C6 2F 38 0C 51
 (2025-08-07 21:05:01.732617)  can0  043   [4]  00 71 C7 00
 (2025-08-07 21:05:01.732700)  can0  098   [1]  00
 (2025-08-07 21:05:01.737884)  can0  50B   [8]  38 06 5D CA C9 B3 BA 61
 (2025-08-07 21:05:01.739932)  can0  02F   [2]  8F 00
 (2025-08-07 21:05:01.742738)  can0  043   [4]  00 71 C7 00
 (2025-08-07 21:05:01.742820)  can0  098   [1]  00
 (2025-08-07 21:05:01.749074)  can0  5B2   [8]  E6 0D E0 D0 FE E8 E7 A4
 (2025-08-07 21:05:01.752534)  can0  043   [4]  00 71 C7 00
 (2025-08-07 21:05:01.752628)  can0  098   [1]  00
 (2025-08-07 21:05:01.754973)  can0  02F   [2]  99 00
 (2025-08-07 21:05:01.760833)  can0  5DF   [8]  AA DD 82 ED 6E 22 1D 11
 (2025-08-07 21:05:01.762489)  can0  043   [4]  00 71 C7 00
 (2025-08-07 21:05:01.762578)  can0  098   [1]  00
 (2025-08-07 21:05:01.769905)  can0  02F   [2]  99 00
 (2025-08-07 21:05:01.771389)  can0  50C   [8]  D1 54 B0 87 5F 9B 17 98
 (2025-08-07 21:05:01.772619)  can0  043   [4]  00 71 C7 00
 (2025-08-07 21:05:01.772710)  can0  098   [1]  00
 (2025-08-07 21:05:01.782565)  can0  570   [8]  B5 F9 3F B2 F7 89 03 6D
 (2025-08-07 21:05:01.782723)  can0  043   [4]  00 71 C7 00
 (2025-08-07 21:05:01.782833)  can0  098   [1]  00
 (2025-08-07 21:05:01.784897)  can0  02F   [2]  A3 00
 (2025-08-07 21:05:01.792653)  can0  043   [4]  00 71 C7 00
 (2025-08-07 21:05:01.792725)  can0  098   [1]  00
 (2025-08-07 21:05:01.793773)  can0  554   [8]  26 DB E0 BD 54 4C AB 71
 (2025-08-07 21:05:01.800324)  can0  02F   [2]  A3 00
 (2025-08-07 21:05:01.803128)  can0  043   [4]  00 71 C7 00
 (2025-08-07 21:05:01.803232)  can0  098   [1]  00
 (2025-08-07 21:05:01.804970)  can0  598   [8]  E8 CC AD 2E D5 5E 40 FB
 (2025-08-07 21:05:01.813019)  can0  043   [4]  00 71 C7 00
 (2025-08-07 21:05:01.813097)  can0  098   [1]  00
 (2025-08-07 21:05:01.815288)  can0  02F   [2]  A3 00
 (2025-08-07 21:05:01.816802)  can0  593   [8]  E5 6D 5B D5 99 0F D2 BF
 (2025-08-07 21:05:01.823048)  can0  043   [4]  00 71 C7 00
 (2025-08-07 21:05:01.823123)  can0  098   [1]  00
 (2025-08-07 21:05:01.827916)  can0  593   [8]  0C 83 01 08 AB 71 13 2B
 (2025-08-07 21:05:01.831002)  can0  02F   [2]  AD 00
 (2025-08-07 21:05:01.832863)  can0  043   [4]  00 71 C7 00
 (2025-08-07 21:05:01.832978)  can0  098   [1]  00
 (2025-08-07 21:05:01.838387)  can0  558   [8]  E7 08 A5 AF 2A 74 26 C5
 (2025-08-07 21:05:01.842872)  can0  043   [4]  00 71 C7 00
 (2025-08-07 21:05:01.842980)  can0  098   [1]  00
 (2025-08-07 21:05:01.846097)  can0  02F   [2]  AD 00
 (2025-08-07 21:05:01.849570)  can0  56E   [8]  FF 99 B7 5F 92 DA CB 60
 (2025-08-07 21:05:01.852878)  can0  043   [4]  00 71 C7 00
 (2025-08-07 21:05:01.852956)  can0  098   [1]  00
 (2025-08-07 21:05:01.861075)  can0  02F   [2]  AD 00
 (2025-08-07 21:05:01.861282)  can0  54F   [8]  09 D1 1A 53 87 77 6C 52
 (2025-08-07 21:05:01.862833)  can0  043   [4]  00 71 C7 00
 (2025-08-07 21:05:01.862905)  can0  098   [1]  00
 (2025-08-07 21:05:01.871799)  can0  50A   [8]  00 42 2A FC EC 01 5F E2
 (2025-08-07 21:05:01.872846)  can0  043   [4]  00 71 C7 00
 (2025-08-07 21:05:01.872928)  can0  098   [1]  00
 (2025-08-07 21:05:01.876122)  can0  02F   [2]  B8 00
 (2025-08-07 21:05:01.882896)  can0  043   [4]  00 71 C7 00
 (2025-08-07 21:05:01.883031)  can0  098   [1]  00
 (2025-08-07 21:05:01.883215)  can0  54F   [8]  0B 11 20 E5 9D CC BB 65
 (2025-08-07 21:05:01.891105)  can0  02F   [2]  B8 00
 (2025-08-07 21:05:01.892864)  can0  043   [4]  00 71 C7 00
 (2025-08-07 21:05:01.892936)  can0  098   [1]  00
 (2025-08-07 21:05:01.894263)  can0  537   [8]  58 36 B1 F4 3F 96 D2 71
 (2025-08-07 21:05:01.902899)  can0  043   [4]  00 71 C7 00
 (2025-08-07 21:05:01.903008)  can0  098   [1]  00
 (2025-08-07 21:05:01.905440)  can0  56A   [8]  F2 35 DE 76 D9 78 54 64
 (2025-08-07 21:05:01.906066)  can0  02F   [2]  B8 00
 (2025-08-07 21:05:01.912949)  can0  043   [4]  00 71 C7 00
 (2025-08-07 21:05:01.913021)  can0  098   [1]  00
 (2025-08-07 21:05:01.917200)  can0  5A5   [8]  ED 13 24 2D 49 3B EA 46
 (2025-08-07 21:05:01.921379)  can0  02F   [2]  C2 00
 (2025-08-07 21:05:01.923053)  can0  043   [4]  00 71 C7 00
 (2025-08-07 21:05:01.923123)  can0  098   [1]  00
 (2025-08-07 21:05:01.928351)  can0  5D7   [8]  74 65 32 00 89 93 5F 23
 (2025-08-07 21:05:01.933097)  can0  043   [4]  00 71 C7 00
 (2025-08-07 21:05:01.933177)  can0  098   [1]  00
 (2025-08-07 21:05:01.936826)  can0  02F   [2]  C2 00
 (2025-08-07 21:05:01.938817)  can0  59E   [8]  38 BB 58 B8 7F 0B 7C 7F
 (2025-08-07 21:05:01.943020)  can0  043   [4]  00 71 C7 00
 (2025-08-07 21:05:01.943102)  can0  098   [1]  00
 (2025-08-07 21:05:01.950094)  can0  56B   [8]  44 1D 80 4A 23 38 8F 3F
 (2025-08-07 21:05:01.952851)  can0  02F   [2]  CC 00
 (2025-08-07 21:05:01.953281)  can0  043   [4]  00 71 C7 00
 (2025-08-07 21:05:01.953392)  can0  098   [1]  00
 (2025-08-07 21:05:01.961837)  can0  50D   [8]  29 37 8B 07 A6 E6 19 7B
 (2025-08-07 21:05:01.963227)  can0  043   [4]  00 71 C7 00
 (2025-08-07 21:05:01.963307)  can0  098   [1]  00
 (2025-08-07 21:05:01.969451)  can0  02F   [2]  CC 00
 (2025-08-07 21:05:01.972295)  can0  567   [8]  2E D9 83 13 CE 83 B7 5B
 (2025-08-07 21:05:01.973100)  can0  043   [4]  00 71 C7 00
 (2025-08-07 21:05:01.973182)  can0  098   [1]  00
 (2025-08-07 21:05:01.982456)  can0  02F   [2]  CC 00
 (2025-08-07 21:05:01.983217)  can0  043   [4]  00 71 C7 00
 (2025-08-07 21:05:01.983298)  can0  098   [1]  00
 (2025-08-07 21:05:01.983688)  can0  510   [8]  E4 31 EA 81 AB C0 6C F2
 (2025-08-07 21:05:01.992441)  can0  043   [4]  00 71 C7 00
 (2025-08-07 21:05:01.992519)  can0  098   [1]  00
 (2025-08-07 21:05:01.995549)  can0  526   [8]  0A BF F5 28 D9 23 4F 04
 (2025-08-07 21:05:01.997743)  can0  02F   [2]  D6 00
 (2025-08-07 21:05:02.002468)  can0  043   [4]  00 71 C7 00
 (2025-08-07 21:05:02.002544)  can0  098   [1]  00
 (2025-08-07 21:05:02.006589)  can0  562   [8]  1D CA 15 9D B3 42 05 27
 (2025-08-07 21:05:02.012530)  can0  043   [4]  00 71 C7 00
 (2025-08-07 21:05:02.012605)  can0  098   [1]  00
 (2025-08-07 21:05:02.014121)  can0  02F   [2]  D6 00
 (2025-08-07 21:05:02.017069)  can0  5F0   [8]  48 6B B2 F3 0C 11 59 FE
 (2025-08-07 21:05:02.022481)  can0  043   [4]  00 71 C7 00
 (2025-08-07 21:05:02.022560)  can0  098   [1]  00
 (2025-08-07 21:05:02.028254)  can0  514   [8]  10 01 88 88 EC 32 A2 ED
 (2025-08-07 21:05:02.030180)  can0  02F   [2]  D6 00
 (2025-08-07 21:05:02.032507)  can0  043   [4]  00 71 C7 00
 (2025-08-07 21:05:02.032610)  can0  098   [1]  00
 (2025-08-07 21:05:02.039487)  can0  584   [8]  40 F9 AD D8 C0 CA 6C 45
 (2025-08-07 21:05:02.042549)  can0  043   [4]  00 71 C7 00
 (2025-08-07 21:05:02.042627)  can0  098   [1]  00
 (2025-08-07 21:05:02.046203)  can0  02F   [2]  E1 00
 (2025-08-07 21:05:02.050721)  can0  5B3   [8]  9B E7 EA 8A A9 9F 1B 33
 (2025-08-07 21:05:02.052557)  can0  043   [4]  00 71 C7 00
 (2025-08-07 21:05:02.052647)  can0  098   [1]  00
 (2025-08-07 21:05:02.061986)  can0  52C   [8]  26 2E 53 FB 8A 77 54 96
 (2025-08-07 21:05:02.062119)  can0  02F   [2]  E1 00
 (2025-08-07 21:05:02.063701)  can0  043   [4]  00 71 C7 00
 (2025-08-07 21:05:02.063778)  can0  098   [1]  00
 (2025-08-07 21:05:02.073033)  can0  043   [4]  00 71 C7 00
 (2025-08-07 21:05:02.073120)  can0  098   [1]  00
 (2025-08-07 21:05:02.073338)  can0  51F   [8]  D7 83 59 7C 9E 8E 91 6C
 (2025-08-07 21:05:02.077495)  can0  02F   [2]  E1 00
 (2025-08-07 21:05:02.083107)  can0  043   [4]  00 71 C7 00
 (2025-08-07 21:05:02.083184)  can0  098   [1]  00
 (2025-08-07 21:05:02.085035)  can0  564   [8]  A5 AE AD 70 1D 10 D9 E4
 (2025-08-07 21:05:02.093427)  can0  043   [4]  00 71 C7 00
 (2025-08-07 21:05:02.093505)  can0  02F   [2]  EB 00
 (2025-08-07 21:05:02.093652)  can0  098   [1]  00
 (2025-08-07 21:05:02.095598)  can0  5D6   [8]  30 B8 0D B7 24 2F AD 0A
 (2025-08-07 21:05:02.103086)  can0  043   [4]  00 71 C7 00
 (2025-08-07 21:05:02.103169)  can0  098   [1]  00
 (2025-08-07 21:05:02.106796)  can0  5A1   [8]  E5 17 2B 0F 4F 6D CE 0C
 (2025-08-07 21:05:02.107149)  can0  02F   [2]  EB 00
 (2025-08-07 21:05:02.113081)  can0  043   [4]  00 71 C7 00
 (2025-08-07 21:05:02.113158)  can0  098   [1]  00
 (2025-08-07 21:05:02.118752)  can0  565   [8]  05 30 6F 21 03 93 C8 F9
 (2025-08-07 21:05:02.122216)  can0  02F   [2]  EB 00
 (2025-08-07 21:05:02.123224)  can0  043   [4]  00 71 C7 00
 (2025-08-07 21:05:02.123330)  can0  098   [1]  00
 (2025-08-07 21:05:02.129796)  can0  51C   [8]  04 22 2D ED 13 62 EB D8
 (2025-08-07 21:05:02.133051)  can0  043   [4]  00 71 C7 00
 (2025-08-07 21:05:02.133126)  can0  098   [1]  00
 (2025-08-07 21:05:02.137558)  can0  02F   [2]  F5 00
 (2025-08-07 21:05:02.140292)  can0  54D   [8]  E6 5E C1 80 26 87 45 68
 (2025-08-07 21:05:02.142576)  can0  043   [4]  00 71 C7 00
 (2025-08-07 21:05:02.142659)  can0  098   [1]  00
 (2025-08-07 21:05:02.151581)  can0  5F5   [8]  AD D6 46 81 ED 3C C1 6E
 (2025-08-07 21:05:02.152868)  can0  043   [4]  00 71 C7 00
 (2025-08-07 21:05:02.152951)  can0  098   [1]  00
 (2025-08-07 21:05:02.153166)  can0  02F   [2]  F5 00
 (2025-08-07 21:05:02.162509)  can0  043   [4]  00 71 C7 00
 (2025-08-07 21:05:02.162595)  can0  098   [1]  00
 (2025-08-07 21:05:02.163434)  can0  570   [8]  4D 43 61 C2 98 76 DD 3E
 (2025-08-07 21:05:02.168608)  can0  02F   [2]  F5 00
 (2025-08-07 21:05:02.172651)  can0  043   [4]  00 71 C7 00
 (2025-08-07 21:05:02.172742)  can0  098   [1]  00
 (2025-08-07 21:05:02.174525)  can0  582   [8]  98 7C 22 9F 0A D8 44 97
 (2025-08-07 21:05:02.182686)  can0  043   [4]  00 71 C7 00
 (2025-08-07 21:05:02.182760)  can0  098   [1]  00
 (2025-08-07 21:05:02.184772)  can0  02F   [2]  FF 00
 (2025-08-07 21:05:02.184993)  can0  55C   [8]  28 68 BA 83 B4 AC 70 45
 (2025-08-07 21:05:02.192565)  can0  043   [4]  00 71 C7 00
 (2025-08-07 21:05:02.192652)  can0  098   [1]  00
 (2025-08-07 21:05:02.196229)  can0  539   [8]  12 03 E3 4F F4 42 7A 62
 (2025-08-07 21:05:02.199839)  can0  02F   [2]  FF 00
 (2025-08-07 21:05:02.202539)  can0  043   [4]  00 71 C7 00
 (2025-08-07 21:05:02.202630)  can0  098   [1]  00
 (2025-08-07 21:05:02.207533)  can0  5BA   [8]  1D B5 8C 21 9C 60 4F EE
 (2025-08-07 21:05:02.212563)  can0  043   [4]  00 71 C7 00
