 (2025-08-07 21:11:29.251036)  can0  043   [4]  00 EA AD 00
 (2025-08-07 21:11:29.251115)  can0  098   [1]  00
 (2025-08-07 21:11:29.252874)  can0  043   [4]  00 E9 A8 00
 (2025-08-07 21:11:29.253658)  can0  098   [1]  01
 (2025-08-07 21:11:29.256935)  can0  02F   [2]  33 00
 (2025-08-07 21:11:29.260791)  can0  043   [4]  00 EA AD 00
 (2025-08-07 21:11:29.260873)  can0  098   [1]  00
 (2025-08-07 21:11:29.261183)  can0  02F   [2]  13 03
 (2025-08-07 21:11:29.262646)  can0  043   [4]  00 E9 A8 00
 (2025-08-07 21:11:29.263461)  can0  098   [1]  01
 (2025-08-07 21:11:29.271018)  can0  043   [4]  00 EA AD 00
 (2025-08-07 21:11:29.271100)  can0  098   [1]  00
 (2025-08-07 21:11:29.272204)  can0  02F   [2]  33 00
 (2025-08-07 21:11:29.273936)  can0  043   [4]  00 E9 A8 00
 (2025-08-07 21:11:29.274237)  can0  098   [1]  01
 (2025-08-07 21:11:29.276964)  can0  02F   [2]  13 03
 (2025-08-07 21:11:29.281128)  can0  043   [4]  00 EA AD 00
 (2025-08-07 21:11:29.281206)  can0  098   [1]  00
 (2025-08-07 21:11:29.283982)  can0  043   [4]  00 E9 A8 00
 (2025-08-07 21:11:29.284275)  can0  098   [1]  01
 (2025-08-07 21:11:29.287136)  can0  02F   [2]  3D 00
 (2025-08-07 21:11:29.291042)  can0  043   [4]  00 EA AD 00
 (2025-08-07 21:11:29.291112)  can0  098   [1]  00
 (2025-08-07 21:11:29.291352)  can0  02F   [2]  13 03
 (2025-08-07 21:11:29.293607)  can0  043   [4]  00 E9 A8 00
 (2025-08-07 21:11:29.294338)  can0  098   [1]  01
 (2025-08-07 21:11:29.301232)  can0  043   [4]  00 EA AD 00
 (2025-08-07 21:11:29.301305)  can0  098   [1]  00
 (2025-08-07 21:11:29.302516)  can0  02F   [2]  3D 00
 (2025-08-07 21:11:29.303536)  can0  043   [4]  00 E9 A8 00
 (2025-08-07 21:11:29.304339)  can0  098   [1]  01
 (2025-08-07 21:11:29.306589)  can0  02F   [2]  1D 03
 (2025-08-07 21:11:29.311219)  can0  043   [4]  00 EA AD 00
 (2025-08-07 21:11:29.311291)  can0  098   [1]  00
 (2025-08-07 21:11:29.313478)  can0  043   [4]  00 E9 A8 00
 (2025-08-07 21:11:29.314297)  can0  098   [1]  01
 (2025-08-07 21:11:29.317562)  can0  02F   [2]  47 00
 (2025-08-07 21:11:29.321252)  can0  043   [4]  00 EA AD 00
 (2025-08-07 21:11:29.321366)  can0  098   [1]  00
 (2025-08-07 21:11:29.321843)  can0  02F   [2]  1D 03
 (2025-08-07 21:11:29.323498)  can0  043   [4]  00 E9 A8 00
 (2025-08-07 21:11:29.324299)  can0  098   [1]  01
 (2025-08-07 21:11:29.331107)  can0  043   [4]  00 EA AD 00
 (2025-08-07 21:11:29.331179)  can0  098   [1]  00
 (2025-08-07 21:11:29.332202)  can0  02F   [2]  47 00
 (2025-08-07 21:11:29.333658)  can0  043   [4]  00 E9 A8 00
 (2025-08-07 21:11:29.334450)  can0  098   [1]  01
 (2025-08-07 21:11:29.336913)  can0  02F   [2]  1D 03
 (2025-08-07 21:11:29.340577)  can0  043   [4]  00 EA AD 00
 (2025-08-07 21:11:29.340650)  can0  098   [1]  00
 (2025-08-07 21:11:29.344500)  can0  043   [4]  00 E9 A8 00
 (2025-08-07 21:11:29.344819)  can0  098   [1]  01
 (2025-08-07 21:11:29.347722)  can0  02F   [2]  51 00
 (2025-08-07 21:11:29.350815)  can0  043   [4]  00 EA AD 00
 (2025-08-07 21:11:29.350966)  can0  098   [1]  00
 (2025-08-07 21:11:29.352826)  can0  02F   [2]  28 03
 (2025-08-07 21:11:29.353714)  can0  043   [4]  00 E9 A8 00
 (2025-08-07 21:11:29.354680)  can0  098   [1]  01
 (2025-08-07 21:11:29.360964)  can0  043   [4]  00 EA AD 00
 (2025-08-07 21:11:29.361035)  can0  098   [1]  00
 (2025-08-07 21:11:29.363186)  can0  02F   [2]  51 00
 (2025-08-07 21:11:29.363565)  can0  043   [4]  00 E9 A8 00
 (2025-08-07 21:11:29.364464)  can0  098   [1]  01
 (2025-08-07 21:11:29.368931)  can0  02F   [2]  28 03
 (2025-08-07 21:11:29.370359)  can0  043   [4]  00 EA AD 00
 (2025-08-07 21:11:29.370433)  can0  098   [1]  00
 (2025-08-07 21:11:29.373097)  can0  043   [4]  00 E9 A8 00
 (2025-08-07 21:11:29.374090)  can0  098   [1]  01
 (2025-08-07 21:11:29.378755)  can0  02F   [2]  51 00
 (2025-08-07 21:11:29.380268)  can0  043   [4]  00 EA AD 00
 (2025-08-07 21:11:29.380346)  can0  098   [1]  00
 (2025-08-07 21:11:29.383105)  can0  043   [4]  00 E9 A8 00
 (2025-08-07 21:11:29.383944)  can0  098   [1]  01
 (2025-08-07 21:11:29.385352)  can0  02F   [2]  28 03
 (2025-08-07 21:11:29.390280)  can0  043   [4]  00 EA AD 00
 (2025-08-07 21:11:29.390356)  can0  098   [1]  00
 (2025-08-07 21:11:29.393772)  can0  02F   [2]  5C 00
 (2025-08-07 21:11:29.394121)  can0  043   [4]  00 E9 A8 00
 (2025-08-07 21:11:29.394390)  can0  098   [1]  01
 (2025-08-07 21:11:29.400408)  can0  043   [4]  00 EA AD 00
 (2025-08-07 21:11:29.400524)  can0  02F   [2]  32 03
 (2025-08-07 21:11:29.400628)  can0  098   [1]  00
 (2025-08-07 21:11:29.403476)  can0  043   [4]  00 E9 A8 00
 (2025-08-07 21:11:29.404223)  can0  098   [1]  01
 (2025-08-07 21:11:29.408599)  can0  02F   [2]  5C 00
 (2025-08-07 21:11:29.410462)  can0  043   [4]  00 EA AD 00
 (2025-08-07 21:11:29.410570)  can0  098   [1]  00
 (2025-08-07 21:11:29.414548)  can0  043   [4]  00 E9 A8 00
 (2025-08-07 21:11:29.414864)  can0  098   [1]  01
 (2025-08-07 21:11:29.415190)  can0  02F   [2]  32 03
 (2025-08-07 21:11:29.420363)  can0  043   [4]  00 EA AD 00
 (2025-08-07 21:11:29.420457)  can0  098   [1]  00
 (2025-08-07 21:11:29.423710)  can0  043   [4]  00 E9 A8 00
 (2025-08-07 21:11:29.423851)  can0  02F   [2]  5C 00
 (2025-08-07 21:11:29.424511)  can0  098   [1]  01
 (2025-08-07 21:11:29.429863)  can0  02F   [2]  32 03
 (2025-08-07 21:11:29.430310)  can0  043   [4]  00 EA AD 00
 (2025-08-07 21:11:29.430413)  can0  098   [1]  00
 (2025-08-07 21:11:29.433525)  can0  043   [4]  00 E9 A8 00
 (2025-08-07 21:11:29.434291)  can0  098   [1]  01
 (2025-08-07 21:11:29.438753)  can0  02F   [2]  66 00
 (2025-08-07 21:11:29.440633)  can0  043   [4]  00 EA AD 00
 (2025-08-07 21:11:29.440732)  can0  098   [1]  00
 (2025-08-07 21:11:29.443347)  can0  043   [4]  00 E9 A8 00
 (2025-08-07 21:11:29.444129)  can0  098   [1]  01
 (2025-08-07 21:11:29.445472)  can0  02F   [2]  3C 03
 (2025-08-07 21:11:29.450652)  can0  043   [4]  00 EA AD 00
 (2025-08-07 21:11:29.450747)  can0  098   [1]  00
 (2025-08-07 21:11:29.453715)  can0  043   [4]  00 E9 A8 00
 (2025-08-07 21:11:29.454458)  can0  02F   [2]  66 00
 (2025-08-07 21:11:29.454549)  can0  098   [1]  01
 (2025-08-07 21:11:29.460584)  can0  043   [4]  00 EA AD 00
 (2025-08-07 21:11:29.460677)  can0  098   [1]  00
 (2025-08-07 21:11:29.461229)  can0  02F   [2]  3C 03
 (2025-08-07 21:11:29.463292)  can0  043   [4]  00 E9 A8 00
 (2025-08-07 21:11:29.464054)  can0  098   [1]  01
 (2025-08-07 21:11:29.468978)  can0  02F   [2]  66 00
 (2025-08-07 21:11:29.471389)  can0  043   [4]  00 EA AD 00
 (2025-08-07 21:11:29.471459)  can0  098   [1]  00
 (2025-08-07 21:11:29.474191)  can0  043   [4]  00 E9 A8 00
 (2025-08-07 21:11:29.474473)  can0  098   [1]  01
 (2025-08-07 21:11:29.476722)  can0  02F   [2]  3C 03
 (2025-08-07 21:11:29.481434)  can0  043   [4]  00 EA AD 00
 (2025-08-07 21:11:29.481512)  can0  098   [1]  00
 (2025-08-07 21:11:29.483735)  can0  043   [4]  00 E9 A8 00
 (2025-08-07 21:11:29.484558)  can0  098   [1]  01
 (2025-08-07 21:11:29.485052)  can0  02F   [2]  70 00
 (2025-08-07 21:11:29.491697)  can0  043   [4]  00 EA AD 00
 (2025-08-07 21:11:29.491775)  can0  098   [1]  00
 (2025-08-07 21:11:29.492753)  can0  02F   [2]  46 03
 (2025-08-07 21:11:29.494174)  can0  043   [4]  00 E9 A8 00
 (2025-08-07 21:11:29.494855)  can0  098   [1]  01
 (2025-08-07 21:11:29.500360)  can0  02F   [2]  70 00
 (2025-08-07 21:11:29.501819)  can0  043   [4]  00 EA AD 00
 (2025-08-07 21:11:29.501917)  can0  098   [1]  00
 (2025-08-07 21:11:29.503704)  can0  043   [4]  00 E9 A8 00
 (2025-08-07 21:11:29.504522)  can0  098   [1]  01
 (2025-08-07 21:11:29.507408)  can0  02F   [2]  46 03
 (2025-08-07 21:11:29.511834)  can0  043   [4]  00 EA AD 00
 (2025-08-07 21:11:29.511912)  can0  098   [1]  00
 (2025-08-07 21:11:29.513810)  can0  043   [4]  00 E9 A8 00
 (2025-08-07 21:11:29.514635)  can0  098   [1]  01
 (2025-08-07 21:11:29.515425)  can0  02F   [2]  70 00
 (2025-08-07 21:11:29.521973)  can0  043   [4]  00 EA AD 00
 (2025-08-07 21:11:29.522081)  can0  098   [1]  00
 (2025-08-07 21:11:29.523703)  can0  02F   [2]  46 03
 (2025-08-07 21:11:29.524629)  can0  043   [4]  00 E9 A8 00
 (2025-08-07 21:11:29.525395)  can0  098   [1]  01
 (2025-08-07 21:11:29.530251)  can0  02F   [2]  7A 00
 (2025-08-07 21:11:29.532038)  can0  043   [4]  00 EA AD 00
 (2025-08-07 21:11:29.532161)  can0  098   [1]  00
 (2025-08-07 21:11:29.533818)  can0  043   [4]  00 E9 A8 00
 (2025-08-07 21:11:29.534576)  can0  098   [1]  01
 (2025-08-07 21:11:29.536918)  can0  02F   [2]  51 03
 (2025-08-07 21:11:29.541168)  can0  043   [4]  00 EA AD 00
 (2025-08-07 21:11:29.541242)  can0  098   [1]  00
 (2025-08-07 21:11:29.543724)  can0  043   [4]  00 E9 A8 00
 (2025-08-07 21:11:29.544507)  can0  098   [1]  01
 (2025-08-07 21:11:29.546115)  can0  02F   [2]  7A 00
 (2025-08-07 21:11:29.551214)  can0  043   [4]  00 EA AD 00
 (2025-08-07 21:11:29.551303)  can0  098   [1]  00
 (2025-08-07 21:11:29.552980)  can0  02F   [2]  51 03
 (2025-08-07 21:11:29.553747)  can0  043   [4]  00 E9 A8 00
 (2025-08-07 21:11:29.554519)  can0  098   [1]  01
 (2025-08-07 21:11:29.560502)  can0  02F   [2]  7A 00
 (2025-08-07 21:11:29.561323)  can0  043   [4]  00 EA AD 00
 (2025-08-07 21:11:29.561429)  can0  098   [1]  00
 (2025-08-07 21:11:29.563777)  can0  043   [4]  00 E9 A8 00
 (2025-08-07 21:11:29.564593)  can0  098   [1]  01
 (2025-08-07 21:11:29.567634)  can0  02F   [2]  5B 03
 (2025-08-07 21:11:29.571318)  can0  043   [4]  00 EA AD 00
 (2025-08-07 21:11:29.571387)  can0  098   [1]  00
 (2025-08-07 21:11:29.573869)  can0  043   [4]  00 E9 A8 00
 (2025-08-07 21:11:29.574681)  can0  098   [1]  01
 (2025-08-07 21:11:29.575662)  can0  02F   [2]  84 00
 (2025-08-07 21:11:29.581312)  can0  043   [4]  00 EA AD 00
 (2025-08-07 21:11:29.581422)  can0  098   [1]  00
 (2025-08-07 21:11:29.581861)  can0  02F   [2]  5B 03
 (2025-08-07 21:11:29.584679)  can0  043   [4]  00 E9 A8 00
 (2025-08-07 21:11:29.584942)  can0  098   [1]  01
 (2025-08-07 21:11:29.590568)  can0  02F   [2]  84 00
 (2025-08-07 21:11:29.591301)  can0  043   [4]  00 EA AD 00
 (2025-08-07 21:11:29.591403)  can0  098   [1]  00
 (2025-08-07 21:11:29.593559)  can0  043   [4]  00 E9 A8 00
 (2025-08-07 21:11:29.594309)  can0  098   [1]  01
 (2025-08-07 21:11:29.596806)  can0  02F   [2]  5B 03
 (2025-08-07 21:11:29.601322)  can0  043   [4]  00 EA AD 00
 (2025-08-07 21:11:29.601418)  can0  098   [1]  00
 (2025-08-07 21:11:29.603693)  can0  043   [4]  00 E9 A8 00
 (2025-08-07 21:11:29.604434)  can0  098   [1]  01
 (2025-08-07 21:11:29.605474)  can0  02F   [2]  8F 00
 (2025-08-07 21:11:29.611285)  can0  043   [4]  00 EA AD 00
 (2025-08-07 21:11:29.611401)  can0  098   [1]  00
 (2025-08-07 21:11:29.612082)  can0  02F   [2]  65 03
 (2025-08-07 21:11:29.613660)  can0  043   [4]  00 E9 A8 00
 (2025-08-07 21:11:29.614531)  can0  098   [1]  01
 (2025-08-07 21:11:29.620359)  can0  02F   [2]  8F 00
 (2025-08-07 21:11:29.621331)  can0  043   [4]  00 EA AD 00
 (2025-08-07 21:11:29.621435)  can0  098   [1]  00
 (2025-08-07 21:11:29.623664)  can0  043   [4]  00 E9 A8 00
 (2025-08-07 21:11:29.624502)  can0  098   [1]  01
 (2025-08-07 21:11:29.627013)  can0  02F   [2]  65 03
 (2025-08-07 21:11:29.631244)  can0  043   [4]  00 EA AD 00
 (2025-08-07 21:11:29.631313)  can0  098   [1]  00
 (2025-08-07 21:11:29.633747)  can0  043   [4]  00 E9 A8 00
 (2025-08-07 21:11:29.634485)  can0  098   [1]  01
 (2025-08-07 21:11:29.635364)  can0  02F   [2]  8F 00
 (2025-08-07 21:11:29.641285)  can0  043   [4]  00 EA AD 00
 (2025-08-07 21:11:29.641385)  can0  098   [1]  00
 (2025-08-07 21:11:29.642352)  can0  02F   [2]  65 03
 (2025-08-07 21:11:29.643452)  can0  043   [4]  00 E9 A8 00
 (2025-08-07 21:11:29.644197)  can0  098   [1]  01
 (2025-08-07 21:11:29.650352)  can0  02F   [2]  99 00
 (2025-08-07 21:11:29.651383)  can0  043   [4]  00 EA AD 00
 (2025-08-07 21:11:29.651486)  can0  098   [1]  00
 (2025-08-07 21:11:29.653579)  can0  043   [4]  00 E9 A8 00
 (2025-08-07 21:11:29.654327)  can0  098   [1]  01
 (2025-08-07 21:11:29.656666)  can0  02F   [2]  6F 03
 (2025-08-07 21:11:29.661314)  can0  043   [4]  00 EA AD 00
 (2025-08-07 21:11:29.661414)  can0  098   [1]  00
 (2025-08-07 21:11:29.663663)  can0  043   [4]  00 E9 A8 00
 (2025-08-07 21:11:29.664421)  can0  098   [1]  01
 (2025-08-07 21:11:29.665476)  can0  02F   [2]  99 00
 (2025-08-07 21:11:29.671367)  can0  043   [4]  00 EA AD 00
 (2025-08-07 21:11:29.671464)  can0  098   [1]  00
 (2025-08-07 21:11:29.672741)  can0  02F   [2]  6F 03
 (2025-08-07 21:11:29.673517)  can0  043   [4]  00 E9 A8 00
 (2025-08-07 21:11:29.674255)  can0  098   [1]  01
 (2025-08-07 21:11:29.680553)  can0  02F   [2]  99 00
 (2025-08-07 21:11:29.681227)  can0  043   [4]  00 EA AD 00
 (2025-08-07 21:11:29.681289)  can0  098   [1]  00
 (2025-08-07 21:11:29.683731)  can0  043   [4]  00 E9 A8 00
 (2025-08-07 21:11:29.684530)  can0  098   [1]  01
 (2025-08-07 21:11:29.686503)  can0  02F   [2]  6F 03
 (2025-08-07 21:11:29.691340)  can0  043   [4]  00 EA AD 00
 (2025-08-07 21:11:29.691417)  can0  098   [1]  00
 (2025-08-07 21:11:29.693600)  can0  043   [4]  00 E9 A8 00
 (2025-08-07 21:11:29.693889)  can0  098   [1]  01
 (2025-08-07 21:11:29.695445)  can0  02F   [2]  A3 00
 (2025-08-07 21:11:29.701346)  can0  043   [4]  00 EA AD 00
 (2025-08-07 21:11:29.701429)  can0  098   [1]  00
 (2025-08-07 21:11:29.701751)  can0  02F   [2]  7A 03
 (2025-08-07 21:11:29.703830)  can0  043   [4]  00 E9 A8 00
 (2025-08-07 21:11:29.704793)  can0  098   [1]  01
 (2025-08-07 21:11:29.710389)  can0  02F   [2]  A3 00
 (2025-08-07 21:11:29.711417)  can0  043   [4]  00 EA AD 00
 (2025-08-07 21:11:29.711516)  can0  098   [1]  00
 (2025-08-07 21:11:29.714878)  can0  043   [4]  00 E9 A8 00
 (2025-08-07 21:11:29.715192)  can0  098   [1]  01
 (2025-08-07 21:11:29.716780)  can0  02F   [2]  7A 03
 (2025-08-07 21:11:29.721372)  can0  043   [4]  00 EA AD 00
 (2025-08-07 21:11:29.721448)  can0  098   [1]  00
 (2025-08-07 21:11:29.723722)  can0  043   [4]  00 E9 A8 00
 (2025-08-07 21:11:29.724543)  can0  098   [1]  01
 (2025-08-07 21:11:29.725624)  can0  02F   [2]  A3 00
 (2025-08-07 21:11:29.731311)  can0  043   [4]  00 EA AD 00
 (2025-08-07 21:11:29.731411)  can0  098   [1]  00
 (2025-08-07 21:11:29.732079)  can0  02F   [2]  7A 03
 (2025-08-07 21:11:29.733028)  can0  043   [4]  00 E9 A8 00
 (2025-08-07 21:11:29.733731)  can0  098   [1]  01
 (2025-08-07 21:11:29.741311)  can0  043   [4]  00 EA AD 00
 (2025-08-07 21:11:29.741383)  can0  098   [1]  00
 (2025-08-07 21:11:29.743021)  can0  043   [4]  00 E9 A8 00
 (2025-08-07 21:11:29.743927)  can0  098   [1]  01
 (2025-08-07 21:11:29.744059)  can0  02F   [2]  AD 00
 (2025-08-07 21:11:29.746886)  can0  02F   [2]  84 03
 (2025-08-07 21:11:29.747263)  can0  098   [1]  00
 (2025-08-07 21:11:29.747413)  can0  043   [4]  00 4A 2B 00
 (2025-08-07 21:11:29.748279)  can0  098   [1]  00
 (2025-08-07 21:11:29.751313)  can0  043   [4]  00 4A 2B 00
 (2025-08-07 21:11:29.751422)  can0  098   [1]  01
 (2025-08-07 21:11:29.752857)  can0  043   [4]  00 E9 A8 00
 (2025-08-07 21:11:29.753655)  can0  098   [1]  01
 (2025-08-07 21:11:29.755855)  can0  02F   [2]  AD 00
 (2025-08-07 21:11:29.761354)  can0  043   [4]  00 4A 2B 00
 (2025-08-07 21:11:29.761461)  can0  098   [1]  01
 (2025-08-07 21:11:29.762003)  can0  02F   [2]  84 03
 (2025-08-07 21:11:29.762991)  can0  043   [4]  00 E9 A8 00
 (2025-08-07 21:11:29.763797)  can0  098   [1]  01
 (2025-08-07 21:11:29.770483)  can0  02F   [2]  AD 00
 (2025-08-07 21:11:29.771229)  can0  043   [4]  00 4A 2B 00
 (2025-08-07 21:11:29.771327)  can0  098   [1]  01
 (2025-08-07 21:11:29.772753)  can0  043   [4]  00 E9 A8 00
 (2025-08-07 21:11:29.773615)  can0  098   [1]  01
 (2025-08-07 21:11:29.777411)  can0  02F   [2]  84 03
 (2025-08-07 21:11:29.781285)  can0  043   [4]  00 4A 2B 00
 (2025-08-07 21:11:29.781385)  can0  098   [1]  01
 (2025-08-07 21:11:29.782837)  can0  043   [4]  00 E9 A8 00
 (2025-08-07 21:11:29.783754)  can0  098   [1]  01
 (2025-08-07 21:11:29.785705)  can0  02F   [2]  B8 00
 (2025-08-07 21:11:29.791290)  can0  043   [4]  00 4A 2B 00
 (2025-08-07 21:11:29.791415)  can0  098   [1]  01
 (2025-08-07 21:11:29.792775)  can0  02F   [2]  8E 03
 (2025-08-07 21:11:29.793608)  can0  043   [4]  00 E9 A8 00
 (2025-08-07 21:11:29.794275)  can0  098   [1]  01
 (2025-08-07 21:11:29.800673)  can0  02F   [2]  B8 00
 (2025-08-07 21:11:29.801365)  can0  043   [4]  00 4A 2B 00
 (2025-08-07 21:11:29.801473)  can0  098   [1]  01
 (2025-08-07 21:11:29.803481)  can0  043   [4]  00 E9 A8 00
 (2025-08-07 21:11:29.804223)  can0  098   [1]  00
 (2025-08-07 21:11:29.809186)  can0  02F   [2]  8E 03
 (2025-08-07 21:11:29.811710)  can0  043   [4]  00 4A 2B 00
 (2025-08-07 21:11:29.811811)  can0  098   [1]  01
 (2025-08-07 21:11:29.813428)  can0  043   [4]  00 E9 A8 00
 (2025-08-07 21:11:29.814166)  can0  098   [1]  00
 (2025-08-07 21:11:29.816320)  can0  02F   [2]  B8 00
 (2025-08-07 21:11:29.821799)  can0  043   [4]  00 4A 2B 00
 (2025-08-07 21:11:29.821864)  can0  098   [1]  01
 (2025-08-07 21:11:29.822913)  can0  043   [4]  00 E9 A8 00
 (2025-08-07 21:11:29.823786)  can0  098   [1]  00
 (2025-08-07 21:11:29.824568)  can0  02F   [2]  98 03
 (2025-08-07 21:11:29.831268)  can0  02F   [2]  C2 00
 (2025-08-07 21:11:29.832069)  can0  043   [4]  00 4A 2B 00
 (2025-08-07 21:11:29.832139)  can0  098   [1]  01
 (2025-08-07 21:11:29.834035)  can0  043   [4]  00 E9 A8 00
 (2025-08-07 21:11:29.834311)  can0  098   [1]  00
 (2025-08-07 21:11:29.838995)  can0  02F   [2]  98 03
 (2025-08-07 21:11:29.841732)  can0  043   [4]  00 4A 2B 00
 (2025-08-07 21:11:29.841829)  can0  098   [1]  01
 (2025-08-07 21:11:29.842778)  can0  043   [4]  00 E9 A8 00
 (2025-08-07 21:11:29.843647)  can0  098   [1]  00
 (2025-08-07 21:11:29.845961)  can0  02F   [2]  C2 00
 (2025-08-07 21:11:29.851824)  can0  043   [4]  00 4A 2B 00
 (2025-08-07 21:11:29.851924)  can0  098   [1]  01
 (2025-08-07 21:11:29.853929)  can0  043   [4]  00 E9 A8 00
 (2025-08-07 21:11:29.854212)  can0  098   [1]  00
 (2025-08-07 21:11:29.854486)  can0  02F   [2]  A2 03
 (2025-08-07 21:11:29.861424)  can0  02F   [2]  C2 00
 (2025-08-07 21:11:29.861786)  can0  043   [4]  00 4A 2B 00
 (2025-08-07 21:11:29.861901)  can0  098   [1]  01
 (2025-08-07 21:11:29.863841)  can0  043   [4]  00 E9 A8 00
 (2025-08-07 21:11:29.864111)  can0  098   [1]  00
 (2025-08-07 21:11:29.869108)  can0  02F   [2]  A2 03
 (2025-08-07 21:11:29.871217)  can0  043   [4]  00 4A 2B 00
 (2025-08-07 21:11:29.871321)  can0  098   [1]  01
 (2025-08-07 21:11:29.872712)  can0  043   [4]  00 E9 A8 00
 (2025-08-07 21:11:29.873463)  can0  098   [1]  00
 (2025-08-07 21:11:29.876961)  can0  02F   [2]  CC 00
 (2025-08-07 21:11:29.881245)  can0  043   [4]  00 4A 2B 00
 (2025-08-07 21:11:29.881339)  can0  098   [1]  01
 (2025-08-07 21:11:29.882971)  can0  043   [4]  00 E9 A8 00
 (2025-08-07 21:11:29.883765)  can0  098   [1]  00
 (2025-08-07 21:11:29.884542)  can0  02F   [2]  A2 03
 (2025-08-07 21:11:29.891363)  can0  043   [4]  00 4A 2B 00
 (2025-08-07 21:11:29.891434)  can0  098   [1]  01
 (2025-08-07 21:11:29.892037)  can0  02F   [2]  CC 00
 (2025-08-07 21:11:29.893089)  can0  043   [4]  00 E9 A8 00
 (2025-08-07 21:11:29.893900)  can0  098   [1]  00
 (2025-08-07 21:11:29.900049)  can0  02F   [2]  AD 03
 (2025-08-07 21:11:29.901584)  can0  043   [4]  00 4A 2B 00
 (2025-08-07 21:11:29.901684)  can0  098   [1]  01
 (2025-08-07 21:11:29.903114)  can0  043   [4]  00 E9 A8 00
 (2025-08-07 21:11:29.904015)  can0  098   [1]  00
 (2025-08-07 21:11:29.907448)  can0  02F   [2]  CC 00
 (2025-08-07 21:11:29.911592)  can0  043   [4]  00 4A 2B 00
 (2025-08-07 21:11:29.911702)  can0  098   [1]  01
 (2025-08-07 21:11:29.913423)  can0  043   [4]  00 E9 A8 00
 (2025-08-07 21:11:29.914229)  can0  098   [1]  00
 (2025-08-07 21:11:29.915417)  can0  02F   [2]  AD 03
 (2025-08-07 21:11:29.921748)  can0  043   [4]  00 4A 2B 00
 (2025-08-07 21:11:29.921816)  can0  098   [1]  01
 (2025-08-07 21:11:29.921977)  can0  02F   [2]  D6 00
 (2025-08-07 21:11:29.924546)  can0  043   [4]  00 E9 A8 00
 (2025-08-07 21:11:29.924825)  can0  098   [1]  00
 (2025-08-07 21:11:29.930807)  can0  02F   [2]  AD 03
 (2025-08-07 21:11:29.931337)  can0  043   [4]  00 4A 2B 00
 (2025-08-07 21:11:29.931417)  can0  098   [1]  01
 (2025-08-07 21:11:29.933138)  can0  043   [4]  00 E9 A8 00
 (2025-08-07 21:11:29.933887)  can0  098   [1]  00
 (2025-08-07 21:11:29.938661)  can0  02F   [2]  D6 00
 (2025-08-07 21:11:29.941431)  can0  043   [4]  00 4A 2B 00
 (2025-08-07 21:11:29.941537)  can0  098   [1]  01
 (2025-08-07 21:11:29.944209)  can0  043   [4]  00 E9 A8 00
 (2025-08-07 21:11:29.944490)  can0  098   [1]  00
 (2025-08-07 21:11:29.946379)  can0  02F   [2]  B7 03
 (2025-08-07 21:11:29.951557)  can0  043   [4]  00 4A 2B 00
 (2025-08-07 21:11:29.951629)  can0  098   [1]  01
 (2025-08-07 21:11:29.953620)  can0  043   [4]  00 E9 A8 00
 (2025-08-07 21:11:29.954242)  can0  02F   [2]  E1 00
 (2025-08-07 21:11:29.954479)  can0  098   [1]  00
 (2025-08-07 21:11:29.961943)  can0  043   [4]  00 4A 2B 00
 (2025-08-07 21:11:29.962023)  can0  098   [1]  01
 (2025-08-07 21:11:29.962257)  can0  02F   [2]  B7 03
 (2025-08-07 21:11:29.963741)  can0  043   [4]  00 E9 A8 00
 (2025-08-07 21:11:29.964530)  can0  098   [1]  00
 (2025-08-07 21:11:29.969249)  can0  02F   [2]  E1 00
 (2025-08-07 21:11:29.971517)  can0  043   [4]  00 4A 2B 00
 (2025-08-07 21:11:29.971627)  can0  098   [1]  01
 (2025-08-07 21:11:29.973554)  can0  043   [4]  00 E9 A8 00
 (2025-08-07 21:11:29.974355)  can0  098   [1]  00
 (2025-08-07 21:11:29.976798)  can0  02F   [2]  B7 03
 (2025-08-07 21:11:29.981580)  can0  043   [4]  00 4A 2B 00
 (2025-08-07 21:11:29.981653)  can0  098   [1]  01
 (2025-08-07 21:11:29.983744)  can0  043   [4]  00 E9 A8 00
 (2025-08-07 21:11:29.984564)  can0  098   [1]  00
 (2025-08-07 21:11:29.985323)  can0  02F   [2]  E1 00
 (2025-08-07 21:11:29.991468)  can0  043   [4]  00 4A 2B 00
 (2025-08-07 21:11:29.991565)  can0  098   [1]  01
 (2025-08-07 21:11:29.993091)  can0  02F   [2]  C1 03
 (2025-08-07 21:11:29.993637)  can0  043   [4]  00 E9 A8 00
 (2025-08-07 21:11:29.994371)  can0  098   [1]  00
 (2025-08-07 21:11:29.999880)  can0  02F   [2]  EB 00
 (2025-08-07 21:11:30.001709)  can0  043   [4]  00 4A 2B 00
 (2025-08-07 21:11:30.001828)  can0  098   [1]  01
 (2025-08-07 21:11:30.003644)  can0  043   [4]  00 E9 A8 00
 (2025-08-07 21:11:30.004387)  can0  098   [1]  00
 (2025-08-07 21:11:30.007079)  can0  02F   [2]  C1 03
 (2025-08-07 21:11:30.012036)  can0  043   [4]  00 4A 2B 00
 (2025-08-07 21:11:30.012136)  can0  098   [1]  01
 (2025-08-07 21:11:30.014606)  can0  043   [4]  00 E9 A8 00
 (2025-08-07 21:11:30.014885)  can0  098   [1]  00
 (2025-08-07 21:11:30.016082)  can0  02F   [2]  EB 00
 (2025-08-07 21:11:30.021850)  can0  02F   [2]  C1 03
 (2025-08-07 21:11:30.022021)  can0  043   [4]  00 4A 2B 00
 (2025-08-07 21:11:30.022129)  can0  098   [1]  01
 (2025-08-07 21:11:30.023640)  can0  043   [4]  00 E9 A8 00
 (2025-08-07 21:11:30.024372)  can0  098   [1]  00
 (2025-08-07 21:11:30.031368)  can0  02F   [2]  F5 00
 (2025-08-07 21:11:30.031998)  can0  043   [4]  00 4A 2B 00
 (2025-08-07 21:11:30.032103)  can0  098   [1]  01
 (2025-08-07 21:11:30.032871)  can0  043   [4]  00 E9 A8 00
 (2025-08-07 21:11:30.033657)  can0  098   [1]  00
 (2025-08-07 21:11:30.038747)  can0  02F   [2]  CB 03
 (2025-08-07 21:11:30.041980)  can0  043   [4]  00 4A 2B 00
 (2025-08-07 21:11:30.042085)  can0  098   [1]  01
 (2025-08-07 21:11:30.042819)  can0  043   [4]  00 E9 A8 00
 (2025-08-07 21:11:30.043668)  can0  098   [1]  00
 (2025-08-07 21:11:30.047150)  can0  02F   [2]  F5 00
 (2025-08-07 21:11:30.051979)  can0  043   [4]  00 4A 2B 00
 (2025-08-07 21:11:30.052083)  can0  098   [1]  01
 (2025-08-07 21:11:30.052886)  can0  043   [4]  00 E9 A8 00
 (2025-08-07 21:11:30.053649)  can0  098   [1]  00
 (2025-08-07 21:11:30.054744)  can0  02F   [2]  CB 03
 (2025-08-07 21:11:30.061996)  can0  043   [4]  00 4A 2B 00
 (2025-08-07 21:11:30.062062)  can0  098   [1]  01
 (2025-08-07 21:11:30.062216)  can0  02F   [2]  F5 00
 (2025-08-07 21:11:30.063958)  can0  043   [4]  00 E9 A8 00
 (2025-08-07 21:11:30.064236)  can0  098   [1]  00
 (2025-08-07 21:11:30.067972)  can0  02F   [2]  CB 03
 (2025-08-07 21:11:30.071986)  can0  043   [4]  00 4A 2B 00
 (2025-08-07 21:11:30.072095)  can0  098   [1]  01
 (2025-08-07 21:11:30.072881)  can0  043   [4]  00 E9 A8 00
 (2025-08-07 21:11:30.073613)  can0  098   [1]  00
 (2025-08-07 21:11:30.077358)  can0  02F   [2]  FF 00
 (2025-08-07 21:11:30.082146)  can0  043   [4]  00 4A 2B 00
 (2025-08-07 21:11:30.082251)  can0  098   [1]  01
 (2025-08-07 21:11:30.082771)  can0  02F   [2]  D6 03
 (2025-08-07 21:11:30.083805)  can0  043   [4]  00 E9 A8 00
 (2025-08-07 21:11:30.084441)  can0  098   [1]  00
 (2025-08-07 21:11:30.091989)  can0  043   [4]  00 4A 2B 00
 (2025-08-07 21:11:30.092076)  can0  098   [1]  01
 (2025-08-07 21:11:30.093350)  can0  02F   [2]  FF 00
 (2025-08-07 21:11:30.094050)  can0  043   [4]  00 E9 A8 00
 (2025-08-07 21:11:30.094375)  can0  098   [1]  00
 (2025-08-07 21:11:30.096905)  can0  02F   [2]  D6 03
 (2025-08-07 21:11:30.102023)  can0  043   [4]  00 4A 2B 00
 (2025-08-07 21:11:30.102115)  can0  098   [1]  01
 (2025-08-07 21:11:30.104201)  can0  043   [4]  00 E9 A8 00
 (2025-08-07 21:11:30.104498)  can0  098   [1]  00
 (2025-08-07 21:11:30.108248)  can0  02F   [2]  FF 00
 (2025-08-07 21:11:30.112043)  can0  043   [4]  00 4A 2B 00
 (2025-08-07 21:11:30.112121)  can0  098   [1]  01
 (2025-08-07 21:11:30.112411)  can0  02F   [2]  D6 03
 (2025-08-07 21:11:30.113021)  can0  043   [4]  00 E9 A8 00
 (2025-08-07 21:11:30.113824)  can0  098   [1]  00
 (2025-08-07 21:11:30.122034)  can0  043   [4]  00 4A 2B 00
 (2025-08-07 21:11:30.122115)  can0  098   [1]  01
 (2025-08-07 21:11:30.122720)  can0  043   [4]  00 E9 A8 00
 (2025-08-07 21:11:30.123216)  can0  02F   [2]  09 01
 (2025-08-07 21:11:30.123768)  can0  098   [1]  00
 (2025-08-07 21:11:30.126804)  can0  02F   [2]  E0 03
 (2025-08-07 21:11:30.131983)  can0  043   [4]  00 4A 2B 00
 (2025-08-07 21:11:30.132067)  can0  098   [1]  01
 (2025-08-07 21:11:30.132808)  can0  043   [4]  00 E9 A8 00
 (2025-08-07 21:11:30.133719)  can0  098   [1]  00
 (2025-08-07 21:11:30.139218)  can0  02F   [2]  09 01
 (2025-08-07 21:11:30.141721)  can0  02F   [2]  E0 03
 (2025-08-07 21:11:30.141941)  can0  043   [4]  00 4A 2B 00
 (2025-08-07 21:11:30.142054)  can0  098   [1]  01
 (2025-08-07 21:11:30.142566)  can0  043   [4]  00 E9 A8 00
 (2025-08-07 21:11:30.143446)  can0  098   [1]  00
 (2025-08-07 21:11:30.151976)  can0  043   [4]  00 4A 2B 00
 (2025-08-07 21:11:30.152059)  can0  098   [1]  01
 (2025-08-07 21:11:30.153872)  can0  043   [4]  00 E9 A8 00
 (2025-08-07 21:11:30.154157)  can0  098   [1]  00
 (2025-08-07 21:11:30.155347)  can0  02F   [2]  09 01
 (2025-08-07 21:11:30.156747)  can0  02F   [2]  EA 03
 (2025-08-07 21:11:30.161948)  can0  043   [4]  00 4A 2B 00
 (2025-08-07 21:11:30.162030)  can0  098   [1]  01
 (2025-08-07 21:11:30.163269)  can0  043   [4]  00 E9 A8 00
 (2025-08-07 21:11:30.163756)  can0  098   [1]  00
 (2025-08-07 21:11:30.170749)  can0  02F   [2]  14 01
 (2025-08-07 21:11:30.172023)  can0  043   [4]  00 4A 2B 00
 (2025-08-07 21:11:30.172107)  can0  098   [1]  01
 (2025-08-07 21:11:30.172345)  can0  02F   [2]  EA 03
 (2025-08-07 21:11:30.172979)  can0  043   [4]  00 E9 A8 00
 (2025-08-07 21:11:30.174230)  can0  098   [1]  00
 (2025-08-07 21:11:30.181952)  can0  043   [4]  00 4A 2B 00
 (2025-08-07 21:11:30.182031)  can0  098   [1]  01
 (2025-08-07 21:11:30.182697)  can0  043   [4]  00 E9 A8 00
 (2025-08-07 21:11:30.184102)  can0  098   [1]  00
 (2025-08-07 21:11:30.186137)  can0  02F   [2]  14 01
 (2025-08-07 21:11:30.186958)  can0  02F   [2]  EA 03
 (2025-08-07 21:11:30.191972)  can0  043   [4]  00 4A 2B 00
 (2025-08-07 21:11:30.192043)  can0  098   [1]  01
 (2025-08-07 21:11:30.193059)  can0  043   [4]  00 E9 A8 00
 (2025-08-07 21:11:30.194467)  can0  098   [1]  00
 (2025-08-07 21:11:30.200972)  can0  02F   [2]  14 01
 (2025-08-07 21:11:30.201890)  can0  043   [4]  00 4A 2B 00
 (2025-08-07 21:11:30.202002)  can0  02F   [2]  F4 03
 (2025-08-07 21:11:30.202128)  can0  098   [1]  01
 (2025-08-07 21:11:30.202865)  can0  043   [4]  00 E9 A8 00
 (2025-08-07 21:11:30.203782)  can0  098   [1]  00
 (2025-08-07 21:11:30.211956)  can0  043   [4]  00 4A 2B 00
 (2025-08-07 21:11:30.212033)  can0  098   [1]  01
 (2025-08-07 21:11:30.212874)  can0  043   [4]  00 E9 A8 00
 (2025-08-07 21:11:30.213744)  can0  098   [1]  00
 (2025-08-07 21:11:30.216672)  can0  02F   [2]  F4 03
 (2025-08-07 21:11:30.217119)  can0  02F   [2]  1E 01
 (2025-08-07 21:11:30.221891)  can0  043   [4]  00 4A 2B 00
 (2025-08-07 21:11:30.221994)  can0  098   [1]  01
 (2025-08-07 21:11:30.222736)  can0  043   [4]  00 E9 A8 00
 (2025-08-07 21:11:30.223675)  can0  098   [1]  00
 (2025-08-07 21:11:30.231932)  can0  043   [4]  00 4A 2B 00
 (2025-08-07 21:11:30.232049)  can0  02F   [2]  F4 03
 (2025-08-07 21:11:30.232166)  can0  098   [1]  01
 (2025-08-07 21:11:30.232880)  can0  043   [4]  00 E9 A8 00
 (2025-08-07 21:11:30.233032)  can0  02F   [2]  1E 01
 (2025-08-07 21:11:30.233702)  can0  098   [1]  00
 (2025-08-07 21:11:30.241863)  can0  043   [4]  00 4A 2B 00
 (2025-08-07 21:11:30.241932)  can0  098   [1]  01
 (2025-08-07 21:11:30.242998)  can0  043   [4]  00 E9 A8 00
 (2025-08-07 21:11:30.243857)  can0  098   [1]  00
 (2025-08-07 21:11:30.248108)  can0  02F   [2]  FE 03
 (2025-08-07 21:11:30.248419)  can0  02F   [2]  FE 03
 (2025-08-07 21:11:30.248944)  can0  02F   [2]  1E 01
 (2025-08-07 21:11:30.251956)  can0  043   [4]  00 4A 2B 00
 (2025-08-07 21:11:30.252051)  can0  098   [1]  01
 (2025-08-07 21:11:30.252830)  can0  043   [4]  00 E9 A8 00
 (2025-08-07 21:11:30.253668)  can0  098   [1]  00
 (2025-08-07 21:11:30.261946)  can0  043   [4]  00 4A 2B 00
 (2025-08-07 21:11:30.262022)  can0  098   [1]  01
 (2025-08-07 21:11:30.262262)  can0  02F   [2]  FE 03
 (2025-08-07 21:11:30.263311)  can0  043   [4]  00 E9 A8 00
 (2025-08-07 21:11:30.263992)  can0  02F   [2]  28 01
 (2025-08-07 21:11:30.264061)  can0  098   [1]  00
 (2025-08-07 21:11:30.272016)  can0  043   [4]  00 4A 2B 00
 (2025-08-07 21:11:30.272093)  can0  098   [1]  01
 (2025-08-07 21:11:30.274055)  can0  043   [4]  00 E9 A8 00
 (2025-08-07 21:11:30.274335)  can0  098   [1]  00
 (2025-08-07 21:11:30.277045)  can0  02F   [2]  FE 03
 (2025-08-07 21:11:30.279419)  can0  02F   [2]  28 01
 (2025-08-07 21:11:30.281961)  can0  043   [4]  00 4A 2B 00
 (2025-08-07 21:11:30.282060)  can0  098   [1]  01
 (2025-08-07 21:11:30.284197)  can0  043   [4]  00 E9 A8 00
 (2025-08-07 21:11:30.284480)  can0  098   [1]  00
 (2025-08-07 21:11:30.291948)  can0  043   [4]  00 4A 2B 00
 (2025-08-07 21:11:30.292022)  can0  098   [1]  01
 (2025-08-07 21:11:30.292418)  can0  02F   [2]  0A 00
 (2025-08-07 21:11:30.292849)  can0  043   [4]  00 E9 A8 00
 (2025-08-07 21:11:30.293653)  can0  098   [1]  00
 (2025-08-07 21:11:30.295454)  can0  02F   [2]  32 01
 (2025-08-07 21:11:30.301973)  can0  043   [4]  00 4A 2B 00
 (2025-08-07 21:11:30.302074)  can0  098   [1]  01
 (2025-08-07 21:11:30.302827)  can0  043   [4]  00 E9 A8 00
 (2025-08-07 21:11:30.303708)  can0  098   [1]  00
 (2025-08-07 21:11:30.308109)  can0  02F   [2]  0A 00
 (2025-08-07 21:11:30.310108)  can0  02F   [2]  32 01
 (2025-08-07 21:11:30.311938)  can0  043   [4]  00 4A 2B 00
 (2025-08-07 21:11:30.312041)  can0  098   [1]  01
 (2025-08-07 21:11:30.312762)  can0  043   [4]  00 E9 A8 00
 (2025-08-07 21:11:30.313578)  can0  098   [1]  00
 (2025-08-07 21:11:30.321918)  can0  043   [4]  00 4A 2B 00
 (2025-08-07 21:11:30.321991)  can0  098   [1]  01
 (2025-08-07 21:11:30.322230)  can0  02F   [2]  0A 00
 (2025-08-07 21:11:30.323247)  can0  043   [4]  00 E9 A8 00
 (2025-08-07 21:11:30.324038)  can0  098   [1]  00
 (2025-08-07 21:11:30.325293)  can0  02F   [2]  32 01
 (2025-08-07 21:11:30.331287)  can0  043   [4]  00 4A 2B 00
 (2025-08-07 21:11:30.331390)  can0  098   [1]  01
 (2025-08-07 21:11:30.333689)  can0  043   [4]  00 E9 A8 00
 (2025-08-07 21:11:30.333959)  can0  098   [1]  00
 (2025-08-07 21:11:30.337023)  can0  02F   [2]  14 00
 (2025-08-07 21:11:30.340684)  can0  02F   [2]  3D 01
 (2025-08-07 21:11:30.341433)  can0  043   [4]  00 4A 2B 00
 (2025-08-07 21:11:30.341539)  can0  098   [1]  01
 (2025-08-07 21:11:30.343357)  can0  043   [4]  00 E9 A8 00
 (2025-08-07 21:11:30.344104)  can0  098   [1]  00
 (2025-08-07 21:11:30.351814)  can0  043   [4]  00 4A 2B 00
 (2025-08-07 21:11:30.351885)  can0  098   [1]  01
 (2025-08-07 21:11:30.352611)  can0  02F   [2]  14 00
 (2025-08-07 21:11:30.353487)  can0  043   [4]  00 E9 A8 00
 (2025-08-07 21:11:30.354136)  can0  098   [1]  00
 (2025-08-07 21:11:30.356086)  can0  02F   [2]  3D 01
 (2025-08-07 21:11:30.362474)  can0  043   [4]  00 4A 2B 00
 (2025-08-07 21:11:30.362576)  can0  098   [1]  01
 (2025-08-07 21:11:30.363393)  can0  043   [4]  00 E9 A8 00
 (2025-08-07 21:11:30.364194)  can0  098   [1]  00
 (2025-08-07 21:11:30.367425)  can0  02F   [2]  14 00
 (2025-08-07 21:11:30.371618)  can0  02F   [2]  3D 01
 (2025-08-07 21:11:30.372700)  can0  043   [4]  00 4A 2B 00
 (2025-08-07 21:11:30.372804)  can0  098   [1]  01
 (2025-08-07 21:11:30.373719)  can0  043   [4]  00 E9 A8 00
 (2025-08-07 21:11:30.374444)  can0  098   [1]  00
 (2025-08-07 21:11:30.382762)  can0  043   [4]  00 4A 2B 00
 (2025-08-07 21:11:30.382831)  can0  098   [1]  01
 (2025-08-07 21:11:30.384648)  can0  043   [4]  00 E9 A8 00
 (2025-08-07 21:11:30.384924)  can0  098   [1]  00
 (2025-08-07 21:11:30.385178)  can0  02F   [2]  1E 00
 (2025-08-07 21:11:30.386902)  can0  02F   [2]  47 01
 (2025-08-07 21:11:30.392745)  can0  043   [4]  00 4A 2B 00
 (2025-08-07 21:11:30.392845)  can0  098   [1]  01
 (2025-08-07 21:11:30.394581)  can0  043   [4]  00 E9 A8 00
 (2025-08-07 21:11:30.394873)  can0  098   [1]  00
 (2025-08-07 21:11:30.398769)  can0  02F   [2]  1E 00
 (2025-08-07 21:11:30.402087)  can0  02F   [2]  47 01
 (2025-08-07 21:11:30.403080)  can0  043   [4]  00 4A 2B 00
 (2025-08-07 21:11:30.403150)  can0  098   [1]  01
 (2025-08-07 21:11:30.404842)  can0  043   [4]  00 E9 A8 00
 (2025-08-07 21:11:30.405119)  can0  098   [1]  00
 (2025-08-07 21:11:30.412966)  can0  043   [4]  00 4A 2B 00
 (2025-08-07 21:11:30.413051)  can0  098   [1]  01
 (2025-08-07 21:11:30.413919)  can0  043   [4]  00 E9 A8 00
 (2025-08-07 21:11:30.414826)  can0  098   [1]  00
 (2025-08-07 21:11:30.415765)  can0  02F   [2]  1E 00
 (2025-08-07 21:11:30.417281)  can0  02F   [2]  51 01
 (2025-08-07 21:11:30.423119)  can0  043   [4]  00 4A 2B 00
 (2025-08-07 21:11:30.423219)  can0  098   [1]  01
 (2025-08-07 21:11:30.423853)  can0  043   [4]  00 E9 A8 00
 (2025-08-07 21:11:30.424734)  can0  098   [1]  00
 (2025-08-07 21:11:30.429002)  can0  02F   [2]  28 00
 (2025-08-07 21:11:30.432525)  can0  02F   [2]  51 01
 (2025-08-07 21:11:30.433243)  can0  043   [4]  00 4A 2B 00
 (2025-08-07 21:11:30.433386)  can0  043   [4]  00 E9 A8 00
 (2025-08-07 21:11:30.433511)  can0  098   [1]  01
 (2025-08-07 21:11:30.434168)  can0  098   [1]  00
 (2025-08-07 21:11:30.442698)  can0  043   [4]  00 4A 2B 00
 (2025-08-07 21:11:30.442768)  can0  098   [1]  01
 (2025-08-07 21:11:30.443472)  can0  043   [4]  00 E9 A8 00
 (2025-08-07 21:11:30.444392)  can0  098   [1]  00
 (2025-08-07 21:11:30.445178)  can0  02F   [2]  28 00
 (2025-08-07 21:11:30.448213)  can0  02F   [2]  51 01
 (2025-08-07 21:11:30.452596)  can0  043   [4]  00 4A 2B 00
 (2025-08-07 21:11:30.452702)  can0  098   [1]  01
 (2025-08-07 21:11:30.453517)  can0  043   [4]  00 E9 A8 00
 (2025-08-07 21:11:30.454713)  can0  098   [1]  00
 (2025-08-07 21:11:30.459719)  can0  02F   [2]  28 00
 (2025-08-07 21:11:30.462824)  can0  043   [4]  00 4A 2B 00
 (2025-08-07 21:11:30.462979)  can0  02F   [2]  5B 01
 (2025-08-07 21:11:30.463036)  can0  098   [1]  01
 (2025-08-07 21:11:30.463856)  can0  043   [4]  00 E9 A8 00
 (2025-08-07 21:11:30.464909)  can0  098   [1]  00
 (2025-08-07 21:11:30.472857)  can0  043   [4]  00 4A 2B 00
 (2025-08-07 21:11:30.472927)  can0  098   [1]  01
 (2025-08-07 21:11:30.474829)  can0  043   [4]  00 E9 A8 00
 (2025-08-07 21:11:30.475165)  can0  098   [1]  00
 (2025-08-07 21:11:30.475462)  can0  02F   [2]  33 00
 (2025-08-07 21:11:30.478174)  can0  02F   [2]  5B 01
 (2025-08-07 21:11:30.482768)  can0  043   [4]  00 4A 2B 00
 (2025-08-07 21:11:30.482912)  can0  043   [4]  00 E9 A8 00
 (2025-08-07 21:11:30.483039)  can0  098   [1]  01
 (2025-08-07 21:11:30.483726)  can0  098   [1]  00
 (2025-08-07 21:11:30.490368)  can0  02F   [2]  33 00
 (2025-08-07 21:11:30.492864)  can0  043   [4]  00 E9 A8 00
 (2025-08-07 21:11:30.493035)  can0  043   [4]  00 4A 2B 00
 (2025-08-07 21:11:30.493145)  can0  098   [1]  01
 (2025-08-07 21:11:30.493586)  can0  098   [1]  00
 (2025-08-07 21:11:30.495881)  can0  02F   [2]  66 01
 (2025-08-07 21:11:30.503073)  can0  043   [4]  00 4A 2B 00
 (2025-08-07 21:11:30.503151)  can0  098   [1]  01
 (2025-08-07 21:11:30.503759)  can0  043   [4]  00 E9 A8 00
 (2025-08-07 21:11:30.504239)  can0  098   [1]  00
 (2025-08-07 21:11:30.504844)  can0  02F   [2]  33 00
 (2025-08-07 21:11:30.508333)  can0  02F   [2]  66 01
 (2025-08-07 21:11:30.512717)  can0  043   [4]  00 E9 A8 00
 (2025-08-07 21:11:30.513185)  can0  043   [4]  00 4A 2B 00
 (2025-08-07 21:11:30.513261)  can0  098   [1]  01
 (2025-08-07 21:11:30.513496)  can0  098   [1]  00
 (2025-08-07 21:11:30.520251)  can0  02F   [2]  3D 00
 (2025-08-07 21:11:30.523230)  can0  043   [4]  00 4A 2B 00
 (2025-08-07 21:11:30.523309)  can0  098   [1]  01
 (2025-08-07 21:11:30.523456)  can0  02F   [2]  66 01
 (2025-08-07 21:11:30.523604)  can0  043   [4]  00 E9 A8 00
 (2025-08-07 21:11:30.523849)  can0  098   [1]  00
 (2025-08-07 21:11:30.533044)  can0  043   [4]  00 4A 2B 00
 (2025-08-07 21:11:30.533121)  can0  098   [1]  01
 (2025-08-07 21:11:30.533879)  can0  043   [4]  00 E9 A8 00
 (2025-08-07 21:11:30.534237)  can0  098   [1]  00
 (2025-08-07 21:11:30.535309)  can0  02F   [2]  3D 00
 (2025-08-07 21:11:30.538430)  can0  02F   [2]  70 01
 (2025-08-07 21:11:30.542516)  can0  043   [4]  00 4A 2B 00
 (2025-08-07 21:11:30.542664)  can0  043   [4]  00 E9 A8 00
 (2025-08-07 21:11:30.542809)  can0  098   [1]  01
 (2025-08-07 21:11:30.543570)  can0  098   [1]  00
 (2025-08-07 21:11:30.550411)  can0  02F   [2]  3D 00
 (2025-08-07 21:11:30.552640)  can0  043   [4]  00 E9 A8 00
 (2025-08-07 21:11:30.552861)  can0  043   [4]  00 4A 2B 00
 (2025-08-07 21:11:30.552960)  can0  098   [1]  01
 (2025-08-07 21:11:30.553383)  can0  098   [1]  00
 (2025-08-07 21:11:30.554220)  can0  02F   [2]  70 01
 (2025-08-07 21:11:30.562797)  can0  043   [4]  00 4A 2B 00
 (2025-08-07 21:11:30.562984)  can0  043   [4]  00 E9 A8 00
 (2025-08-07 21:11:30.563080)  can0  098   [1]  01
 (2025-08-07 21:11:30.563696)  can0  098   [1]  00
 (2025-08-07 21:11:30.565229)  can0  02F   [2]  47 00
 (2025-08-07 21:11:30.568920)  can0  02F   [2]  70 01
 (2025-08-07 21:11:30.572315)  can0  043   [4]  00 4A 2B 00
 (2025-08-07 21:11:30.572419)  can0  098   [1]  01
 (2025-08-07 21:11:30.573372)  can0  043   [4]  00 E9 A8 00
 (2025-08-07 21:11:30.574133)  can0  098   [1]  00
 (2025-08-07 21:11:30.580967)  can0  02F   [2]  47 00
 (2025-08-07 21:11:30.582473)  can0  043   [4]  00 4A 2B 00
 (2025-08-07 21:11:30.582558)  can0  098   [1]  01
 (2025-08-07 21:11:30.583533)  can0  043   [4]  00 E9 A8 00
 (2025-08-07 21:11:30.584295)  can0  098   [1]  00
 (2025-08-07 21:11:30.585902)  can0  02F   [2]  7A 01
 (2025-08-07 21:11:30.592572)  can0  043   [4]  00 4A 2B 00
 (2025-08-07 21:11:30.592672)  can0  098   [1]  01
 (2025-08-07 21:11:30.594662)  can0  043   [4]  00 E9 A8 00
 (2025-08-07 21:11:30.594976)  can0  098   [1]  00
 (2025-08-07 21:11:30.596583)  can0  02F   [2]  51 00
 (2025-08-07 21:11:30.600020)  can0  02F   [2]  7A 01
 (2025-08-07 21:11:30.602679)  can0  043   [4]  00 4A 2B 00
 (2025-08-07 21:11:30.602775)  can0  098   [1]  01
 (2025-08-07 21:11:30.603746)  can0  043   [4]  00 E9 A8 00
 (2025-08-07 21:11:30.604575)  can0  098   [1]  00
 (2025-08-07 21:11:30.611432)  can0  02F   [2]  51 00
 (2025-08-07 21:11:30.612776)  can0  043   [4]  00 4A 2B 00
 (2025-08-07 21:11:30.612849)  can0  098   [1]  01
 (2025-08-07 21:11:30.613772)  can0  043   [4]  00 E9 A8 00
 (2025-08-07 21:11:30.614591)  can0  098   [1]  00
 (2025-08-07 21:11:30.615904)  can0  02F   [2]  7A 01
 (2025-08-07 21:11:30.622771)  can0  043   [4]  00 4A 2B 00
 (2025-08-07 21:11:30.622870)  can0  098   [1]  01
 (2025-08-07 21:11:30.623705)  can0  043   [4]  00 E9 A8 00
 (2025-08-07 21:11:30.624566)  can0  098   [1]  00
 (2025-08-07 21:11:30.625718)  can0  02F   [2]  51 00
 (2025-08-07 21:11:30.630868)  can0  02F   [2]  84 01
 (2025-08-07 21:11:30.632756)  can0  043   [4]  00 4A 2B 00
 (2025-08-07 21:11:30.632860)  can0  098   [1]  01
 (2025-08-07 21:11:30.633680)  can0  043   [4]  00 E9 A8 00
 (2025-08-07 21:11:30.634501)  can0  098   [1]  00
 (2025-08-07 21:11:30.640760)  can0  02F   [2]  5C 00
 (2025-08-07 21:11:30.642740)  can0  043   [4]  00 4A 2B 00
 (2025-08-07 21:11:30.642812)  can0  098   [1]  01
 (2025-08-07 21:11:30.643667)  can0  043   [4]  00 E9 A8 00
 (2025-08-07 21:11:30.644535)  can0  098   [1]  00
 (2025-08-07 21:11:30.646079)  can0  02F   [2]  84 01
 (2025-08-07 21:11:30.652941)  can0  043   [4]  00 4A 2B 00
 (2025-08-07 21:11:30.653044)  can0  098   [1]  01
 (2025-08-07 21:11:30.654787)  can0  043   [4]  00 E9 A8 00
 (2025-08-07 21:11:30.655062)  can0  098   [1]  00
 (2025-08-07 21:11:30.655755)  can0  02F   [2]  5C 00
 (2025-08-07 21:11:30.660736)  can0  02F   [2]  84 01
 (2025-08-07 21:11:30.662889)  can0  043   [4]  00 4A 2B 00
 (2025-08-07 21:11:30.662989)  can0  098   [1]  01
 (2025-08-07 21:11:30.663637)  can0  043   [4]  00 E9 A8 00
 (2025-08-07 21:11:30.664522)  can0  098   [1]  00
 (2025-08-07 21:11:30.670706)  can0  02F   [2]  5C 00
 (2025-08-07 21:11:30.672844)  can0  043   [4]  00 4A 2B 00
 (2025-08-07 21:11:30.672920)  can0  098   [1]  01
 (2025-08-07 21:11:30.673593)  can0  043   [4]  00 E9 A8 00
 (2025-08-07 21:11:30.674383)  can0  098   [1]  00
 (2025-08-07 21:11:30.676021)  can0  02F   [2]  8E 01
 (2025-08-07 21:11:30.682797)  can0  043   [4]  00 4A 2B 00
 (2025-08-07 21:11:30.682895)  can0  098   [1]  01
 (2025-08-07 21:11:30.683658)  can0  043   [4]  00 E9 A8 00
 (2025-08-07 21:11:30.684575)  can0  098   [1]  00
 (2025-08-07 21:11:30.685748)  can0  02F   [2]  66 00
 (2025-08-07 21:11:30.690436)  can0  02F   [2]  8E 01
 (2025-08-07 21:11:30.693022)  can0  043   [4]  00 4A 2B 00
 (2025-08-07 21:11:30.693135)  can0  098   [1]  01
 (2025-08-07 21:11:30.693587)  can0  043   [4]  00 E9 A8 00
 (2025-08-07 21:11:30.694604)  can0  098   [1]  00
 (2025-08-07 21:11:30.701072)  can0  02F   [2]  66 00
 (2025-08-07 21:11:30.702989)  can0  043   [4]  00 4A 2B 00
 (2025-08-07 21:11:30.703062)  can0  098   [1]  01
 (2025-08-07 21:11:30.703539)  can0  043   [4]  00 E9 A8 00
 (2025-08-07 21:11:30.704385)  can0  098   [1]  00
 (2025-08-07 21:11:30.705971)  can0  02F   [2]  8E 01
 (2025-08-07 21:11:30.712816)  can0  043   [4]  00 4A 2B 00
 (2025-08-07 21:11:30.712908)  can0  098   [1]  01
 (2025-08-07 21:11:30.713564)  can0  043   [4]  00 E9 A8 00
 (2025-08-07 21:11:30.714359)  can0  098   [1]  00
 (2025-08-07 21:11:30.716094)  can0  02F   [2]  66 00
 (2025-08-07 21:11:30.720020)  can0  02F   [2]  99 01
 (2025-08-07 21:11:30.722771)  can0  043   [4]  00 4A 2B 00
 (2025-08-07 21:11:30.722880)  can0  098   [1]  01
 (2025-08-07 21:11:30.723657)  can0  043   [4]  00 E9 A8 00
 (2025-08-07 21:11:30.724466)  can0  098   [1]  00
 (2025-08-07 21:11:30.731181)  can0  02F   [2]  70 00
 (2025-08-07 21:11:30.732880)  can0  043   [4]  00 4A 2B 00
 (2025-08-07 21:11:30.732981)  can0  098   [1]  01
 (2025-08-07 21:11:30.733671)  can0  043   [4]  00 E9 A8 00
 (2025-08-07 21:11:30.734457)  can0  098   [1]  00
 (2025-08-07 21:11:30.735099)  can0  02F   [2]  99 01
 (2025-08-07 21:11:30.742864)  can0  043   [4]  00 4A 2B 00
 (2025-08-07 21:11:30.742987)  can0  098   [1]  01
 (2025-08-07 21:11:30.744667)  can0  043   [4]  00 E9 A8 00
 (2025-08-07 21:11:30.744948)  can0  098   [1]  00
 (2025-08-07 21:11:30.745721)  can0  02F   [2]  70 00
 (2025-08-07 21:11:30.749947)  can0  02F   [2]  99 01
 (2025-08-07 21:11:30.752817)  can0  043   [4]  00 4A 2B 00
 (2025-08-07 21:11:30.752919)  can0  098   [1]  00
 (2025-08-07 21:11:30.753549)  can0  043   [4]  00 E9 A8 00
 (2025-08-07 21:11:30.754345)  can0  098   [1]  00
 (2025-08-07 21:11:30.761148)  can0  02F   [2]  70 00
 (2025-08-07 21:11:30.762843)  can0  043   [4]  00 4A 2B 00
 (2025-08-07 21:11:30.762978)  can0  098   [1]  00
 (2025-08-07 21:11:30.763710)  can0  043   [4]  00 E9 A8 00
 (2025-08-07 21:11:30.764581)  can0  098   [1]  00
 (2025-08-07 21:11:30.764972)  can0  02F   [2]  A3 01
 (2025-08-07 21:11:30.772821)  can0  043   [4]  00 4A 2B 00
 (2025-08-07 21:11:30.772918)  can0  098   [1]  00
 (2025-08-07 21:11:30.774735)  can0  043   [4]  00 E9 A8 00
 (2025-08-07 21:11:30.775014)  can0  098   [1]  00
 (2025-08-07 21:11:30.776027)  can0  02F   [2]  7A 00
 (2025-08-07 21:11:30.779930)  can0  02F   [2]  A3 01
 (2025-08-07 21:11:30.782784)  can0  043   [4]  00 4A 2B 00
 (2025-08-07 21:11:30.782854)  can0  098   [1]  00
 (2025-08-07 21:11:30.783016)  can0  043   [4]  00 E9 A8 00
 (2025-08-07 21:11:30.783834)  can0  098   [1]  00
 (2025-08-07 21:11:30.791672)  can0  02F   [2]  7A 00
 (2025-08-07 21:11:30.792903)  can0  043   [4]  00 4A 2B 00
 (2025-08-07 21:11:30.793037)  can0  043   [4]  00 E9 A8 00
 (2025-08-07 21:11:30.793166)  can0  098   [1]  00
 (2025-08-07 21:11:30.793725)  can0  098   [1]  00
 (2025-08-07 21:11:30.794996)  can0  02F   [2]  A3 01
 (2025-08-07 21:11:30.802666)  can0  098   [1]  00
 (2025-08-07 21:11:30.802830)  can0  043   [4]  00 4A 2B 00
 (2025-08-07 21:11:30.802971)  can0  098   [1]  00
 (2025-08-07 21:11:30.803677)  can0  043   [4]  00 87 1E 00
 (2025-08-07 21:11:30.804864)  can0  043   [4]  00 87 1E 00
 (2025-08-07 21:11:30.805499)  can0  098   [1]  00
 (2025-08-07 21:11:30.806512)  can0  098   [1]  00
 (2025-08-07 21:11:30.807613)  can0  02F   [2]  7A 00
 (2025-08-07 21:11:30.809907)  can0  02F   [2]  AD 01
 (2025-08-07 21:11:30.812764)  can0  043   [4]  00 4A 2B 00
 (2025-08-07 21:11:30.812907)  can0  043   [4]  00 87 1E 00
 (2025-08-07 21:11:30.813033)  can0  098   [1]  00
 (2025-08-07 21:11:30.813720)  can0  098   [1]  01
 (2025-08-07 21:11:30.821144)  can0  02F   [2]  84 00
 (2025-08-07 21:11:30.822719)  can0  043   [4]  00 87 1E 00
 (2025-08-07 21:11:30.822950)  can0  043   [4]  00 4A 2B 00
 (2025-08-07 21:11:30.823023)  can0  098   [1]  00
 (2025-08-07 21:11:30.823544)  can0  098   [1]  01
 (2025-08-07 21:11:30.824997)  can0  02F   [2]  AD 01
 (2025-08-07 21:11:30.832868)  can0  043   [4]  00 4A 2B 00
 (2025-08-07 21:11:30.832985)  can0  098   [1]  00
 (2025-08-07 21:11:30.833921)  can0  043   [4]  00 87 1E 00
 (2025-08-07 21:11:30.834207)  can0  098   [1]  01
 (2025-08-07 21:11:30.835949)  can0  02F   [2]  84 00
 (2025-08-07 21:11:30.839940)  can0  02F   [2]  AD 01
 (2025-08-07 21:11:30.842781)  can0  043   [4]  00 4A 2B 00
 (2025-08-07 21:11:30.842918)  can0  043   [4]  00 87 1E 00
 (2025-08-07 21:11:30.843050)  can0  098   [1]  00
 (2025-08-07 21:11:30.843642)  can0  098   [1]  01
 (2025-08-07 21:11:30.850843)  can0  02F   [2]  84 00
 (2025-08-07 21:11:30.852720)  can0  043   [4]  00 87 1E 00
 (2025-08-07 21:11:30.852890)  can0  043   [4]  00 4A 2B 00
 (2025-08-07 21:11:30.852996)  can0  098   [1]  00
 (2025-08-07 21:11:30.853451)  can0  098   [1]  01
 (2025-08-07 21:11:30.854967)  can0  02F   [2]  B7 01
 (2025-08-07 21:11:30.862347)  can0  043   [4]  00 4A 2B 00
 (2025-08-07 21:11:30.862421)  can0  098   [1]  00
 (2025-08-07 21:11:30.862773)  can0  043   [4]  00 87 1E 00
 (2025-08-07 21:11:30.863854)  can0  098   [1]  01
 (2025-08-07 21:11:30.865903)  can0  02F   [2]  8F 00
 (2025-08-07 21:11:30.870566)  can0  02F   [2]  B7 01
 (2025-08-07 21:11:30.872391)  can0  043   [4]  00 4A 2B 00
 (2025-08-07 21:11:30.872479)  can0  098   [1]  00
 (2025-08-07 21:11:30.873065)  can0  043   [4]  00 87 1E 00
 (2025-08-07 21:11:30.874175)  can0  098   [1]  01
 (2025-08-07 21:11:30.880904)  can0  02F   [2]  8F 00
 (2025-08-07 21:11:30.882462)  can0  043   [4]  00 4A 2B 00
 (2025-08-07 21:11:30.882539)  can0  098   [1]  00
 (2025-08-07 21:11:30.882815)  can0  043   [4]  00 87 1E 00
 (2025-08-07 21:11:30.883955)  can0  098   [1]  01
 (2025-08-07 21:11:30.886971)  can0  02F   [2]  C2 01
 (2025-08-07 21:11:30.892608)  can0  043   [4]  00 4A 2B 00
 (2025-08-07 21:11:30.892748)  can0  043   [4]  00 87 1E 00
 (2025-08-07 21:11:30.892909)  can0  098   [1]  00
 (2025-08-07 21:11:30.893651)  can0  098   [1]  01
 (2025-08-07 21:11:30.896138)  can0  02F   [2]  8F 00
 (2025-08-07 21:11:30.900991)  can0  02F   [2]  C2 01
 (2025-08-07 21:11:30.902812)  can0  043   [4]  00 4A 2B 00
 (2025-08-07 21:11:30.902879)  can0  098   [1]  00
 (2025-08-07 21:11:30.903662)  can0  043   [4]  00 87 1E 00
 (2025-08-07 21:11:30.903902)  can0  098   [1]  01
 (2025-08-07 21:11:30.911284)  can0  02F   [2]  99 00
 (2025-08-07 21:11:30.912854)  can0  043   [4]  00 4A 2B 00
 (2025-08-07 21:11:30.912995)  can0  043   [4]  00 87 1E 00
 (2025-08-07 21:11:30.913123)  can0  098   [1]  00
 (2025-08-07 21:11:30.913434)  can0  098   [1]  01
 (2025-08-07 21:11:30.916144)  can0  02F   [2]  CC 01
 (2025-08-07 21:11:30.922897)  can0  043   [4]  00 4A 2B 00
 (2025-08-07 21:11:30.922995)  can0  098   [1]  00
 (2025-08-07 21:11:30.924044)  can0  043   [4]  00 87 1E 00
 (2025-08-07 21:11:30.924674)  can0  098   [1]  01
 (2025-08-07 21:11:30.926411)  can0  02F   [2]  99 00
 (2025-08-07 21:11:30.931324)  can0  02F   [2]  CC 01
 (2025-08-07 21:11:30.933103)  can0  043   [4]  00 4A 2B 00
 (2025-08-07 21:11:30.933205)  can0  098   [1]  00
 (2025-08-07 21:11:30.934651)  can0  043   [4]  00 87 1E 00
 (2025-08-07 21:11:30.934901)  can0  098   [1]  01
 (2025-08-07 21:11:30.941313)  can0  02F   [2]  A3 00
 (2025-08-07 21:11:30.942961)  can0  043   [4]  00 4A 2B 00
 (2025-08-07 21:11:30.943039)  can0  098   [1]  00
 (2025-08-07 21:11:30.944232)  can0  043   [4]  00 87 1E 00
 (2025-08-07 21:11:30.944828)  can0  098   [1]  01
 (2025-08-07 21:11:30.947092)  can0  02F   [2]  D6 01
 (2025-08-07 21:11:30.953004)  can0  043   [4]  00 4A 2B 00
 (2025-08-07 21:11:30.953100)  can0  098   [1]  00
 (2025-08-07 21:11:30.955121)  can0  043   [4]  00 87 1E 00
 (2025-08-07 21:11:30.955368)  can0  098   [1]  01
 (2025-08-07 21:11:30.956751)  can0  02F   [2]  A3 00
 (2025-08-07 21:11:30.962625)  can0  02F   [2]  D6 01
 (2025-08-07 21:11:30.963084)  can0  043   [4]  00 4A 2B 00
 (2025-08-07 21:11:30.963200)  can0  098   [1]  00
 (2025-08-07 21:11:30.964483)  can0  043   [4]  00 87 1E 00
 (2025-08-07 21:11:30.965098)  can0  098   [1]  01
 (2025-08-07 21:11:30.972216)  can0  043   [4]  00 4A 2B 00
 (2025-08-07 21:11:30.972309)  can0  098   [1]  00
 (2025-08-07 21:11:30.972426)  can0  02F   [2]  A3 00
 (2025-08-07 21:11:30.974412)  can0  043   [4]  00 87 1E 00
 (2025-08-07 21:11:30.975011)  can0  098   [1]  01
 (2025-08-07 21:11:30.977644)  can0  02F   [2]  D6 01
 (2025-08-07 21:11:30.982504)  can0  043   [4]  00 4A 2B 00
 (2025-08-07 21:11:30.982606)  can0  098   [1]  00
 (2025-08-07 21:11:30.984512)  can0  043   [4]  00 87 1E 00
 (2025-08-07 21:11:30.985137)  can0  098   [1]  01
 (2025-08-07 21:11:30.986975)  can0  02F   [2]  AD 00
 (2025-08-07 21:11:30.992536)  can0  043   [4]  00 4A 2B 00
 (2025-08-07 21:11:30.992638)  can0  098   [1]  00
 (2025-08-07 21:11:30.992829)  can0  02F   [2]  E0 01
 (2025-08-07 21:11:30.993728)  can0  043   [4]  00 87 1E 00
 (2025-08-07 21:11:30.994357)  can0  098   [1]  01
 (2025-08-07 21:11:31.002548)  can0  043   [4]  00 4A 2B 00
 (2025-08-07 21:11:31.002639)  can0  098   [1]  00
 (2025-08-07 21:11:31.004705)  can0  02F   [2]  AD 00
 (2025-08-07 21:11:31.005002)  can0  043   [4]  00 87 1E 00
 (2025-08-07 21:11:31.005221)  can0  098   [1]  01
 (2025-08-07 21:11:31.009158)  can0  02F   [2]  E0 01
 (2025-08-07 21:11:31.012608)  can0  043   [4]  00 4A 2B 00
 (2025-08-07 21:11:31.012705)  can0  098   [1]  00
 (2025-08-07 21:11:31.013639)  can0  043   [4]  00 87 1E 00
 (2025-08-07 21:11:31.014259)  can0  098   [1]  01
 (2025-08-07 21:11:31.017655)  can0  02F   [2]  AD 00
 (2025-08-07 21:11:31.023007)  can0  043   [4]  00 4A 2B 00
 (2025-08-07 21:11:31.023104)  can0  098   [1]  00
 (2025-08-07 21:11:31.023327)  can0  02F   [2]  E0 01
 (2025-08-07 21:11:31.024773)  can0  043   [4]  00 87 1E 00
 (2025-08-07 21:11:31.025012)  can0  098   [1]  01
 (2025-08-07 21:11:31.032087)  can0  02F   [2]  B8 00
 (2025-08-07 21:11:31.032897)  can0  043   [4]  00 4A 2B 00
 (2025-08-07 21:11:31.032991)  can0  098   [1]  00
 (2025-08-07 21:11:31.034170)  can0  043   [4]  00 87 1E 00
 (2025-08-07 21:11:31.034742)  can0  098   [1]  01
 (2025-08-07 21:11:31.038114)  can0  02F   [2]  EB 01
 (2025-08-07 21:11:31.042690)  can0  043   [4]  00 4A 2B 00
 (2025-08-07 21:11:31.042793)  can0  098   [1]  00
 (2025-08-07 21:11:31.044364)  can0  043   [4]  00 87 1E 00
 (2025-08-07 21:11:31.044974)  can0  098   [1]  01
 (2025-08-07 21:11:31.047996)  can0  02F   [2]  B8 00
 (2025-08-07 21:11:31.052876)  can0  043   [4]  00 4A 2B 00
 (2025-08-07 21:11:31.052973)  can0  098   [1]  00
 (2025-08-07 21:11:31.053854)  can0  02F   [2]  EB 01
 (2025-08-07 21:11:31.054260)  can0  043   [4]  00 87 1E 00
 (2025-08-07 21:11:31.054966)  can0  098   [1]  01
 (2025-08-07 21:11:31.062476)  can0  02F   [2]  B8 00
 (2025-08-07 21:11:31.062698)  can0  043   [4]  00 4A 2B 00
 (2025-08-07 21:11:31.062804)  can0  098   [1]  00
 (2025-08-07 21:11:31.064252)  can0  043   [4]  00 87 1E 00
 (2025-08-07 21:11:31.064857)  can0  098   [1]  01
 (2025-08-07 21:11:31.069003)  can0  02F   [2]  EB 01
 (2025-08-07 21:11:31.072675)  can0  043   [4]  00 4A 2B 00
 (2025-08-07 21:11:31.072767)  can0  098   [1]  00
 (2025-08-07 21:11:31.075221)  can0  043   [4]  00 87 1E 00
 (2025-08-07 21:11:31.075469)  can0  098   [1]  01
 (2025-08-07 21:11:31.079961)  can0  02F   [2]  C2 00
 (2025-08-07 21:11:31.083016)  can0  043   [4]  00 4A 2B 00
 (2025-08-07 21:11:31.083108)  can0  098   [1]  00
 (2025-08-07 21:11:31.084075)  can0  02F   [2]  F5 01
 (2025-08-07 21:11:31.084212)  can0  043   [4]  00 87 1E 00
 (2025-08-07 21:11:31.084932)  can0  098   [1]  01
 (2025-08-07 21:11:31.092831)  can0  043   [4]  00 4A 2B 00
 (2025-08-07 21:11:31.092939)  can0  098   [1]  00
 (2025-08-07 21:11:31.093067)  can0  02F   [2]  C2 00
 (2025-08-07 21:11:31.094310)  can0  043   [4]  00 87 1E 00
 (2025-08-07 21:11:31.094826)  can0  098   [1]  01
 (2025-08-07 21:11:31.098501)  can0  02F   [2]  F5 01
 (2025-08-07 21:11:31.102900)  can0  043   [4]  00 4A 2B 00
 (2025-08-07 21:11:31.103000)  can0  098   [1]  00
 (2025-08-07 21:11:31.104502)  can0  043   [4]  00 87 1E 00
 (2025-08-07 21:11:31.105124)  can0  098   [1]  01
 (2025-08-07 21:11:31.108013)  can0  02F   [2]  C2 00
 (2025-08-07 21:11:31.112935)  can0  043   [4]  00 4A 2B 00
 (2025-08-07 21:11:31.113037)  can0  098   [1]  00
 (2025-08-07 21:11:31.113231)  can0  02F   [2]  F5 01
 (2025-08-07 21:11:31.114421)  can0  043   [4]  00 87 1E 00
 (2025-08-07 21:11:31.115040)  can0  098   [1]  01
 (2025-08-07 21:11:31.122753)  can0  043   [4]  00 4A 2B 00
 (2025-08-07 21:11:31.122843)  can0  098   [1]  00
 (2025-08-07 21:11:31.123674)  can0  02F   [2]  CC 00
 (2025-08-07 21:11:31.124380)  can0  043   [4]  00 87 1E 00
 (2025-08-07 21:11:31.124940)  can0  098   [1]  01
 (2025-08-07 21:11:31.128775)  can0  02F   [2]  FF 01
 (2025-08-07 21:11:31.132853)  can0  043   [4]  00 4A 2B 00
 (2025-08-07 21:11:31.132953)  can0  098   [1]  00
 (2025-08-07 21:11:31.134324)  can0  043   [4]  00 87 1E 00
 (2025-08-07 21:11:31.134970)  can0  098   [1]  01
 (2025-08-07 21:11:31.137523)  can0  02F   [2]  CC 00
 (2025-08-07 21:11:31.142821)  can0  043   [4]  00 4A 2B 00
 (2025-08-07 21:11:31.142944)  can0  098   [1]  00
 (2025-08-07 21:11:31.145107)  can0  02F   [2]  FF 01
 (2025-08-07 21:11:31.145252)  can0  043   [4]  00 87 1E 00
 (2025-08-07 21:11:31.145471)  can0  098   [1]  01
 (2025-08-07 21:11:31.152795)  can0  043   [4]  00 4A 2B 00
 (2025-08-07 21:11:31.152857)  can0  098   [1]  00
 (2025-08-07 21:11:31.153081)  can0  02F   [2]  CC 00
 (2025-08-07 21:11:31.154260)  can0  043   [4]  00 87 1E 00
 (2025-08-07 21:11:31.154828)  can0  098   [1]  01
 (2025-08-07 21:11:31.158043)  can0  02F   [2]  FF 01
 (2025-08-07 21:11:31.162684)  can0  043   [4]  00 4A 2B 00
 (2025-08-07 21:11:31.162785)  can0  098   [1]  00
 (2025-08-07 21:11:31.165161)  can0  043   [4]  00 87 1E 00
 (2025-08-07 21:11:31.165397)  can0  098   [1]  01
 (2025-08-07 21:11:31.167697)  can0  02F   [2]  D6 00
 (2025-08-07 21:11:31.172926)  can0  043   [4]  00 4A 2B 00
 (2025-08-07 21:11:31.173018)  can0  098   [1]  00
 (2025-08-07 21:11:31.173152)  can0  02F   [2]  09 02
 (2025-08-07 21:11:31.174314)  can0  043   [4]  00 87 1E 00
 (2025-08-07 21:11:31.174978)  can0  098   [1]  01
 (2025-08-07 21:11:31.182533)  can0  02F   [2]  D6 00
 (2025-08-07 21:11:31.182974)  can0  043   [4]  00 4A 2B 00
 (2025-08-07 21:11:31.183024)  can0  098   [1]  00
 (2025-08-07 21:11:31.184445)  can0  043   [4]  00 87 1E 00
 (2025-08-07 21:11:31.185036)  can0  098   [1]  01
 (2025-08-07 21:11:31.188031)  can0  02F   [2]  09 02
 (2025-08-07 21:11:31.192411)  can0  043   [4]  00 4A 2B 00
 (2025-08-07 21:11:31.192512)  can0  098   [1]  00
 (2025-08-07 21:11:31.194387)  can0  043   [4]  00 87 1E 00
 (2025-08-07 21:11:31.195018)  can0  098   [1]  01
 (2025-08-07 21:11:31.197417)  can0  02F   [2]  D6 00
 (2025-08-07 21:11:31.202425)  can0  043   [4]  00 4A 2B 00
 (2025-08-07 21:11:31.202517)  can0  098   [1]  00
 (2025-08-07 21:11:31.203933)  can0  02F   [2]  13 02
 (2025-08-07 21:11:31.205264)  can0  043   [4]  00 87 1E 00
 (2025-08-07 21:11:31.205493)  can0  098   [1]  01
 (2025-08-07 21:11:31.212303)  can0  02F   [2]  E1 00
 (2025-08-07 21:11:31.212468)  can0  043   [4]  00 4A 2B 00
 (2025-08-07 21:11:31.212579)  can0  098   [1]  00
 (2025-08-07 21:11:31.214416)  can0  043   [4]  00 87 1E 00
 (2025-08-07 21:11:31.214997)  can0  098   [1]  01
 (2025-08-07 21:11:31.219707)  can0  02F   [2]  13 02
 (2025-08-07 21:11:31.222665)  can0  043   [4]  00 4A 2B 00
 (2025-08-07 21:11:31.222767)  can0  098   [1]  00
 (2025-08-07 21:11:31.224315)  can0  043   [4]  00 87 1E 00
 (2025-08-07 21:11:31.224922)  can0  098   [1]  01
 (2025-08-07 21:11:31.227280)  can0  02F   [2]  E1 00
 (2025-08-07 21:11:31.232791)  can0  043   [4]  00 4A 2B 00
 (2025-08-07 21:11:31.232880)  can0  098   [1]  00
 (2025-08-07 21:11:31.234397)  can0  043   [4]  00 87 1E 00
 (2025-08-07 21:11:31.235018)  can0  098   [1]  01
 (2025-08-07 21:11:31.235543)  can0  02F   [2]  13 02
 (2025-08-07 21:11:31.242201)  can0  043   [4]  00 4A 2B 00
 (2025-08-07 21:11:31.242311)  can0  02F   [2]  E1 00
 (2025-08-07 21:11:31.242438)  can0  098   [1]  00
 (2025-08-07 21:11:31.244256)  can0  043   [4]  00 87 1E 00
 (2025-08-07 21:11:31.244869)  can0  098   [1]  01
 (2025-08-07 21:11:31.250529)  can0  02F   [2]  1E 02
 (2025-08-07 21:11:31.252255)  can0  043   [4]  00 4A 2B 00
 (2025-08-07 21:11:31.252366)  can0  098   [1]  00
 (2025-08-07 21:11:31.254298)  can0  043   [4]  00 87 1E 00
 (2025-08-07 21:11:31.254977)  can0  098   [1]  01
 (2025-08-07 21:11:31.257385)  can0  02F   [2]  EB 00
 (2025-08-07 21:11:31.262246)  can0  043   [4]  00 4A 2B 00
 (2025-08-07 21:11:31.262338)  can0  098   [1]  00
 (2025-08-07 21:11:31.265147)  can0  043   [4]  00 87 1E 00
 (2025-08-07 21:11:31.265296)  can0  02F   [2]  1E 02
 (2025-08-07 21:11:31.265396)  can0  098   [1]  01
 (2025-08-07 21:11:31.272243)  can0  043   [4]  00 4A 2B 00
 (2025-08-07 21:11:31.272338)  can0  098   [1]  00
 (2025-08-07 21:11:31.272467)  can0  02F   [2]  EB 00
 (2025-08-07 21:11:31.274265)  can0  043   [4]  00 87 1E 00
 (2025-08-07 21:11:31.274824)  can0  098   [1]  01
 (2025-08-07 21:11:31.280325)  can0  02F   [2]  28 02
 (2025-08-07 21:11:31.282130)  can0  043   [4]  00 4A 2B 00
 (2025-08-07 21:11:31.282243)  can0  098   [1]  00
 (2025-08-07 21:11:31.284299)  can0  043   [4]  00 87 1E 00
 (2025-08-07 21:11:31.284930)  can0  098   [1]  01
 (2025-08-07 21:11:31.287884)  can0  02F   [2]  EB 00
 (2025-08-07 21:11:31.292216)  can0  043   [4]  00 4A 2B 00
 (2025-08-07 21:11:31.292313)  can0  098   [1]  00
 (2025-08-07 21:11:31.294258)  can0  043   [4]  00 87 1E 00
 (2025-08-07 21:11:31.294863)  can0  098   [1]  01
 (2025-08-07 21:11:31.295390)  can0  02F   [2]  28 02
 (2025-08-07 21:11:31.302240)  can0  043   [4]  00 4A 2B 00
 (2025-08-07 21:11:31.302340)  can0  098   [1]  00
 (2025-08-07 21:11:31.302651)  can0  02F   [2]  F5 00
 (2025-08-07 21:11:31.303826)  can0  043   [4]  00 87 1E 00
 (2025-08-07 21:11:31.304431)  can0  098   [1]  01
 (2025-08-07 21:11:31.310325)  can0  02F   [2]  28 02
 (2025-08-07 21:11:31.312218)  can0  043   [4]  00 4A 2B 00
 (2025-08-07 21:11:31.312311)  can0  098   [1]  00
 (2025-08-07 21:11:31.314564)  can0  043   [4]  00 87 1E 00
 (2025-08-07 21:11:31.314814)  can0  098   [1]  01
 (2025-08-07 21:11:31.318436)  can0  02F   [2]  F5 00
 (2025-08-07 21:11:31.322214)  can0  043   [4]  00 4A 2B 00
 (2025-08-07 21:11:31.322305)  can0  098   [1]  00
 (2025-08-07 21:11:31.323865)  can0  043   [4]  00 87 1E 00
 (2025-08-07 21:11:31.324505)  can0  098   [1]  01
 (2025-08-07 21:11:31.325333)  can0  02F   [2]  32 02
 (2025-08-07 21:11:31.332232)  can0  043   [4]  00 4A 2B 00
 (2025-08-07 21:11:31.332330)  can0  098   [1]  00
 (2025-08-07 21:11:31.333040)  can0  02F   [2]  FF 00
 (2025-08-07 21:11:31.334198)  can0  043   [4]  00 87 1E 00
 (2025-08-07 21:11:31.334608)  can0  098   [1]  01
 (2025-08-07 21:11:31.340398)  can0  02F   [2]  32 02
 (2025-08-07 21:11:31.342157)  can0  043   [4]  00 4A 2B 00
 (2025-08-07 21:11:31.342274)  can0  098   [1]  00
 (2025-08-07 21:11:31.343768)  can0  043   [4]  00 87 1E 00
 (2025-08-07 21:11:31.344404)  can0  098   [1]  01
 (2025-08-07 21:11:31.348318)  can0  02F   [2]  FF 00
 (2025-08-07 21:11:31.352219)  can0  043   [4]  00 4A 2B 00
 (2025-08-07 21:11:31.352321)  can0  098   [1]  00
 (2025-08-07 21:11:31.353768)  can0  043   [4]  00 87 1E 00
 (2025-08-07 21:11:31.354379)  can0  098   [1]  01
 (2025-08-07 21:11:31.355270)  can0  02F   [2]  32 02
 (2025-08-07 21:11:31.362232)  can0  043   [4]  00 4A 2B 00
 (2025-08-07 21:11:31.362327)  can0  098   [1]  00
 (2025-08-07 21:11:31.363609)  can0  02F   [2]  FF 00
 (2025-08-07 21:11:31.363944)  can0  043   [4]  00 87 1E 00
 (2025-08-07 21:11:31.364493)  can0  098   [1]  01
 (2025-08-07 21:11:31.370338)  can0  02F   [2]  3C 02
 (2025-08-07 21:11:31.372203)  can0  043   [4]  00 4A 2B 00
 (2025-08-07 21:11:31.372311)  can0  098   [1]  00
 (2025-08-07 21:11:31.374405)  can0  043   [4]  00 87 1E 00
 (2025-08-07 21:11:31.375025)  can0  098   [1]  01
 (2025-08-07 21:11:31.378628)  can0  02F   [2]  09 01
 (2025-08-07 21:11:31.382247)  can0  043   [4]  00 4A 2B 00
 (2025-08-07 21:11:31.382338)  can0  098   [1]  00
 (2025-08-07 21:11:31.383815)  can0  043   [4]  00 87 1E 00
 (2025-08-07 21:11:31.384431)  can0  098   [1]  01
 (2025-08-07 21:11:31.385308)  can0  02F   [2]  3C 02
 (2025-08-07 21:11:31.392282)  can0  043   [4]  00 4A 2B 00
 (2025-08-07 21:11:31.392377)  can0  098   [1]  00
 (2025-08-07 21:11:31.395144)  can0  02F   [2]  09 01
 (2025-08-07 21:11:31.395448)  can0  043   [4]  00 87 1E 00
 (2025-08-07 21:11:31.395653)  can0  098   [1]  01
 (2025-08-07 21:11:31.401612)  can0  02F   [2]  3C 02
 (2025-08-07 21:11:31.402377)  can0  043   [4]  00 4A 2B 00
 (2025-08-07 21:11:31.402483)  can0  098   [1]  00
 (2025-08-07 21:11:31.404366)  can0  043   [4]  00 87 1E 00
 (2025-08-07 21:11:31.405064)  can0  098   [1]  01
 (2025-08-07 21:11:31.408600)  can0  02F   [2]  14 01
 (2025-08-07 21:11:31.412347)  can0  043   [4]  00 4A 2B 00
 (2025-08-07 21:11:31.412437)  can0  098   [1]  00
 (2025-08-07 21:11:31.414363)  can0  043   [4]  00 87 1E 00
 (2025-08-07 21:11:31.414614)  can0  098   [1]  01
 (2025-08-07 21:11:31.416755)  can0  02F   [2]  47 02
 (2025-08-07 21:11:31.422294)  can0  043   [4]  00 4A 2B 00
 (2025-08-07 21:11:31.422404)  can0  098   [1]  00
 (2025-08-07 21:11:31.425012)  can0  043   [4]  00 87 1E 00
 (2025-08-07 21:11:31.425262)  can0  098   [1]  01
 (2025-08-07 21:11:31.425499)  can0  02F   [2]  14 01
 (2025-08-07 21:11:31.431559)  can0  02F   [2]  47 02
 (2025-08-07 21:11:31.432321)  can0  043   [4]  00 4A 2B 00
 (2025-08-07 21:11:31.432434)  can0  098   [1]  00
 (2025-08-07 21:11:31.433807)  can0  043   [4]  00 87 1E 00
 (2025-08-07 21:11:31.434411)  can0  098   [1]  01
 (2025-08-07 21:11:31.438910)  can0  02F   [2]  14 01
 (2025-08-07 21:11:31.442377)  can0  043   [4]  00 4A 2B 00
 (2025-08-07 21:11:31.442481)  can0  098   [1]  00
 (2025-08-07 21:11:31.443681)  can0  043   [4]  00 87 1E 00
 (2025-08-07 21:11:31.444298)  can0  098   [1]  01
 (2025-08-07 21:11:31.447272)  can0  02F   [2]  47 02
 (2025-08-07 21:11:31.452997)  can0  043   [4]  00 4A 2B 00
 (2025-08-07 21:11:31.453108)  can0  098   [1]  00
 (2025-08-07 21:11:31.454860)  can0  043   [4]  00 87 1E 00
 (2025-08-07 21:11:31.455138)  can0  098   [1]  01
 (2025-08-07 21:11:31.455375)  can0  02F   [2]  1E 01
 (2025-08-07 21:11:31.462200)  can0  02F   [2]  51 02
 (2025-08-07 21:11:31.462980)  can0  043   [4]  00 4A 2B 00
 (2025-08-07 21:11:31.463078)  can0  098   [1]  00
 (2025-08-07 21:11:31.464448)  can0  043   [4]  00 87 1E 00
 (2025-08-07 21:11:31.465060)  can0  098   [1]  01
 (2025-08-07 21:11:31.470106)  can0  02F   [2]  1E 01
 (2025-08-07 21:11:31.473003)  can0  043   [4]  00 4A 2B 00
 (2025-08-07 21:11:31.473112)  can0  098   [1]  00
 (2025-08-07 21:11:31.474346)  can0  043   [4]  00 87 1E 00
 (2025-08-07 21:11:31.474975)  can0  098   [1]  01
 (2025-08-07 21:11:31.477238)  can0  02F   [2]  51 02
 (2025-08-07 21:11:31.482989)  can0  043   [4]  00 4A 2B 00
 (2025-08-07 21:11:31.483089)  can0  098   [1]  00
 (2025-08-07 21:11:31.484605)  can0  043   [4]  00 87 1E 00
 (2025-08-07 21:11:31.485228)  can0  098   [1]  01
 (2025-08-07 21:11:31.485851)  can0  02F   [2]  1E 01
 (2025-08-07 21:11:31.492180)  can0  02F   [2]  51 02
 (2025-08-07 21:11:31.492986)  can0  043   [4]  00 4A 2B 00
 (2025-08-07 21:11:31.493103)  can0  098   [1]  00
 (2025-08-07 21:11:31.495121)  can0  043   [4]  00 87 1E 00
 (2025-08-07 21:11:31.495388)  can0  098   [1]  01
 (2025-08-07 21:11:31.500292)  can0  02F   [2]  28 01
 (2025-08-07 21:11:31.502281)  can0  043   [4]  00 4A 2B 00
 (2025-08-07 21:11:31.502380)  can0  098   [1]  00
 (2025-08-07 21:11:31.504372)  can0  043   [4]  00 87 1E 00
 (2025-08-07 21:11:31.504984)  can0  098   [1]  01
 (2025-08-07 21:11:31.507709)  can0  02F   [2]  5B 02
 (2025-08-07 21:11:31.512515)  can0  043   [4]  00 4A 2B 00
 (2025-08-07 21:11:31.512616)  can0  098   [1]  00
 (2025-08-07 21:11:31.514569)  can0  043   [4]  00 87 1E 00
 (2025-08-07 21:11:31.515220)  can0  098   [1]  01
 (2025-08-07 21:11:31.515893)  can0  02F   [2]  28 01
 (2025-08-07 21:11:31.522717)  can0  043   [4]  00 4A 2B 00
 (2025-08-07 21:11:31.522809)  can0  098   [1]  00
 (2025-08-07 21:11:31.523670)  can0  02F   [2]  5B 02
 (2025-08-07 21:11:31.524640)  can0  043   [4]  00 87 1E 00
 (2025-08-07 21:11:31.525254)  can0  098   [1]  01
 (2025-08-07 21:11:31.529765)  can0  02F   [2]  28 01
 (2025-08-07 21:11:31.532639)  can0  043   [4]  00 4A 2B 00
 (2025-08-07 21:11:31.532735)  can0  098   [1]  00
 (2025-08-07 21:11:31.535259)  can0  043   [4]  00 87 1E 00
 (2025-08-07 21:11:31.535498)  can0  098   [1]  01
 (2025-08-07 21:11:31.538501)  can0  02F   [2]  65 02
 (2025-08-07 21:11:31.542619)  can0  043   [4]  00 4A 2B 00
 (2025-08-07 21:11:31.542724)  can0  098   [1]  00
 (2025-08-07 21:11:31.544495)  can0  043   [4]  00 87 1E 00
 (2025-08-07 21:11:31.545105)  can0  098   [1]  01
 (2025-08-07 21:11:31.545733)  can0  02F   [2]  32 01
 (2025-08-07 21:11:31.552656)  can0  043   [4]  00 4A 2B 00
 (2025-08-07 21:11:31.552748)  can0  098   [1]  00
 (2025-08-07 21:11:31.553189)  can0  02F   [2]  65 02
 (2025-08-07 21:11:31.555465)  can0  043   [4]  00 87 1E 00
 (2025-08-07 21:11:31.555711)  can0  098   [1]  01
 (2025-08-07 21:11:31.560184)  can0  02F   [2]  32 01
 (2025-08-07 21:11:31.562579)  can0  043   [4]  00 4A 2B 00
 (2025-08-07 21:11:31.562685)  can0  098   [1]  00
 (2025-08-07 21:11:31.563589)  can0  043   [4]  00 87 1E 00
 (2025-08-07 21:11:31.564213)  can0  098   [1]  01
 (2025-08-07 21:11:31.567821)  can0  02F   [2]  65 02
 (2025-08-07 21:11:31.572354)  can0  043   [4]  00 4A 2B 00
 (2025-08-07 21:11:31.572457)  can0  098   [1]  00
 (2025-08-07 21:11:31.573784)  can0  043   [4]  00 87 1E 00
 (2025-08-07 21:11:31.574393)  can0  098   [1]  01
 (2025-08-07 21:11:31.575392)  can0  02F   [2]  32 01
 (2025-08-07 21:11:31.582455)  can0  043   [4]  00 4A 2B 00
 (2025-08-07 21:11:31.582549)  can0  098   [1]  00
 (2025-08-07 21:11:31.582756)  can0  02F   [2]  70 02
 (2025-08-07 21:11:31.584375)  can0  043   [4]  00 87 1E 00
 (2025-08-07 21:11:31.584615)  can0  098   [1]  01
 (2025-08-07 21:11:31.590672)  can0  02F   [2]  3D 01
 (2025-08-07 21:11:31.592703)  can0  043   [4]  00 4A 2B 00
 (2025-08-07 21:11:31.592802)  can0  098   [1]  00
 (2025-08-07 21:11:31.593753)  can0  043   [4]  00 87 1E 00
 (2025-08-07 21:11:31.594369)  can0  098   [1]  01
 (2025-08-07 21:11:31.598177)  can0  02F   [2]  70 02
 (2025-08-07 21:11:31.602875)  can0  043   [4]  00 4A 2B 00
 (2025-08-07 21:11:31.602975)  can0  098   [1]  00
 (2025-08-07 21:11:31.605041)  can0  043   [4]  00 87 1E 00
 (2025-08-07 21:11:31.605292)  can0  098   [1]  01
 (2025-08-07 21:11:31.605553)  can0  02F   [2]  3D 01
 (2025-08-07 21:11:31.613138)  can0  043   [4]  00 4A 2B 00
 (2025-08-07 21:11:31.613247)  can0  02F   [2]  70 02
 (2025-08-07 21:11:31.613366)  can0  098   [1]  00
 (2025-08-07 21:11:31.614415)  can0  043   [4]  00 87 1E 00
 (2025-08-07 21:11:31.615027)  can0  098   [1]  01
 (2025-08-07 21:11:31.621218)  can0  02F   [2]  3D 01
 (2025-08-07 21:11:31.622353)  can0  043   [4]  00 4A 2B 00
 (2025-08-07 21:11:31.622446)  can0  098   [1]  00
 (2025-08-07 21:11:31.624400)  can0  043   [4]  00 87 1E 00
 (2025-08-07 21:11:31.625020)  can0  098   [1]  01
 (2025-08-07 21:11:31.628691)  can0  02F   [2]  7A 02
 (2025-08-07 21:11:31.633030)  can0  043   [4]  00 4A 2B 00
 (2025-08-07 21:11:31.633148)  can0  098   [1]  00
 (2025-08-07 21:11:31.634275)  can0  043   [4]  00 87 1E 00
 (2025-08-07 21:11:31.634895)  can0  098   [1]  01
 (2025-08-07 21:11:31.635962)  can0  02F   [2]  47 01
 (2025-08-07 21:11:31.643136)  can0  043   [4]  00 4A 2B 00
 (2025-08-07 21:11:31.643235)  can0  098   [1]  00
 (2025-08-07 21:11:31.643838)  can0  043   [4]  00 87 1E 00
 (2025-08-07 21:11:31.644504)  can0  098   [1]  01
 (2025-08-07 21:11:31.644652)  can0  02F   [2]  7A 02
 (2025-08-07 21:11:31.652189)  can0  02F   [2]  47 01
 (2025-08-07 21:11:31.653013)  can0  043   [4]  00 4A 2B 00
 (2025-08-07 21:11:31.653115)  can0  098   [1]  00
 (2025-08-07 21:11:31.654110)  can0  043   [4]  00 87 1E 00
 (2025-08-07 21:11:31.654684)  can0  098   [1]  01
 (2025-08-07 21:11:31.658847)  can0  02F   [2]  7A 02
 (2025-08-07 21:11:31.663305)  can0  043   [4]  00 4A 2B 00
 (2025-08-07 21:11:31.663409)  can0  098   [1]  00
 (2025-08-07 21:11:31.664838)  can0  043   [4]  00 87 1E 00
 (2025-08-07 21:11:31.665081)  can0  098   [1]  01
 (2025-08-07 21:11:31.667057)  can0  02F   [2]  47 01
 (2025-08-07 21:11:31.673962)  can0  043   [4]  00 4A 2B 00
 (2025-08-07 21:11:31.674031)  can0  098   [1]  00
 (2025-08-07 21:11:31.674188)  can0  02F   [2]  84 02
 (2025-08-07 21:11:31.674982)  can0  043   [4]  00 87 1E 00
 (2025-08-07 21:11:31.675220)  can0  098   [1]  01
 (2025-08-07 21:11:31.682450)  can0  02F   [2]  51 01
 (2025-08-07 21:11:31.683642)  can0  043   [4]  00 4A 2B 00
 (2025-08-07 21:11:31.683748)  can0  098   [1]  00
 (2025-08-07 21:11:31.684066)  can0  043   [4]  00 87 1E 00
 (2025-08-07 21:11:31.684799)  can0  098   [1]  01
 (2025-08-07 21:11:31.689312)  can0  02F   [2]  84 02
 (2025-08-07 21:11:31.694054)  can0  043   [4]  00 4A 2B 00
 (2025-08-07 21:11:31.694208)  can0  043   [4]  00 87 1E 00
 (2025-08-07 21:11:31.694318)  can0  098   [1]  00
 (2025-08-07 21:11:31.694794)  can0  098   [1]  01
 (2025-08-07 21:11:31.697967)  can0  02F   [2]  51 01
 (2025-08-07 21:11:31.703161)  can0  043   [4]  00 4A 2B 00
 (2025-08-07 21:11:31.703271)  can0  098   [1]  00
 (2025-08-07 21:11:31.704176)  can0  043   [4]  00 87 1E 00
 (2025-08-07 21:11:31.704781)  can0  098   [1]  01
 (2025-08-07 21:11:31.708316)  can0  02F   [2]  84 02
 (2025-08-07 21:11:31.713063)  can0  043   [4]  00 4A 2B 00
 (2025-08-07 21:11:31.713164)  can0  098   [1]  00
 (2025-08-07 21:11:31.713293)  can0  02F   [2]  51 01
 (2025-08-07 21:11:31.714018)  can0  043   [4]  00 87 1E 00
 (2025-08-07 21:11:31.714568)  can0  098   [1]  01
 (2025-08-07 21:11:31.719807)  can0  02F   [2]  8E 02
 (2025-08-07 21:11:31.723136)  can0  043   [4]  00 4A 2B 00
 (2025-08-07 21:11:31.723238)  can0  098   [1]  00
 (2025-08-07 21:11:31.724108)  can0  043   [4]  00 87 1E 00
 (2025-08-07 21:11:31.724731)  can0  098   [1]  01
 (2025-08-07 21:11:31.728215)  can0  02F   [2]  5B 01
 (2025-08-07 21:11:31.733121)  can0  043   [4]  00 4A 2B 00
 (2025-08-07 21:11:31.733212)  can0  098   [1]  00
 (2025-08-07 21:11:31.733987)  can0  043   [4]  00 87 1E 00
 (2025-08-07 21:11:31.734585)  can0  098   [1]  01
 (2025-08-07 21:11:31.735243)  can0  02F   [2]  8E 02
 (2025-08-07 21:11:31.743251)  can0  043   [4]  00 4A 2B 00
 (2025-08-07 21:11:31.743318)  can0  098   [1]  00
 (2025-08-07 21:11:31.744756)  can0  02F   [2]  5B 01
 (2025-08-07 21:11:31.745052)  can0  043   [4]  00 87 1E 00
 (2025-08-07 21:11:31.745278)  can0  098   [1]  01
 (2025-08-07 21:11:31.748214)  can0  098   [1]  00
 (2025-08-07 21:11:31.748392)  can0  043   [4]  00 D5 56 00
 (2025-08-07 21:11:31.749236)  can0  098   [1]  00
 (2025-08-07 21:11:31.750597)  can0  02F   [2]  8E 02
 (2025-08-07 21:11:31.753230)  can0  043   [4]  00 D5 56 00
 (2025-08-07 21:11:31.753338)  can0  098   [1]  01
 (2025-08-07 21:11:31.754190)  can0  043   [4]  00 87 1E 00
 (2025-08-07 21:11:31.754830)  can0  098   [1]  01
 (2025-08-07 21:11:31.759400)  can0  02F   [2]  5B 01
 (2025-08-07 21:11:31.763157)  can0  043   [4]  00 D5 56 00
 (2025-08-07 21:11:31.763248)  can0  098   [1]  01
 (2025-08-07 21:11:31.764172)  can0  043   [4]  00 87 1E 00
 (2025-08-07 21:11:31.764691)  can0  02F   [2]  98 02
 (2025-08-07 21:11:31.764789)  can0  098   [1]  01
 (2025-08-07 21:11:31.773173)  can0  043   [4]  00 D5 56 00
 (2025-08-07 21:11:31.773264)  can0  098   [1]  01
 (2025-08-07 21:11:31.773948)  can0  043   [4]  00 87 1E 00
 (2025-08-07 21:11:31.774647)  can0  098   [1]  01
 (2025-08-07 21:11:31.775357)  can0  02F   [2]  66 01
 (2025-08-07 21:11:31.779393)  can0  02F   [2]  98 02
 (2025-08-07 21:11:31.783152)  can0  043   [4]  00 D5 56 00
 (2025-08-07 21:11:31.783256)  can0  098   [1]  01
 (2025-08-07 21:11:31.784874)  can0  043   [4]  00 87 1E 00
 (2025-08-07 21:11:31.785123)  can0  098   [1]  01
 (2025-08-07 21:11:31.791304)  can0  02F   [2]  66 01
 (2025-08-07 21:11:31.793137)  can0  043   [4]  00 D5 56 00
 (2025-08-07 21:11:31.793228)  can0  098   [1]  01
 (2025-08-07 21:11:31.794132)  can0  043   [4]  00 87 1E 00
 (2025-08-07 21:11:31.794481)  can0  02F   [2]  98 02
 (2025-08-07 21:11:31.794718)  can0  098   [1]  01
 (2025-08-07 21:11:31.803136)  can0  043   [4]  00 D5 56 00
 (2025-08-07 21:11:31.803225)  can0  098   [1]  01
 (2025-08-07 21:11:31.804253)  can0  043   [4]  00 87 1E 00
 (2025-08-07 21:11:31.804849)  can0  098   [1]  00
 (2025-08-07 21:11:31.807299)  can0  02F   [2]  66 01
 (2025-08-07 21:11:31.809283)  can0  02F   [2]  A3 02
 (2025-08-07 21:11:31.813244)  can0  043   [4]  00 D5 56 00
 (2025-08-07 21:11:31.813347)  can0  098   [1]  01
 (2025-08-07 21:11:31.813595)  can0  043   [4]  00 87 1E 00
 (2025-08-07 21:11:31.814317)  can0  098   [1]  00
 (2025-08-07 21:11:31.822994)  can0  02F   [2]  70 01
 (2025-08-07 21:11:31.823156)  can0  043   [4]  00 D5 56 00
 (2025-08-07 21:11:31.823268)  can0  098   [1]  01
 (2025-08-07 21:11:31.823939)  can0  043   [4]  00 87 1E 00
 (2025-08-07 21:11:31.824166)  can0  02F   [2]  A3 02
 (2025-08-07 21:11:31.824611)  can0  098   [1]  00
 (2025-08-07 21:11:31.833166)  can0  043   [4]  00 D5 56 00
 (2025-08-07 21:11:31.833261)  can0  098   [1]  01
 (2025-08-07 21:11:31.834208)  can0  043   [4]  00 87 1E 00
 (2025-08-07 21:11:31.834812)  can0  098   [1]  00
 (2025-08-07 21:11:31.838573)  can0  02F   [2]  70 01
 (2025-08-07 21:11:31.839228)  can0  02F   [2]  A3 02
 (2025-08-07 21:11:31.843256)  can0  043   [4]  00 D5 56 00
 (2025-08-07 21:11:31.843367)  can0  098   [1]  01
 (2025-08-07 21:11:31.844366)  can0  043   [4]  00 87 1E 00
 (2025-08-07 21:11:31.844992)  can0  098   [1]  00
 (2025-08-07 21:11:31.853192)  can0  043   [4]  00 D5 56 00
 (2025-08-07 21:11:31.853292)  can0  098   [1]  01
 (2025-08-07 21:11:31.853418)  can0  02F   [2]  70 01
 (2025-08-07 21:11:31.854248)  can0  043   [4]  00 87 1E 00
 (2025-08-07 21:11:31.854374)  can0  02F   [2]  AD 02
 (2025-08-07 21:11:31.854796)  can0  098   [1]  00
 (2025-08-07 21:11:31.863229)  can0  043   [4]  00 D5 56 00
 (2025-08-07 21:11:31.863309)  can0  098   [1]  01
 (2025-08-07 21:11:31.864402)  can0  043   [4]  00 87 1E 00
 (2025-08-07 21:11:31.865006)  can0  098   [1]  00
 (2025-08-07 21:11:31.869265)  can0  02F   [2]  AD 02
 (2025-08-07 21:11:31.869369)  can0  02F   [2]  7A 01
 (2025-08-07 21:11:31.873164)  can0  043   [4]  00 D5 56 00
 (2025-08-07 21:11:31.873256)  can0  098   [1]  01
 (2025-08-07 21:11:31.874281)  can0  043   [4]  00 87 1E 00
 (2025-08-07 21:11:31.874898)  can0  098   [1]  00
 (2025-08-07 21:11:31.883201)  can0  043   [4]  00 D5 56 00
 (2025-08-07 21:11:31.883282)  can0  098   [1]  01
 (2025-08-07 21:11:31.883515)  can0  02F   [2]  7A 01
 (2025-08-07 21:11:31.884199)  can0  02F   [2]  AD 02
 (2025-08-07 21:11:31.884347)  can0  043   [4]  00 87 1E 00
 (2025-08-07 21:11:31.884774)  can0  098   [1]  00
 (2025-08-07 21:11:31.893238)  can0  043   [4]  00 D5 56 00
 (2025-08-07 21:11:31.893328)  can0  098   [1]  01
 (2025-08-07 21:11:31.895029)  can0  043   [4]  00 87 1E 00
 (2025-08-07 21:11:31.895275)  can0  098   [1]  00
 (2025-08-07 21:11:31.898642)  can0  02F   [2]  7A 01
 (2025-08-07 21:11:31.899299)  can0  02F   [2]  B7 02
 (2025-08-07 21:11:31.903216)  can0  043   [4]  00 D5 56 00
 (2025-08-07 21:11:31.903328)  can0  098   [1]  01
 (2025-08-07 21:11:31.904288)  can0  043   [4]  00 87 1E 00
 (2025-08-07 21:11:31.904894)  can0  098   [1]  00
 (2025-08-07 21:11:31.913141)  can0  043   [4]  00 D5 56 00
 (2025-08-07 21:11:31.913241)  can0  098   [1]  01
 (2025-08-07 21:11:31.913540)  can0  02F   [2]  84 01
 (2025-08-07 21:11:31.914193)  can0  02F   [2]  B7 02
 (2025-08-07 21:11:31.914353)  can0  043   [4]  00 87 1E 00
 (2025-08-07 21:11:31.914980)  can0  098   [1]  00
 (2025-08-07 21:11:31.923273)  can0  043   [4]  00 D5 56 00
 (2025-08-07 21:11:31.923361)  can0  098   [1]  01
 (2025-08-07 21:11:31.924476)  can0  043   [4]  00 87 1E 00
 (2025-08-07 21:11:31.925075)  can0  098   [1]  00
 (2025-08-07 21:11:31.928822)  can0  02F   [2]  84 01
 (2025-08-07 21:11:31.929577)  can0  02F   [2]  B7 02
 (2025-08-07 21:11:31.933762)  can0  043   [4]  00 D5 56 00
 (2025-08-07 21:11:31.933870)  can0  098   [1]  01
 (2025-08-07 21:11:31.935353)  can0  043   [4]  00 87 1E 00
 (2025-08-07 21:11:31.935605)  can0  098   [1]  00
 (2025-08-07 21:11:31.943223)  can0  043   [4]  00 D5 56 00
 (2025-08-07 21:11:31.943332)  can0  098   [1]  01
 (2025-08-07 21:11:31.943649)  can0  02F   [2]  8E 01
 (2025-08-07 21:11:31.944496)  can0  043   [4]  00 87 1E 00
 (2025-08-07 21:11:31.944629)  can0  02F   [2]  C1 02
 (2025-08-07 21:11:31.945004)  can0  098   [1]  00
 (2025-08-07 21:11:31.953293)  can0  043   [4]  00 D5 56 00
 (2025-08-07 21:11:31.953383)  can0  098   [1]  01
 (2025-08-07 21:11:31.954265)  can0  043   [4]  00 87 1E 00
 (2025-08-07 21:11:31.954904)  can0  098   [1]  00
 (2025-08-07 21:11:31.959362)  can0  02F   [2]  8E 01
 (2025-08-07 21:11:31.960278)  can0  02F   [2]  C1 02
 (2025-08-07 21:11:31.963249)  can0  043   [4]  00 D5 56 00
 (2025-08-07 21:11:31.963358)  can0  098   [1]  01
 (2025-08-07 21:11:31.964499)  can0  043   [4]  00 87 1E 00
 (2025-08-07 21:11:31.965104)  can0  098   [1]  00
 (2025-08-07 21:11:31.973503)  can0  043   [4]  00 D5 56 00
 (2025-08-07 21:11:31.973601)  can0  098   [1]  01
 (2025-08-07 21:11:31.974629)  can0  02F   [2]  C1 02
 (2025-08-07 21:11:31.975469)  can0  043   [4]  00 87 1E 00
 (2025-08-07 21:11:31.975743)  can0  02F   [2]  99 01
 (2025-08-07 21:11:31.975982)  can0  098   [1]  00
 (2025-08-07 21:11:31.983406)  can0  043   [4]  00 D5 56 00
 (2025-08-07 21:11:31.983499)  can0  098   [1]  01
 (2025-08-07 21:11:31.985035)  can0  043   [4]  00 87 1E 00
 (2025-08-07 21:11:31.985289)  can0  098   [1]  00
 (2025-08-07 21:11:31.990365)  can0  02F   [2]  99 01
 (2025-08-07 21:11:31.990978)  can0  02F   [2]  CC 02
 (2025-08-07 21:11:31.993348)  can0  043   [4]  00 D5 56 00
 (2025-08-07 21:11:31.993443)  can0  098   [1]  01
 (2025-08-07 21:11:31.994301)  can0  043   [4]  00 87 1E 00
 (2025-08-07 21:11:31.994967)  can0  098   [1]  00
 (2025-08-07 21:11:32.003828)  can0  043   [4]  00 D5 56 00
 (2025-08-07 21:11:32.003909)  can0  098   [1]  01
 (2025-08-07 21:11:32.004225)  can0  043   [4]  00 87 1E 00
 (2025-08-07 21:11:32.004919)  can0  098   [1]  00
 (2025-08-07 21:11:32.005585)  can0  02F   [2]  99 01
 (2025-08-07 21:11:32.006348)  can0  02F   [2]  CC 02
 (2025-08-07 21:11:32.013258)  can0  043   [4]  00 D5 56 00
 (2025-08-07 21:11:32.013359)  can0  098   [1]  01
 (2025-08-07 21:11:32.014310)  can0  043   [4]  00 87 1E 00
 (2025-08-07 21:11:32.014915)  can0  098   [1]  00
 (2025-08-07 21:11:32.020504)  can0  02F   [2]  A3 01
 (2025-08-07 21:11:32.021676)  can0  02F   [2]  D6 02
 (2025-08-07 21:11:32.023551)  can0  043   [4]  00 D5 56 00
 (2025-08-07 21:11:32.023662)  can0  098   [1]  01
 (2025-08-07 21:11:32.024310)  can0  043   [4]  00 87 1E 00
 (2025-08-07 21:11:32.025162)  can0  098   [1]  00
 (2025-08-07 21:11:32.033271)  can0  043   [4]  00 D5 56 00
 (2025-08-07 21:11:32.033364)  can0  098   [1]  01
 (2025-08-07 21:11:32.034399)  can0  043   [4]  00 87 1E 00
 (2025-08-07 21:11:32.035017)  can0  098   [1]  00
 (2025-08-07 21:11:32.036775)  can0  02F   [2]  A3 01
 (2025-08-07 21:11:32.036904)  can0  02F   [2]  D6 02
 (2025-08-07 21:11:32.043247)  can0  043   [4]  00 D5 56 00
 (2025-08-07 21:11:32.043342)  can0  098   [1]  01
 (2025-08-07 21:11:32.044267)  can0  043   [4]  00 87 1E 00
 (2025-08-07 21:11:32.044911)  can0  098   [1]  00
 (2025-08-07 21:11:32.051025)  can0  02F   [2]  AD 01
 (2025-08-07 21:11:32.051523)  can0  02F   [2]  E0 02
 (2025-08-07 21:11:32.053741)  can0  043   [4]  00 D5 56 00
 (2025-08-07 21:11:32.053886)  can0  043   [4]  00 87 1E 00
 (2025-08-07 21:11:32.054008)  can0  098   [1]  01
 (2025-08-07 21:11:32.054325)  can0  098   [1]  00
 (2025-08-07 21:11:32.063748)  can0  043   [4]  00 87 1E 00
 (2025-08-07 21:11:32.064337)  can0  043   [4]  00 D5 56 00
 (2025-08-07 21:11:32.064401)  can0  098   [1]  00
 (2025-08-07 21:11:32.064547)  can0  098   [1]  01
 (2025-08-07 21:11:32.065858)  can0  02F   [2]  AD 01
 (2025-08-07 21:11:32.067214)  can0  02F   [2]  E0 02
 (2025-08-07 21:11:32.073730)  can0  043   [4]  00 87 1E 00
 (2025-08-07 21:11:32.074214)  can0  043   [4]  00 D5 56 00
 (2025-08-07 21:11:32.074282)  can0  098   [1]  01
 (2025-08-07 21:11:32.074414)  can0  098   [1]  00
 (2025-08-07 21:11:32.081068)  can0  02F   [2]  B7 01
 (2025-08-07 21:11:32.081562)  can0  02F   [2]  EA 02
 (2025-08-07 21:11:32.083807)  can0  043   [4]  00 87 1E 00
 (2025-08-07 21:11:32.084410)  can0  098   [1]  00
 (2025-08-07 21:11:32.084557)  can0  043   [4]  00 D5 56 00
 (2025-08-07 21:11:32.084667)  can0  098   [1]  01
 (2025-08-07 21:11:32.093632)  can0  043   [4]  00 87 1E 00
 (2025-08-07 21:11:32.094250)  can0  098   [1]  00
 (2025-08-07 21:11:32.095036)  can0  043   [4]  00 D5 56 00
 (2025-08-07 21:11:32.095129)  can0  098   [1]  01
 (2025-08-07 21:11:32.096407)  can0  02F   [2]  B7 01
 (2025-08-07 21:11:32.097401)  can0  02F   [2]  EA 02
 (2025-08-07 21:11:32.104176)  can0  043   [4]  00 87 1E 00
 (2025-08-07 21:11:32.104782)  can0  098   [1]  00
 (2025-08-07 21:11:32.104945)  can0  043   [4]  00 D5 56 00
 (2025-08-07 21:11:32.105059)  can0  098   [1]  01
 (2025-08-07 21:11:32.111377)  can0  02F   [2]  B7 01
 (2025-08-07 21:11:32.112131)  can0  02F   [2]  EA 02
 (2025-08-07 21:11:32.114294)  can0  043   [4]  00 87 1E 00
 (2025-08-07 21:11:32.114844)  can0  098   [1]  00
 (2025-08-07 21:11:32.115004)  can0  043   [4]  00 D5 56 00
 (2025-08-07 21:11:32.115108)  can0  098   [1]  01
 (2025-08-07 21:11:32.124346)  can0  043   [4]  00 87 1E 00
 (2025-08-07 21:11:32.124932)  can0  098   [1]  00
 (2025-08-07 21:11:32.125173)  can0  043   [4]  00 D5 56 00
 (2025-08-07 21:11:32.125275)  can0  098   [1]  01
 (2025-08-07 21:11:32.126665)  can0  02F   [2]  C2 01
 (2025-08-07 21:11:32.127447)  can0  02F   [2]  F5 02
 (2025-08-07 21:11:32.134294)  can0  043   [4]  00 D5 56 00
 (2025-08-07 21:11:32.134438)  can0  043   [4]  00 87 1E 00
 (2025-08-07 21:11:32.134551)  can0  098   [1]  01
 (2025-08-07 21:11:32.134660)  can0  098   [1]  00
 (2025-08-07 21:11:32.142081)  can0  02F   [2]  C2 01
 (2025-08-07 21:11:32.142617)  can0  02F   [2]  F5 02
 (2025-08-07 21:11:32.144158)  can0  043   [4]  00 87 1E 00
 (2025-08-07 21:11:32.144385)  can0  043   [4]  00 D5 56 00
 (2025-08-07 21:11:32.144493)  can0  098   [1]  01
 (2025-08-07 21:11:32.144725)  can0  098   [1]  00
 (2025-08-07 21:11:32.154412)  can0  043   [4]  00 D5 56 00
 (2025-08-07 21:11:32.154490)  can0  098   [1]  01
 (2025-08-07 21:11:32.154972)  can0  043   [4]  00 87 1E 00
 (2025-08-07 21:11:32.155217)  can0  098   [1]  00
 (2025-08-07 21:11:32.157786)  can0  02F   [2]  C2 01
 (2025-08-07 21:11:32.159147)  can0  02F   [2]  F5 02
 (2025-08-07 21:11:32.164058)  can0  043   [4]  00 87 1E 00
 (2025-08-07 21:11:32.164414)  can0  043   [4]  00 D5 56 00
 (2025-08-07 21:11:32.164512)  can0  098   [1]  01
 (2025-08-07 21:11:32.164738)  can0  098   [1]  00
 (2025-08-07 21:11:32.173892)  can0  02F   [2]  CC 01
 (2025-08-07 21:11:32.174080)  can0  02F   [2]  FF 02
 (2025-08-07 21:11:32.174539)  can0  043   [4]  00 87 1E 00
 (2025-08-07 21:11:32.174700)  can0  043   [4]  00 D5 56 00
 (2025-08-07 21:11:32.174812)  can0  098   [1]  01
 (2025-08-07 21:11:32.175208)  can0  098   [1]  00
 (2025-08-07 21:11:32.184523)  can0  043   [4]  00 D5 56 00
 (2025-08-07 21:11:32.184600)  can0  098   [1]  01
 (2025-08-07 21:11:32.185230)  can0  043   [4]  00 87 1E 00
 (2025-08-07 21:11:32.185486)  can0  098   [1]  00
 (2025-08-07 21:11:32.188601)  can0  02F   [2]  CC 01
 (2025-08-07 21:11:32.190576)  can0  02F   [2]  FF 02
 (2025-08-07 21:11:32.193735)  can0  043   [4]  00 87 1E 00
 (2025-08-07 21:11:32.194315)  can0  098   [1]  00
 (2025-08-07 21:11:32.194539)  can0  043   [4]  00 D5 56 00
 (2025-08-07 21:11:32.194653)  can0  098   [1]  01
 (2025-08-07 21:11:32.203754)  can0  043   [4]  00 87 1E 00
 (2025-08-07 21:11:32.204367)  can0  098   [1]  00
 (2025-08-07 21:11:32.204622)  can0  043   [4]  00 D5 56 00
 (2025-08-07 21:11:32.204729)  can0  098   [1]  01
 (2025-08-07 21:11:32.205383)  can0  02F   [2]  FF 02
 (2025-08-07 21:11:32.207775)  can0  02F   [2]  CC 01
 (2025-08-07 21:11:32.213542)  can0  043   [4]  00 87 1E 00
 (2025-08-07 21:11:32.214119)  can0  098   [1]  00
 (2025-08-07 21:11:32.214518)  can0  043   [4]  00 D5 56 00
 (2025-08-07 21:11:32.214621)  can0  098   [1]  01
 (2025-08-07 21:11:32.218787)  can0  02F   [2]  D6 01
 (2025-08-07 21:11:32.221055)  can0  02F   [2]  09 03
 (2025-08-07 21:11:32.223613)  can0  043   [4]  00 87 1E 00
 (2025-08-07 21:11:32.224218)  can0  098   [1]  00
 (2025-08-07 21:11:32.224495)  can0  043   [4]  00 D5 56 00
 (2025-08-07 21:11:32.224601)  can0  098   [1]  01
 (2025-08-07 21:11:32.234571)  can0  043   [4]  00 87 1E 00
 (2025-08-07 21:11:32.234798)  can0  043   [4]  00 D5 56 00
 (2025-08-07 21:11:32.236193)  can0  02F   [2]  09 03
 (2025-08-07 21:11:32.236610)  can0  098   [1]  00
 (2025-08-07 21:11:32.236768)  can0  098   [1]  01
 (2025-08-07 21:11:32.236892)  can0  02F   [2]  D6 01
 (2025-08-07 21:11:32.243776)  can0  043   [4]  00 87 1E 00
 (2025-08-07 21:11:32.244503)  can0  098   [1]  00
 (2025-08-07 21:11:32.245020)  can0  043   [4]  00 D5 56 00
 (2025-08-07 21:11:32.245124)  can0  098   [1]  01
 (2025-08-07 21:11:32.248801)  can0  02F   [2]  D6 01
 (2025-08-07 21:11:32.251448)  can0  02F   [2]  09 03
 (2025-08-07 21:11:32.253546)  can0  043   [4]  00 87 1E 00
 (2025-08-07 21:11:32.254203)  can0  043   [4]  00 D5 56 00
 (2025-08-07 21:11:32.254252)  can0  098   [1]  00
 (2025-08-07 21:11:32.254392)  can0  098   [1]  01
 (2025-08-07 21:11:32.264386)  can0  043   [4]  00 D5 56 00
 (2025-08-07 21:11:32.264470)  can0  098   [1]  01
 (2025-08-07 21:11:32.264729)  can0  043   [4]  00 87 1E 00
 (2025-08-07 21:11:32.264992)  can0  02F   [2]  E0 01
 (2025-08-07 21:11:32.265232)  can0  098   [1]  00
 (2025-08-07 21:11:32.268272)  can0  02F   [2]  13 03
 (2025-08-07 21:11:32.273654)  can0  043   [4]  00 87 1E 00
 (2025-08-07 21:11:32.274252)  can0  098   [1]  00
 (2025-08-07 21:11:32.274626)  can0  043   [4]  00 D5 56 00
 (2025-08-07 21:11:32.274743)  can0  098   [1]  01
 (2025-08-07 21:11:32.278554)  can0  02F   [2]  E0 01
 (2025-08-07 21:11:32.281631)  can0  02F   [2]  13 03
 (2025-08-07 21:11:32.283664)  can0  043   [4]  00 87 1E 00
 (2025-08-07 21:11:32.284275)  can0  098   [1]  00
 (2025-08-07 21:11:32.284573)  can0  043   [4]  00 D5 56 00
 (2025-08-07 21:11:32.284676)  can0  098   [1]  01
 (2025-08-07 21:11:32.293741)  can0  043   [4]  00 87 1E 00
 (2025-08-07 21:11:32.294383)  can0  02F   [2]  EB 01
 (2025-08-07 21:11:32.294529)  can0  043   [4]  00 D5 56 00
 (2025-08-07 21:11:32.294637)  can0  098   [1]  01
 (2025-08-07 21:11:32.295058)  can0  098   [1]  00
 (2025-08-07 21:11:32.296674)  can0  02F   [2]  13 03
 (2025-08-07 21:11:32.303648)  can0  043   [4]  00 87 1E 00
 (2025-08-07 21:11:32.304242)  can0  098   [1]  00
 (2025-08-07 21:11:32.304552)  can0  043   [4]  00 D5 56 00
 (2025-08-07 21:11:32.304654)  can0  098   [1]  01
 (2025-08-07 21:11:32.308634)  can0  02F   [2]  EB 01
 (2025-08-07 21:11:32.311642)  can0  02F   [2]  1D 03
 (2025-08-07 21:11:32.313539)  can0  043   [4]  00 87 1E 00
 (2025-08-07 21:11:32.314157)  can0  098   [1]  00
 (2025-08-07 21:11:32.314531)  can0  043   [4]  00 D5 56 00
 (2025-08-07 21:11:32.314636)  can0  098   [1]  01
 (2025-08-07 21:11:32.323759)  can0  043   [4]  00 87 1E 00
 (2025-08-07 21:11:32.324406)  can0  02F   [2]  EB 01
 (2025-08-07 21:11:32.324613)  can0  043   [4]  00 D5 56 00
 (2025-08-07 21:11:32.324719)  can0  098   [1]  01
 (2025-08-07 21:11:32.324976)  can0  098   [1]  00
 (2025-08-07 21:11:32.326692)  can0  02F   [2]  1D 03
 (2025-08-07 21:11:32.333704)  can0  043   [4]  00 87 1E 00
 (2025-08-07 21:11:32.334311)  can0  098   [1]  00
 (2025-08-07 21:11:32.334612)  can0  043   [4]  00 D5 56 00
 (2025-08-07 21:11:32.334716)  can0  098   [1]  01
 (2025-08-07 21:11:32.338742)  can0  02F   [2]  F5 01
 (2025-08-07 21:11:32.341718)  can0  02F   [2]  1D 03
 (2025-08-07 21:11:32.343712)  can0  043   [4]  00 87 1E 00
 (2025-08-07 21:11:32.344303)  can0  098   [1]  00
 (2025-08-07 21:11:32.344518)  can0  043   [4]  00 D5 56 00
 (2025-08-07 21:11:32.344628)  can0  098   [1]  01
 (2025-08-07 21:11:32.354492)  can0  043   [4]  00 87 1E 00
 (2025-08-07 21:11:32.354666)  can0  043   [4]  00 D5 56 00
 (2025-08-07 21:11:32.354773)  can0  02F   [2]  F5 01
 (2025-08-07 21:11:32.354905)  can0  098   [1]  01
 (2025-08-07 21:11:32.355002)  can0  098   [1]  00
 (2025-08-07 21:11:32.356699)  can0  02F   [2]  28 03
 (2025-08-07 21:11:32.363700)  can0  043   [4]  00 87 1E 00
 (2025-08-07 21:11:32.364324)  can0  098   [1]  00
 (2025-08-07 21:11:32.364569)  can0  043   [4]  00 D5 56 00
 (2025-08-07 21:11:32.364676)  can0  098   [1]  01
 (2025-08-07 21:11:32.368865)  can0  02F   [2]  F5 01
 (2025-08-07 21:11:32.371685)  can0  02F   [2]  28 03
 (2025-08-07 21:11:32.374125)  can0  043   [4]  00 87 1E 00
 (2025-08-07 21:11:32.374558)  can0  043   [4]  00 D5 56 00
 (2025-08-07 21:11:32.374659)  can0  098   [1]  01
 (2025-08-07 21:11:32.374768)  can0  098   [1]  00
 (2025-08-07 21:11:32.384539)  can0  043   [4]  00 D5 56 00
 (2025-08-07 21:11:32.384618)  can0  098   [1]  01
 (2025-08-07 21:11:32.385499)  can0  043   [4]  00 87 1E 00
 (2025-08-07 21:11:32.385740)  can0  098   [1]  00
 (2025-08-07 21:11:32.385962)  can0  02F   [2]  FF 01
 (2025-08-07 21:11:32.386708)  can0  02F   [2]  28 03
 (2025-08-07 21:11:32.393804)  can0  043   [4]  00 87 1E 00
 (2025-08-07 21:11:32.394436)  can0  098   [1]  00
 (2025-08-07 21:11:32.394608)  can0  043   [4]  00 D5 56 00
 (2025-08-07 21:11:32.394706)  can0  098   [1]  01
 (2025-08-07 21:11:32.400162)  can0  02F   [2]  FF 01
 (2025-08-07 21:11:32.401653)  can0  02F   [2]  32 03
 (2025-08-07 21:11:32.404207)  can0  043   [4]  00 87 1E 00
 (2025-08-07 21:11:32.404645)  can0  043   [4]  00 D5 56 00
 (2025-08-07 21:11:32.404758)  can0  098   [1]  01
 (2025-08-07 21:11:32.404868)  can0  098   [1]  00
 (2025-08-07 21:11:32.414147)  can0  043   [4]  00 87 1E 00
 (2025-08-07 21:11:32.414518)  can0  043   [4]  00 D5 56 00
 (2025-08-07 21:11:32.414630)  can0  098   [1]  01
 (2025-08-07 21:11:32.414743)  can0  098   [1]  00
 (2025-08-07 21:11:32.415478)  can0  02F   [2]  09 02
 (2025-08-07 21:11:32.416963)  can0  02F   [2]  32 03
 (2025-08-07 21:11:32.424245)  can0  043   [4]  00 87 1E 00
 (2025-08-07 21:11:32.424587)  can0  043   [4]  00 D5 56 00
 (2025-08-07 21:11:32.424721)  can0  098   [1]  01
 (2025-08-07 21:11:32.424833)  can0  098   [1]  00
 (2025-08-07 21:11:32.430867)  can0  02F   [2]  09 02
 (2025-08-07 21:11:32.431680)  can0  02F   [2]  32 03
 (2025-08-07 21:11:32.434567)  can0  043   [4]  00 D5 56 00
 (2025-08-07 21:11:32.434658)  can0  098   [1]  01
 (2025-08-07 21:11:32.434965)  can0  043   [4]  00 87 1E 00
 (2025-08-07 21:11:32.435232)  can0  098   [1]  00
 (2025-08-07 21:11:32.444489)  can0  043   [4]  00 D5 56 00
 (2025-08-07 21:11:32.444636)  can0  043   [4]  00 87 1E 00
 (2025-08-07 21:11:32.444755)  can0  098   [1]  01
 (2025-08-07 21:11:32.445082)  can0  098   [1]  00
 (2025-08-07 21:11:32.445965)  can0  02F   [2]  09 02
 (2025-08-07 21:11:32.446977)  can0  02F   [2]  3C 03
 (2025-08-07 21:11:32.453564)  can0  043   [4]  00 87 1E 00
 (2025-08-07 21:11:32.454195)  can0  098   [1]  00
 (2025-08-07 21:11:32.454628)  can0  043   [4]  00 D5 56 00
 (2025-08-07 21:11:32.454721)  can0  098   [1]  01
 (2025-08-07 21:11:32.460795)  can0  02F   [2]  13 02
 (2025-08-07 21:11:32.461981)  can0  02F   [2]  3C 03
 (2025-08-07 21:11:32.463726)  can0  043   [4]  00 87 1E 00
 (2025-08-07 21:11:32.464311)  can0  098   [1]  00
 (2025-08-07 21:11:32.464585)  can0  043   [4]  00 D5 56 00
 (2025-08-07 21:11:32.464699)  can0  098   [1]  01
 (2025-08-07 21:11:32.473752)  can0  043   [4]  00 87 1E 00
 (2025-08-07 21:11:32.474598)  can0  043   [4]  00 D5 56 00
 (2025-08-07 21:11:32.474666)  can0  098   [1]  01
 (2025-08-07 21:11:32.474850)  can0  098   [1]  00
 (2025-08-07 21:11:32.476526)  can0  02F   [2]  13 02
 (2025-08-07 21:11:32.477152)  can0  02F   [2]  3C 03
 (2025-08-07 21:11:32.483793)  can0  043   [4]  00 87 1E 00
 (2025-08-07 21:11:32.484399)  can0  098   [1]  00
 (2025-08-07 21:11:32.484568)  can0  043   [4]  00 D5 56 00
 (2025-08-07 21:11:32.484667)  can0  098   [1]  01
 (2025-08-07 21:11:32.491441)  can0  02F   [2]  1E 02
 (2025-08-07 21:11:32.492178)  can0  02F   [2]  46 03
 (2025-08-07 21:11:32.493828)  can0  043   [4]  00 87 1E 00
 (2025-08-07 21:11:32.494376)  can0  098   [1]  00
 (2025-08-07 21:11:32.494603)  can0  043   [4]  00 D5 56 00
 (2025-08-07 21:11:32.494711)  can0  098   [1]  01
 (2025-08-07 21:11:32.504604)  can0  043   [4]  00 D5 56 00
 (2025-08-07 21:11:32.504682)  can0  098   [1]  01
 (2025-08-07 21:11:32.505186)  can0  043   [4]  00 87 1E 00
 (2025-08-07 21:11:32.505727)  can0  098   [1]  00
 (2025-08-07 21:11:32.506813)  can0  02F   [2]  46 03
 (2025-08-07 21:11:32.507873)  can0  02F   [2]  1E 02
 (2025-08-07 21:11:32.514277)  can0  043   [4]  00 87 1E 00
 (2025-08-07 21:11:32.514761)  can0  043   [4]  00 D5 56 00
 (2025-08-07 21:11:32.514828)  can0  098   [1]  01
 (2025-08-07 21:11:32.514977)  can0  098   [1]  00
 (2025-08-07 21:11:32.521561)  can0  02F   [2]  1E 02
 (2025-08-07 21:11:32.522296)  can0  02F   [2]  46 03
 (2025-08-07 21:11:32.524623)  can0  043   [4]  00 87 1E 00
 (2025-08-07 21:11:32.525129)  can0  043   [4]  00 D5 56 00
 (2025-08-07 21:11:32.525223)  can0  098   [1]  01
 (2025-08-07 21:11:32.525346)  can0  098   [1]  00
 (2025-08-07 21:11:32.534472)  can0  043   [4]  00 87 1E 00
 (2025-08-07 21:11:32.535019)  can0  043   [4]  00 D5 56 00
 (2025-08-07 21:11:32.535758)  can0  098   [1]  00
 (2025-08-07 21:11:32.535883)  can0  098   [1]  01
 (2025-08-07 21:11:32.536855)  can0  02F   [2]  28 02
 (2025-08-07 21:11:32.537335)  can0  02F   [2]  51 03
 (2025-08-07 21:11:32.544133)  can0  043   [4]  00 D5 56 00
 (2025-08-07 21:11:32.544239)  can0  098   [1]  01
 (2025-08-07 21:11:32.544408)  can0  043   [4]  00 87 1E 00
 (2025-08-07 21:11:32.544623)  can0  098   [1]  00
 (2025-08-07 21:11:32.552565)  can0  02F   [2]  28 02
 (2025-08-07 21:11:32.552699)  can0  02F   [2]  51 03
 (2025-08-07 21:11:32.553848)  can0  043   [4]  00 87 1E 00
 (2025-08-07 21:11:32.554349)  can0  043   [4]  00 D5 56 00
 (2025-08-07 21:11:32.554432)  can0  098   [1]  00
 (2025-08-07 21:11:32.554593)  can0  098   [1]  01
 (2025-08-07 21:11:32.563795)  can0  043   [4]  00 87 1E 00
 (2025-08-07 21:11:32.564265)  can0  043   [4]  00 D5 56 00
 (2025-08-07 21:11:32.564363)  can0  098   [1]  01
 (2025-08-07 21:11:32.564478)  can0  098   [1]  00
 (2025-08-07 21:11:32.566715)  can0  02F   [2]  28 02
 (2025-08-07 21:11:32.567313)  can0  02F   [2]  5B 03
 (2025-08-07 21:11:32.573909)  can0  043   [4]  00 87 1E 00
 (2025-08-07 21:11:32.574346)  can0  043   [4]  00 D5 56 00
 (2025-08-07 21:11:32.574445)  can0  098   [1]  01
 (2025-08-07 21:11:32.574553)  can0  098   [1]  00
 (2025-08-07 21:11:32.582277)  can0  02F   [2]  32 02
 (2025-08-07 21:11:32.583088)  can0  02F   [2]  5B 03
 (2025-08-07 21:11:32.584186)  can0  043   [4]  00 87 1E 00
 (2025-08-07 21:11:32.584391)  can0  043   [4]  00 D5 56 00
 (2025-08-07 21:11:32.584509)  can0  098   [1]  01
 (2025-08-07 21:11:32.584837)  can0  098   [1]  00
 (2025-08-07 21:11:32.594398)  can0  043   [4]  00 D5 56 00
 (2025-08-07 21:11:32.594460)  can0  098   [1]  01
 (2025-08-07 21:11:32.594890)  can0  043   [4]  00 87 1E 00
 (2025-08-07 21:11:32.595169)  can0  098   [1]  00
 (2025-08-07 21:11:32.597479)  can0  02F   [2]  32 02
 (2025-08-07 21:11:32.599829)  can0  02F   [2]  5B 03
 (2025-08-07 21:11:32.604322)  can0  043   [4]  00 D5 56 00
 (2025-08-07 21:11:32.604407)  can0  098   [1]  01
 (2025-08-07 21:11:32.605141)  can0  043   [4]  00 87 1E 00
 (2025-08-07 21:11:32.605381)  can0  098   [1]  00
 (2025-08-07 21:11:32.612529)  can0  02F   [2]  32 02
 (2025-08-07 21:11:32.613786)  can0  02F   [2]  65 03
 (2025-08-07 21:11:32.614281)  can0  043   [4]  00 87 1E 00
 (2025-08-07 21:11:32.614651)  can0  043   [4]  00 D5 56 00
 (2025-08-07 21:11:32.614797)  can0  098   [1]  01
 (2025-08-07 21:11:32.614991)  can0  098   [1]  00
 (2025-08-07 21:11:32.624762)  can0  043   [4]  00 D5 56 00
 (2025-08-07 21:11:32.624830)  can0  098   [1]  01
 (2025-08-07 21:11:32.625133)  can0  043   [4]  00 87 1E 00
 (2025-08-07 21:11:32.625352)  can0  098   [1]  00
 (2025-08-07 21:11:32.629133)  can0  02F   [2]  65 03
 (2025-08-07 21:11:32.629246)  can0  02F   [2]  3C 02
 (2025-08-07 21:11:32.634230)  can0  043   [4]  00 87 1E 00
 (2025-08-07 21:11:32.634785)  can0  043   [4]  00 D5 56 00
 (2025-08-07 21:11:32.635070)  can0  098   [1]  00
 (2025-08-07 21:11:32.635185)  can0  098   [1]  01
 (2025-08-07 21:11:32.642582)  can0  02F   [2]  3C 02
 (2025-08-07 21:11:32.644117)  can0  02F   [2]  6F 03
