 (2025-08-07 20:52:57.761041)  can0  043   [8]  CA E0 87 04 56 07 F3 A7
 (2025-08-07 20:52:57.766547)  can0  02F   [2]  A3 02
 (2025-08-07 20:52:57.766765)  can0  098   [8]  FC 97 32 A7 D5 A9 63 FE
 (2025-08-07 20:52:57.767268)  can0  043   [4]  00 40 00 00
 (2025-08-07 20:52:57.767352)  can0  098   [1]  00
 (2025-08-07 20:52:57.773286)  can0  043   [8]  CB 40 56 12 E9 71 56 F7
 (2025-08-07 20:52:57.777214)  can0  043   [4]  00 40 00 00
 (2025-08-07 20:52:57.777306)  can0  098   [1]  00
 (2025-08-07 20:52:57.779749)  can0  02F   [8]  30 27 57 90 DD A1 9B 0D
 (2025-08-07 20:52:57.782321)  can0  02F   [2]  AD 02
 (2025-08-07 20:52:57.786527)  can0  043   [4]  00 40 00 00
 (2025-08-07 20:52:57.786720)  can0  043   [8]  D5 1B 03 2D 0D 36 A2 D0
 (2025-08-07 20:52:57.786846)  can0  098   [1]  00
 (2025-08-07 20:52:57.792386)  can0  043   [8]  A9 02 67 85 CE BF 35 9B
 (2025-08-07 20:52:57.796864)  can0  043   [4]  00 40 00 00
 (2025-08-07 20:52:57.796956)  can0  098   [1]  00
 (2025-08-07 20:52:57.797926)  can0  02F   [2]  AD 02
 (2025-08-07 20:52:57.798822)  can0  02F   [8]  AD 2B AD E2 AF 57 C9 EE
 (2025-08-07 20:52:57.805302)  can0  043   [8]  E5 5E 78 F9 AF 74 CF F1
 (2025-08-07 20:52:57.806557)  can0  043   [4]  00 40 00 00
 (2025-08-07 20:52:57.806646)  can0  098   [1]  00
 (2025-08-07 20:52:57.811748)  can0  02F   [8]  3C DC D3 F8 E5 7C 13 9F
 (2025-08-07 20:52:57.812897)  can0  02F   [2]  B7 02
 (2025-08-07 20:52:57.816579)  can0  043   [4]  00 40 00 00
 (2025-08-07 20:52:57.816662)  can0  098   [1]  00
 (2025-08-07 20:52:57.818738)  can0  043   [8]  4E DF AD 29 68 42 47 47
 (2025-08-07 20:52:57.824457)  can0  043   [8]  A7 91 66 60 1D 04 C1 4D
 (2025-08-07 20:52:57.826847)  can0  043   [4]  00 40 00 00
 (2025-08-07 20:52:57.826991)  can0  098   [1]  00
 (2025-08-07 20:52:57.828190)  can0  02F   [2]  B7 02
 (2025-08-07 20:52:57.830858)  can0  02F   [8]  72 E0 B3 BB BF 5F 30 DA
 (2025-08-07 20:52:57.836784)  can0  043   [4]  00 40 00 00
 (2025-08-07 20:52:57.836892)  can0  098   [1]  00
 (2025-08-07 20:52:57.837877)  can0  043   [8]  32 7B 8B 1B F3 88 B5 3F
 (2025-08-07 20:52:57.843612)  can0  02F   [2]  C1 02
 (2025-08-07 20:52:57.844228)  can0  02F   [8]  36 1F DB BE 27 C5 76 3A
 (2025-08-07 20:52:57.847219)  can0  043   [4]  00 40 00 00
 (2025-08-07 20:52:57.847303)  can0  098   [1]  00
 (2025-08-07 20:52:57.849969)  can0  098   [8]  54 26 FA 90 A2 02 4B 6B
 (2025-08-07 20:52:57.856840)  can0  043   [8]  F2 03 27 7E BF 44 EC AF
 (2025-08-07 20:52:57.857058)  can0  043   [4]  00 40 00 00
 (2025-08-07 20:52:57.857173)  can0  098   [1]  00
 (2025-08-07 20:52:57.858878)  can0  02F   [2]  C1 02
 (2025-08-07 20:52:57.863094)  can0  02F   [8]  A7 7F 27 86 ED 04 A7 25
 (2025-08-07 20:52:57.867095)  can0  043   [4]  00 40 00 00
 (2025-08-07 20:52:57.867189)  can0  098   [1]  00
 (2025-08-07 20:52:57.868842)  can0  043   [8]  9B A9 7E 5D 96 95 CF 02
 (2025-08-07 20:52:57.873511)  can0  02F   [2]  C1 02
 (2025-08-07 20:52:57.875788)  can0  02F   [8]  C4 64 E9 BB 6E 43 0B 1D
 (2025-08-07 20:52:57.877202)  can0  043   [4]  00 40 00 00
 (2025-08-07 20:52:57.877289)  can0  098   [1]  00
 (2025-08-07 20:52:57.881512)  can0  043   [8]  50 06 A8 E8 CE 73 80 39
 (2025-08-07 20:52:57.887160)  can0  043   [4]  00 40 00 00
 (2025-08-07 20:52:57.887259)  can0  098   [1]  00
 (2025-08-07 20:52:57.887956)  can0  098   [8]  8B 78 10 CE 5C AB DA 77
 (2025-08-07 20:52:57.889381)  can0  02F   [2]  CC 02
 (2025-08-07 20:52:57.894422)  can0  02F   [8]  F5 C3 1B B1 99 80 45 D4
 (2025-08-07 20:52:57.897185)  can0  043   [4]  00 40 00 00
 (2025-08-07 20:52:57.897264)  can0  098   [1]  00
 (2025-08-07 20:52:57.900831)  can0  043   [8]  D1 BE 6F CB F6 75 7B 6A
 (2025-08-07 20:52:57.903759)  can0  02F   [2]  CC 02
 (2025-08-07 20:52:57.906731)  can0  043   [4]  00 40 00 00
 (2025-08-07 20:52:57.906819)  can0  098   [1]  00
 (2025-08-07 20:52:57.907280)  can0  02F   [8]  FB 2A EC 84 AF 82 9C 1C
 (2025-08-07 20:52:57.913771)  can0  043   [8]  07 4E A3 36 53 92 98 01
 (2025-08-07 20:52:57.916797)  can0  043   [4]  00 40 00 00
 (2025-08-07 20:52:57.916871)  can0  098   [1]  00
 (2025-08-07 20:52:57.919018)  can0  02F   [2]  CC 02
 (2025-08-07 20:52:57.920232)  can0  098   [8]  8A C6 7F F6 10 92 15 31
 (2025-08-07 20:52:57.926600)  can0  02F   [8]  68 D6 9F 9E DA B6 49 76
 (2025-08-07 20:52:57.926798)  can0  043   [4]  00 40 00 00
 (2025-08-07 20:52:57.926884)  can0  098   [1]  00
 (2025-08-07 20:52:57.933529)  can0  043   [8]  7E 07 CD 90 BE 27 7E 73
 (2025-08-07 20:52:57.936427)  can0  02F   [2]  D6 02
 (2025-08-07 20:52:57.936712)  can0  043   [4]  00 40 00 00
 (2025-08-07 20:52:57.936828)  can0  098   [1]  00
 (2025-08-07 20:52:57.939852)  can0  02F   [8]  7D 83 0B 2A A3 92 23 7C
 (2025-08-07 20:52:57.945530)  can0  043   [8]  67 7D 7A C1 23 8F 6C 6D
 (2025-08-07 20:52:57.947738)  can0  043   [4]  00 40 00 00
 (2025-08-07 20:52:57.947835)  can0  098   [1]  00
 (2025-08-07 20:52:57.950029)  can0  02F   [2]  D6 02
 (2025-08-07 20:52:57.952029)  can0  098   [8]  18 C7 B4 3E 10 6A D9 68
 (2025-08-07 20:52:57.957772)  can0  043   [4]  00 40 00 00
 (2025-08-07 20:52:57.957855)  can0  098   [1]  00
 (2025-08-07 20:52:57.959099)  can0  02F   [8]  A5 D2 5B CC 02 5A 3D 04
 (2025-08-07 20:52:57.964836)  can0  043   [8]  1C 78 F4 01 5F 4B 01 28
 (2025-08-07 20:52:57.965631)  can0  02F   [2]  D6 02
 (2025-08-07 20:52:57.968203)  can0  043   [4]  00 40 00 00
 (2025-08-07 20:52:57.968315)  can0  098   [1]  00
 (2025-08-07 20:52:57.971275)  can0  02F   [8]  37 FA 57 22 02 B0 7E D2
 (2025-08-07 20:52:57.977632)  can0  043   [8]  4E 83 25 9D 47 1F 3E B1
 (2025-08-07 20:52:57.978240)  can0  043   [4]  00 40 00 00
 (2025-08-07 20:52:57.978323)  can0  098   [1]  00
 (2025-08-07 20:52:57.980965)  can0  02F   [2]  E0 02
 (2025-08-07 20:52:57.984031)  can0  098   [8]  30 DE A5 30 66 46 31 03
 (2025-08-07 20:52:57.987606)  can0  043   [4]  00 40 00 00
 (2025-08-07 20:52:57.987685)  can0  098   [1]  00
 (2025-08-07 20:52:57.990442)  can0  043   [8]  63 EE 3C 64 F2 33 D9 D2
 (2025-08-07 20:52:57.993635)  can0  098   [1]  00
 (2025-08-07 20:52:57.993779)  can0  043   [4]  00 2D B8 00
 (2025-08-07 20:52:57.994555)  can0  098   [1]  00
 (2025-08-07 20:52:57.996103)  can0  02F   [2]  E0 02
 (2025-08-07 20:52:57.996982)  can0  098   [8]  58 21 82 41 5D AE 15 76
 (2025-08-07 20:52:57.997632)  can0  043   [4]  00 2D B8 00
 (2025-08-07 20:52:57.997709)  can0  098   [1]  01
 (2025-08-07 20:52:58.004055)  can0  02F   [8]  A9 2C 3D 56 03 06 74 2B
 (2025-08-07 20:52:58.008195)  can0  043   [4]  00 2D B8 00
 (2025-08-07 20:52:58.008269)  can0  098   [1]  01
 (2025-08-07 20:52:58.009761)  can0  043   [8]  E9 26 A9 57 9B DC F2 5D
 (2025-08-07 20:52:58.012080)  can0  02F   [2]  E0 02
 (2025-08-07 20:52:58.016673)  can0  098   [8]  66 AF 29 34 B3 0A 48 C7
 (2025-08-07 20:52:58.017956)  can0  043   [4]  00 2D B8 00
 (2025-08-07 20:52:58.018089)  can0  098   [1]  01
 (2025-08-07 20:52:58.022590)  can0  043   [8]  31 E3 D3 6C 4C 16 60 E8
 (2025-08-07 20:52:58.026744)  can0  02F   [2]  EA 02
 (2025-08-07 20:52:58.028038)  can0  043   [4]  00 2D B8 00
 (2025-08-07 20:52:58.028117)  can0  098   [1]  01
 (2025-08-07 20:52:58.029095)  can0  043   [8]  E7 C2 10 5C 19 9A AA EE
 (2025-08-07 20:52:58.036106)  can0  098   [8]  8F 13 23 94 1C CC 57 AC
 (2025-08-07 20:52:58.038010)  can0  043   [4]  00 2D B8 00
 (2025-08-07 20:52:58.038084)  can0  098   [1]  01
 (2025-08-07 20:52:58.041296)  can0  02F   [2]  EA 02
 (2025-08-07 20:52:58.041843)  can0  043   [8]  EB F6 3C 1B CD 96 FE 1F
 (2025-08-07 20:52:58.048061)  can0  043   [4]  00 2D B8 00
 (2025-08-07 20:52:58.048146)  can0  098   [1]  01
 (2025-08-07 20:52:58.048898)  can0  098   [8]  BD C0 88 E7 32 3A 88 1D
 (2025-08-07 20:52:58.055165)  can0  043   [8]  35 99 D8 67 84 F2 BF 30
 (2025-08-07 20:52:58.056288)  can0  02F   [2]  EA 02
 (2025-08-07 20:52:58.058067)  can0  043   [4]  00 2D B8 00
 (2025-08-07 20:52:58.058179)  can0  098   [1]  01
 (2025-08-07 20:52:58.060885)  can0  02F   [8]  51 AF 4D 82 FF CA B2 2E
 (2025-08-07 20:52:58.067283)  can0  043   [8]  70 7C 09 FE DB AF E5 EE
 (2025-08-07 20:52:58.067971)  can0  043   [4]  00 2D B8 00
 (2025-08-07 20:52:58.068054)  can0  098   [1]  01
 (2025-08-07 20:52:58.071190)  can0  02F   [2]  F5 02
 (2025-08-07 20:52:58.073692)  can0  043   [8]  30 E2 A6 F8 85 78 82 7E
 (2025-08-07 20:52:58.077994)  can0  043   [4]  00 2D B8 00
 (2025-08-07 20:52:58.078071)  can0  098   [1]  01
 (2025-08-07 20:52:58.080085)  can0  098   [8]  F4 E3 99 DB 16 6F B3 18
 (2025-08-07 20:52:58.086113)  can0  02F   [2]  F5 02
 (2025-08-07 20:52:58.086499)  can0  043   [8]  0E C0 CF 96 D3 D3 5F A7
 (2025-08-07 20:52:58.087992)  can0  043   [4]  00 2D B8 00
 (2025-08-07 20:52:58.088075)  can0  098   [1]  01
 (2025-08-07 20:52:58.093464)  can0  02F   [8]  DA 54 2A 42 1A 70 1C 37
 (2025-08-07 20:52:58.098021)  can0  043   [4]  00 2D B8 00
 (2025-08-07 20:52:58.098092)  can0  098   [1]  01
 (2025-08-07 20:52:58.099290)  can0  043   [8]  5E 83 C2 E3 37 6F 27 3A
 (2025-08-07 20:52:58.101021)  can0  02F   [2]  F5 02
 (2025-08-07 20:52:58.105732)  can0  043   [8]  25 8D 9A 87 DF 74 25 04
 (2025-08-07 20:52:58.108006)  can0  043   [4]  00 2D B8 00
 (2025-08-07 20:52:58.108084)  can0  098   [1]  01
 (2025-08-07 20:52:58.112165)  can0  098   [8]  48 79 59 66 9B A0 65 C1
 (2025-08-07 20:52:58.116052)  can0  02F   [2]  FF 02
 (2025-08-07 20:52:58.118006)  can0  043   [4]  00 2D B8 00
 (2025-08-07 20:52:58.118083)  can0  098   [1]  01
 (2025-08-07 20:52:58.118656)  can0  02F   [8]  55 7D 54 D0 7A A9 09 7D
 (2025-08-07 20:52:58.125967)  can0  043   [8]  07 BD 53 C6 BE D0 2A E7
 (2025-08-07 20:52:58.127979)  can0  043   [4]  00 2D B8 00
 (2025-08-07 20:52:58.128067)  can0  098   [1]  01
 (2025-08-07 20:52:58.131083)  can0  02F   [2]  FF 02
 (2025-08-07 20:52:58.132490)  can0  02F   [8]  1D 26 C0 1D 04 4A 8C 7F
 (2025-08-07 20:52:58.137950)  can0  043   [4]  00 2D B8 00
 (2025-08-07 20:52:58.138165)  can0  043   [8]  A8 29 C6 4E 65 0E 6F 7F
 (2025-08-07 20:52:58.138273)  can0  098   [1]  01
 (2025-08-07 20:52:58.145227)  can0  098   [8]  6D E0 BD 9A 8C DC 12 3E
 (2025-08-07 20:52:58.147867)  can0  043   [4]  00 2D B8 00
 (2025-08-07 20:52:58.147957)  can0  098   [1]  01
 (2025-08-07 20:52:58.148357)  can0  02F   [2]  FF 02
 (2025-08-07 20:52:58.151538)  can0  02F   [8]  72 E3 88 FA E6 FC E7 C7
 (2025-08-07 20:52:58.157217)  can0  043   [8]  0D 6C 3B C4 81 A8 4A 1E
 (2025-08-07 20:52:58.157948)  can0  043   [4]  00 2D B8 00
 (2025-08-07 20:52:58.158042)  can0  098   [1]  01
 (2025-08-07 20:52:58.161207)  can0  02F   [2]  09 03
 (2025-08-07 20:52:58.163693)  can0  098   [8]  FE 0F A0 6D 04 6C C2 B6
 (2025-08-07 20:52:58.167975)  can0  043   [4]  00 2D B8 00
 (2025-08-07 20:52:58.168055)  can0  098   [1]  01
 (2025-08-07 20:52:58.170062)  can0  043   [8]  BF 49 F0 2D DF 81 5C 38
 (2025-08-07 20:52:58.176186)  can0  02F   [2]  09 03
 (2025-08-07 20:52:58.176399)  can0  098   [8]  16 96 03 33 21 C2 8C B9
 (2025-08-07 20:52:58.177948)  can0  043   [4]  00 2D B8 00
 (2025-08-07 20:52:58.178030)  can0  098   [1]  01
 (2025-08-07 20:52:58.183112)  can0  02F   [8]  AF 6F 3D AB 40 0F AB 55
 (2025-08-07 20:52:58.188023)  can0  043   [4]  00 2D B8 00
 (2025-08-07 20:52:58.188111)  can0  098   [1]  01
 (2025-08-07 20:52:58.188837)  can0  043   [8]  41 37 8E 2C 4D B5 81 7E
 (2025-08-07 20:52:58.191139)  can0  02F   [2]  09 03
 (2025-08-07 20:52:58.195793)  can0  098   [8]  10 C9 43 63 CC 4F 86 3C
 (2025-08-07 20:52:58.198022)  can0  043   [4]  00 2D B8 00
 (2025-08-07 20:52:58.198122)  can0  098   [1]  01
 (2025-08-07 20:52:58.201457)  can0  043   [8]  89 E9 79 F2 4B B2 71 EC
 (2025-08-07 20:52:58.206577)  can0  02F   [2]  13 03
 (2025-08-07 20:52:58.207842)  can0  098   [8]  B0 D0 74 84 B0 FF 20 D1
 (2025-08-07 20:52:58.208089)  can0  043   [4]  00 2D B8 00
 (2025-08-07 20:52:58.208200)  can0  098   [1]  01
 (2025-08-07 20:52:58.214108)  can0  02F   [8]  9A 07 67 A0 24 11 F9 81
 (2025-08-07 20:52:58.218141)  can0  043   [4]  00 2D B8 00
 (2025-08-07 20:52:58.218252)  can0  098   [1]  01
 (2025-08-07 20:52:58.220418)  can0  043   [8]  8B 47 E5 C3 47 AE DC 77
 (2025-08-07 20:52:58.221580)  can0  02F   [2]  13 03
 (2025-08-07 20:52:58.226725)  can0  098   [8]  15 36 F8 4E D9 EF E2 3D
 (2025-08-07 20:52:58.228174)  can0  043   [4]  00 2D B8 00
 (2025-08-07 20:52:58.228247)  can0  098   [1]  01
 (2025-08-07 20:52:58.233072)  can0  043   [8]  7F F6 4D 23 25 F5 F2 C8
 (2025-08-07 20:52:58.236398)  can0  02F   [2]  13 03
 (2025-08-07 20:52:58.238028)  can0  043   [4]  00 2D B8 00
 (2025-08-07 20:52:58.238131)  can0  098   [1]  01
 (2025-08-07 20:52:58.240009)  can0  098   [8]  CA 92 A1 60 5A A2 F0 49
 (2025-08-07 20:52:58.245695)  can0  02F   [8]  08 C4 8C 57 03 B9 47 B0
 (2025-08-07 20:52:58.248030)  can0  043   [4]  00 2D B8 00
 (2025-08-07 20:52:58.248100)  can0  098   [1]  01
 (2025-08-07 20:52:58.251282)  can0  02F   [2]  1D 03
 (2025-08-07 20:52:58.252349)  can0  043   [8]  7D 2B F2 32 BE F9 12 99
 (2025-08-07 20:52:58.258042)  can0  043   [4]  00 2D B8 00
 (2025-08-07 20:52:58.258119)  can0  098   [1]  01
 (2025-08-07 20:52:58.258640)  can0  098   [8]  F0 B0 A8 8B 09 90 0A D0
 (2025-08-07 20:52:58.265223)  can0  043   [8]  39 B3 4D 70 2D E9 20 D3
 (2025-08-07 20:52:58.266432)  can0  02F   [2]  1D 03
 (2025-08-07 20:52:58.268075)  can0  043   [4]  00 2D B8 00
 (2025-08-07 20:52:58.268185)  can0  098   [1]  01
 (2025-08-07 20:52:58.272180)  can0  02F   [8]  0C 15 7C F3 3A 6B E9 51
 (2025-08-07 20:52:58.277868)  can0  043   [8]  C5 66 30 98 D4 DD B9 F3
 (2025-08-07 20:52:58.278072)  can0  043   [4]  00 2D B8 00
 (2025-08-07 20:52:58.278157)  can0  098   [1]  01
 (2025-08-07 20:52:58.281450)  can0  02F   [2]  1D 03
 (2025-08-07 20:52:58.284269)  can0  043   [8]  F9 50 A5 ED 86 6C 4E 6C
 (2025-08-07 20:52:58.288064)  can0  043   [4]  00 2D B8 00
 (2025-08-07 20:52:58.288145)  can0  098   [1]  01
 (2025-08-07 20:52:58.291183)  can0  098   [8]  AF 73 04 CA 28 B7 4F A4
 (2025-08-07 20:52:58.296299)  can0  02F   [2]  28 03
 (2025-08-07 20:52:58.296884)  can0  043   [8]  2E 82 3A 8C F1 BA 68 75
 (2025-08-07 20:52:58.298082)  can0  043   [4]  00 2D B8 00
 (2025-08-07 20:52:58.298159)  can0  098   [1]  01
 (2025-08-07 20:52:58.303388)  can0  043   [8]  B9 85 BB 34 60 92 61 4E
 (2025-08-07 20:52:58.308006)  can0  043   [4]  00 2D B8 00
 (2025-08-07 20:52:58.308089)  can0  098   [1]  01
 (2025-08-07 20:52:58.309818)  can0  098   [8]  EB 56 57 A2 5F 66 76 E6
 (2025-08-07 20:52:58.311074)  can0  02F   [2]  28 03
 (2025-08-07 20:52:58.316249)  can0  043   [8]  9D DE F5 83 12 C4 13 BC
 (2025-08-07 20:52:58.318037)  can0  043   [4]  00 2D B8 00
 (2025-08-07 20:52:58.318116)  can0  098   [1]  01
 (2025-08-07 20:52:58.322629)  can0  098   [8]  AC 35 2B 0E E9 31 95 6E
 (2025-08-07 20:52:58.326506)  can0  02F   [2]  32 03
 (2025-08-07 20:52:58.328145)  can0  043   [4]  00 2D B8 00
 (2025-08-07 20:52:58.328221)  can0  098   [1]  01
 (2025-08-07 20:52:58.329723)  can0  043   [8]  B6 DA F6 8F AC 05 05 34
 (2025-08-07 20:52:58.335485)  can0  02F   [8]  66 2B E8 CC 54 98 A2 7D
 (2025-08-07 20:52:58.338019)  can0  043   [4]  00 2D B8 00
 (2025-08-07 20:52:58.338101)  can0  098   [1]  01
 (2025-08-07 20:52:58.341291)  can0  02F   [2]  32 03
 (2025-08-07 20:52:58.341864)  can0  043   [8]  75 F2 DB 0D 93 8B 96 C8
 (2025-08-07 20:52:58.348211)  can0  043   [4]  00 2D B8 00
 (2025-08-07 20:52:58.348292)  can0  098   [1]  01
 (2025-08-07 20:52:58.348660)  can0  043   [8]  32 B8 70 7A 5E 51 BD AD
 (2025-08-07 20:52:58.355103)  can0  098   [8]  02 82 6C CD 9D E0 18 5E
 (2025-08-07 20:52:58.357438)  can0  043   [4]  00 2D B8 00
 (2025-08-07 20:52:58.357519)  can0  098   [1]  01
 (2025-08-07 20:52:58.358523)  can0  02F   [2]  3C 03
 (2025-08-07 20:52:58.362138)  can0  043   [8]  74 53 A7 58 89 9D 32 83
 (2025-08-07 20:52:58.367325)  can0  043   [4]  00 2D B8 00
 (2025-08-07 20:52:58.367403)  can0  098   [1]  01
 (2025-08-07 20:52:58.368501)  can0  02F   [8]  B0 6C 14 86 C3 10 CA E5
 (2025-08-07 20:52:58.371510)  can0  02F   [2]  3C 03
 (2025-08-07 20:52:58.374230)  can0  043   [8]  73 A6 E2 E1 B4 C4 B9 92
 (2025-08-07 20:52:58.377242)  can0  043   [4]  00 2D B8 00
 (2025-08-07 20:52:58.377318)  can0  098   [1]  01
 (2025-08-07 20:52:58.380652)  can0  043   [8]  DF 36 EA F2 72 62 4F 40
 (2025-08-07 20:52:58.387018)  can0  098   [8]  4C 26 43 12 A4 7A 0B D1
 (2025-08-07 20:52:58.387158)  can0  02F   [2]  3C 03
 (2025-08-07 20:52:58.387639)  can0  043   [4]  00 2D B8 00
 (2025-08-07 20:52:58.387713)  can0  098   [1]  01
 (2025-08-07 20:52:58.393495)  can0  043   [8]  B7 42 A8 84 35 94 82 2B
 (2025-08-07 20:52:58.397270)  can0  043   [4]  00 2D B8 00
 (2025-08-07 20:52:58.397347)  can0  098   [1]  01
 (2025-08-07 20:52:58.399937)  can0  02F   [8]  A5 36 A0 47 9A 1F 8B 95
 (2025-08-07 20:52:58.401955)  can0  02F   [2]  46 03
 (2025-08-07 20:52:58.406323)  can0  043   [8]  30 BB F5 F2 4A 62 21 D3
 (2025-08-07 20:52:58.407572)  can0  043   [4]  00 2D B8 00
 (2025-08-07 20:52:58.407655)  can0  098   [1]  01
 (2025-08-07 20:52:58.412873)  can0  043   [8]  DD FA 02 59 97 ED 17 ED
 (2025-08-07 20:52:58.416840)  can0  02F   [2]  46 03
 (2025-08-07 20:52:58.418159)  can0  043   [4]  00 2D B8 00
 (2025-08-07 20:52:58.418231)  can0  098   [1]  01
 (2025-08-07 20:52:58.420112)  can0  098   [8]  97 9F C9 74 68 0B 64 B6
 (2025-08-07 20:52:58.425854)  can0  043   [8]  E2 89 10 23 2A 64 59 4D
 (2025-08-07 20:52:58.428156)  can0  043   [4]  00 2D B8 00
 (2025-08-07 20:52:58.428230)  can0  098   [1]  01
 (2025-08-07 20:52:58.432338)  can0  02F   [8]  63 0B AB C8 2B 13 A5 64
 (2025-08-07 20:52:58.432412)  can0  02F   [2]  46 03
 (2025-08-07 20:52:58.437464)  can0  043   [4]  00 2D B8 00
 (2025-08-07 20:52:58.437544)  can0  098   [1]  01
 (2025-08-07 20:52:58.438803)  can0  043   [8]  9D 7E 4A 31 D9 86 A1 55
 (2025-08-07 20:52:58.445291)  can0  043   [8]  3D E0 CE 1C 9D D3 C9 8B
 (2025-08-07 20:52:58.447642)  can0  043   [4]  00 2D B8 00
 (2025-08-07 20:52:58.447721)  can0  098   [1]  01
 (2025-08-07 20:52:58.448248)  can0  02F   [2]  51 03
 (2025-08-07 20:52:58.451765)  can0  098   [8]  73 A4 ED CF 33 0E 15 B7
 (2025-08-07 20:52:58.458161)  can0  043   [8]  14 5A 50 82 4A 12 94 05
 (2025-08-07 20:52:58.458325)  can0  043   [4]  00 2D B8 00
 (2025-08-07 20:52:58.458421)  can0  098   [1]  01
 (2025-08-07 20:52:58.463010)  can0  02F   [2]  51 03
 (2025-08-07 20:52:58.464610)  can0  02F   [8]  8E D6 87 F7 81 73 16 28
 (2025-08-07 20:52:58.468197)  can0  043   [4]  00 2D B8 00
 (2025-08-07 20:52:58.468274)  can0  098   [1]  01
 (2025-08-07 20:52:58.470989)  can0  043   [8]  E5 1D 22 4F 29 5B 08 A2
 (2025-08-07 20:52:58.477742)  can0  043   [8]  B4 A2 23 72 DF B2 B3 81
 (2025-08-07 20:52:58.478464)  can0  043   [4]  00 2D B8 00
 (2025-08-07 20:52:58.478570)  can0  098   [1]  01
 (2025-08-07 20:52:58.479837)  can0  02F   [2]  51 03
 (2025-08-07 20:52:58.483985)  can0  098   [8]  98 B8 0F 3D AB 6D 51 BA
 (2025-08-07 20:52:58.488235)  can0  043   [4]  00 2D B8 00
 (2025-08-07 20:52:58.488334)  can0  098   [1]  01
 (2025-08-07 20:52:58.490187)  can0  043   [8]  FC C3 EE 2A 70 17 B7 0D
 (2025-08-07 20:52:58.492549)  can0  02F   [2]  5B 03
 (2025-08-07 20:52:58.495918)  can0  02F   [8]  88 C5 84 4A D8 A3 99 0C
 (2025-08-07 20:52:58.498224)  can0  043   [4]  00 2D B8 00
 (2025-08-07 20:52:58.498291)  can0  098   [1]  01
 (2025-08-07 20:52:58.502289)  can0  043   [8]  5E D4 24 2C F5 42 26 54
 (2025-08-07 20:52:58.508088)  can0  02F   [2]  5B 03
 (2025-08-07 20:52:58.508306)  can0  043   [4]  00 2D B8 00
 (2025-08-07 20:52:58.508429)  can0  098   [1]  01
 (2025-08-07 20:52:58.508707)  can0  043   [8]  F1 0D BC 10 46 09 5C DD
 (2025-08-07 20:52:58.515031)  can0  02F   [8]  3A 09 F5 14 25 00 D4 D1
 (2025-08-07 20:52:58.518226)  can0  043   [4]  00 2D B8 00
 (2025-08-07 20:52:58.518314)  can0  098   [1]  01
 (2025-08-07 20:52:58.521327)  can0  043   [8]  0C E2 E0 A5 11 9E 3E 24
 (2025-08-07 20:52:58.522444)  can0  02F   [2]  65 03
 (2025-08-07 20:52:58.527774)  can0  043   [4]  00 2D B8 00
 (2025-08-07 20:52:58.527868)  can0  098   [1]  01
 (2025-08-07 20:52:58.528208)  can0  02F   [8]  20 27 F0 85 59 76 71 71
 (2025-08-07 20:52:58.533886)  can0  043   [8]  81 FB C4 F7 AC 2C 26 D8
 (2025-08-07 20:52:58.537820)  can0  043   [4]  00 2D B8 00
 (2025-08-07 20:52:58.537903)  can0  098   [1]  01
 (2025-08-07 20:52:58.538891)  can0  02F   [2]  65 03
 (2025-08-07 20:52:58.540312)  can0  043   [8]  36 C6 12 78 BA 04 08 F4
 (2025-08-07 20:52:58.547150)  can0  02F   [8]  02 EA EA 68 7C 3F 66 41
 (2025-08-07 20:52:58.547373)  can0  043   [4]  00 2D B8 00
 (2025-08-07 20:52:58.547508)  can0  098   [1]  01
 (2025-08-07 20:52:58.553953)  can0  02F   [2]  65 03
 (2025-08-07 20:52:58.554319)  can0  043   [8]  31 3D 24 08 84 53 99 E1
 (2025-08-07 20:52:58.558135)  can0  043   [4]  00 2D B8 00
 (2025-08-07 20:52:58.558220)  can0  098   [1]  01
 (2025-08-07 20:52:58.560446)  can0  02F   [8]  C3 5E 0B F5 01 23 1F 06
 (2025-08-07 20:52:58.566557)  can0  043   [8]  F3 0C 59 57 8F 2B 33 69
 (2025-08-07 20:52:58.568115)  can0  043   [4]  00 2D B8 00
 (2025-08-07 20:52:58.568201)  can0  098   [1]  01
 (2025-08-07 20:52:58.569656)  can0  02F   [2]  6F 03
 (2025-08-07 20:52:58.572274)  can0  043   [8]  9A B9 4D DC EB 78 3B 73
 (2025-08-07 20:52:58.578130)  can0  043   [4]  00 2D B8 00
 (2025-08-07 20:52:58.578227)  can0  098   [1]  01
 (2025-08-07 20:52:58.578562)  can0  02F   [8]  A5 12 71 74 5D E1 51 5B
 (2025-08-07 20:52:58.584437)  can0  02F   [2]  6F 03
 (2025-08-07 20:52:58.585349)  can0  043   [8]  84 B6 56 8A 01 CE 9C 83
 (2025-08-07 20:52:58.588033)  can0  043   [4]  00 2D B8 00
 (2025-08-07 20:52:58.588151)  can0  098   [1]  01
 (2025-08-07 20:52:58.591591)  can0  043   [8]  B6 21 9C 3C 8F 90 20 25
 (2025-08-07 20:52:58.597234)  can0  02F   [8]  D4 F3 10 7C 08 73 54 B1
 (2025-08-07 20:52:58.598052)  can0  043   [4]  00 2D B8 00
 (2025-08-07 20:52:58.598137)  can0  098   [1]  01
 (2025-08-07 20:52:58.600440)  can0  02F   [2]  6F 03
 (2025-08-07 20:52:58.603610)  can0  043   [8]  4D 18 0E 28 FE 09 D5 45
 (2025-08-07 20:52:58.608081)  can0  043   [4]  00 2D B8 00
 (2025-08-07 20:52:58.608160)  can0  098   [1]  01
 (2025-08-07 20:52:58.610492)  can0  02F   [8]  95 0A 16 B3 68 4B E8 07
 (2025-08-07 20:52:58.616184)  can0  02F   [2]  7A 03
 (2025-08-07 20:52:58.616563)  can0  043   [8]  CF E9 B3 89 45 75 87 3E
 (2025-08-07 20:52:58.618071)  can0  043   [4]  00 2D B8 00
 (2025-08-07 20:52:58.618146)  can0  098   [1]  01
 (2025-08-07 20:52:58.622262)  can0  043   [8]  73 36 2F DA C0 83 2B 8E
 (2025-08-07 20:52:58.628095)  can0  043   [4]  00 2D B8 00
 (2025-08-07 20:52:58.628191)  can0  098   [1]  01
 (2025-08-07 20:52:58.628861)  can0  02F   [8]  62 06 9D 93 5A FB 30 8E
 (2025-08-07 20:52:58.631315)  can0  02F   [2]  7A 03
 (2025-08-07 20:52:58.635063)  can0  043   [8]  7D B6 5D 4A 12 C4 96 14
 (2025-08-07 20:52:58.638081)  can0  043   [4]  00 2D B8 00
 (2025-08-07 20:52:58.638166)  can0  098   [1]  01
 (2025-08-07 20:52:58.641583)  can0  02F   [8]  55 E0 E0 09 55 53 91 31
 (2025-08-07 20:52:58.646165)  can0  02F   [2]  7A 03
 (2025-08-07 20:52:58.647963)  can0  043   [4]  00 2D B8 00
 (2025-08-07 20:52:58.648064)  can0  098   [1]  01
 (2025-08-07 20:52:58.648435)  can0  043   [8]  41 FA 2D 99 B5 D7 4A 99
 (2025-08-07 20:52:58.654123)  can0  043   [8]  AB FE C8 76 4C 10 6E B2
 (2025-08-07 20:52:58.658048)  can0  043   [4]  00 2D B8 00
 (2025-08-07 20:52:58.658130)  can0  098   [1]  01
 (2025-08-07 20:52:58.660406)  can0  02F   [8]  F9 3B 92 57 80 B2 24 9C
 (2025-08-07 20:52:58.661185)  can0  02F   [2]  84 03
 (2025-08-07 20:52:58.666674)  can0  043   [8]  18 43 31 1D 19 98 61 67
 (2025-08-07 20:52:58.668060)  can0  043   [4]  00 2D B8 00
 (2025-08-07 20:52:58.668149)  can0  098   [1]  01
 (2025-08-07 20:52:58.672953)  can0  02F   [8]  0F C9 D9 2C E2 7D C9 69
 (2025-08-07 20:52:58.676684)  can0  02F   [2]  84 03
 (2025-08-07 20:52:58.677999)  can0  043   [4]  00 2D B8 00
 (2025-08-07 20:52:58.678113)  can0  098   [1]  01
 (2025-08-07 20:52:58.679350)  can0  043   [8]  7B 6E BC 09 25 C4 A3 27
 (2025-08-07 20:52:58.685624)  can0  043   [8]  AA 10 E2 E2 BD DA 83 0D
 (2025-08-07 20:52:58.688132)  can0  043   [4]  00 2D B8 00
 (2025-08-07 20:52:58.688215)  can0  098   [1]  01
 (2025-08-07 20:52:58.692545)  can0  02F   [8]  30 F3 CC A1 98 7C 9B C8
 (2025-08-07 20:52:58.692689)  can0  02F   [2]  84 03
 (2025-08-07 20:52:58.698044)  can0  043   [4]  00 2D B8 00
 (2025-08-07 20:52:58.698123)  can0  098   [1]  01
 (2025-08-07 20:52:58.698718)  can0  043   [8]  4C A3 03 D4 94 F0 E3 ED
 (2025-08-07 20:52:58.704395)  can0  02F   [8]  0C F2 8E AA F3 F1 30 84
 (2025-08-07 20:52:58.708118)  can0  043   [4]  00 2D B8 00
 (2025-08-07 20:52:58.708189)  can0  098   [1]  01
 (2025-08-07 20:52:58.708342)  can0  02F   [2]  8E 03
 (2025-08-07 20:52:58.710688)  can0  043   [8]  11 E8 0B 87 EF 23 86 31
 (2025-08-07 20:52:58.717042)  can0  043   [8]  46 6E D4 F0 AE CF 92 DF
 (2025-08-07 20:52:58.718067)  can0  043   [4]  00 2D B8 00
 (2025-08-07 20:52:58.718141)  can0  098   [1]  01
 (2025-08-07 20:52:58.723401)  can0  02F   [8]  B1 3A 2E 6B 04 4F 22 D8
 (2025-08-07 20:52:58.723612)  can0  02F   [2]  8E 03
 (2025-08-07 20:52:58.727533)  can0  043   [4]  00 2D B8 00
 (2025-08-07 20:52:58.727622)  can0  098   [1]  01
 (2025-08-07 20:52:58.729754)  can0  043   [8]  5B A3 8E 89 DB E9 28 65
 (2025-08-07 20:52:58.736475)  can0  02F   [8]  A9 13 33 8D AE 8D 39 8F
 (2025-08-07 20:52:58.737684)  can0  043   [4]  00 2D B8 00
 (2025-08-07 20:52:58.737794)  can0  098   [1]  01
 (2025-08-07 20:52:58.738898)  can0  02F   [2]  8E 03
 (2025-08-07 20:52:58.742330)  can0  043   [8]  BB C1 F1 D5 79 BA 21 F4
 (2025-08-07 20:52:58.747777)  can0  043   [4]  00 2D B8 00
 (2025-08-07 20:52:58.747856)  can0  098   [1]  01
 (2025-08-07 20:52:58.748704)  can0  043   [8]  84 D9 17 09 63 1F A8 A2
 (2025-08-07 20:52:58.754123)  can0  02F   [2]  98 03
 (2025-08-07 20:52:58.755067)  can0  02F   [8]  BD 12 B5 39 2D 0D 2C 13
 (2025-08-07 20:52:58.757799)  can0  043   [4]  00 2D B8 00
 (2025-08-07 20:52:58.757872)  can0  098   [1]  01
 (2025-08-07 20:52:58.761454)  can0  043   [8]  D2 F1 8A 18 D6 5C BB 78
 (2025-08-07 20:52:58.767833)  can0  02F   [8]  9D 47 33 23 4C 18 83 1E
 (2025-08-07 20:52:58.767996)  can0  043   [4]  00 2D B8 00
 (2025-08-07 20:52:58.768092)  can0  098   [1]  01
 (2025-08-07 20:52:58.770098)  can0  02F   [2]  98 03
 (2025-08-07 20:52:58.774742)  can0  043   [8]  33 35 96 21 FA 4F 98 A7
 (2025-08-07 20:52:58.778114)  can0  043   [4]  00 2D B8 00
 (2025-08-07 20:52:58.778192)  can0  098   [1]  01
 (2025-08-07 20:52:58.780462)  can0  043   [8]  2C DD A4 B1 CF 41 DD 37
 (2025-08-07 20:52:58.785392)  can0  02F   [2]  98 03
 (2025-08-07 20:52:58.786878)  can0  02F   [8]  17 C1 3A DD 8E 70 61 D0
 (2025-08-07 20:52:58.788381)  can0  043   [4]  00 2D B8 00
 (2025-08-07 20:52:58.788462)  can0  098   [1]  01
 (2025-08-07 20:52:58.793375)  can0  043   [8]  8A 70 62 A6 6B C7 32 82
 (2025-08-07 20:52:58.797591)  can0  043   [4]  00 2D B8 00
 (2025-08-07 20:52:58.797675)  can0  098   [1]  01
 (2025-08-07 20:52:58.799934)  can0  02F   [8]  29 61 DA 01 17 FD 47 5B
 (2025-08-07 20:52:58.801050)  can0  02F   [2]  A2 03
 (2025-08-07 20:52:58.806318)  can0  043   [8]  CB E7 2D 7A EC F8 93 D5
 (2025-08-07 20:52:58.807355)  can0  043   [4]  00 2D B8 00
 (2025-08-07 20:52:58.807437)  can0  098   [1]  01
 (2025-08-07 20:52:58.812777)  can0  043   [8]  C3 CF 1D B2 5C 95 FD 39
 (2025-08-07 20:52:58.815795)  can0  02F   [2]  A2 03
 (2025-08-07 20:52:58.817616)  can0  043   [4]  00 2D B8 00
 (2025-08-07 20:52:58.817727)  can0  098   [1]  01
 (2025-08-07 20:52:58.819272)  can0  02F   [8]  87 F7 FC 3E B8 9E 89 D1
 (2025-08-07 20:52:58.825664)  can0  043   [8]  52 53 76 A4 50 42 F9 25
 (2025-08-07 20:52:58.828269)  can0  043   [4]  00 2D B8 00
 (2025-08-07 20:52:58.828352)  can0  098   [1]  01
 (2025-08-07 20:52:58.830496)  can0  02F   [2]  AD 03
 (2025-08-07 20:52:58.832057)  can0  02F   [8]  F6 C9 8B 11 8C C2 5F 3B
 (2025-08-07 20:52:58.837341)  can0  043   [4]  00 2D B8 00
 (2025-08-07 20:52:58.837424)  can0  098   [1]  01
 (2025-08-07 20:52:58.838603)  can0  043   [8]  8F 3B 46 34 87 79 00 57
 (2025-08-07 20:52:58.845655)  can0  043   [8]  4F 18 80 7D 21 99 86 BA
 (2025-08-07 20:52:58.845908)  can0  02F   [2]  AD 03
 (2025-08-07 20:52:58.847411)  can0  043   [4]  00 2D B8 00
 (2025-08-07 20:52:58.847521)  can0  098   [1]  01
 (2025-08-07 20:52:58.851469)  can0  02F   [8]  D5 9B 5F 31 3F 73 DC F7
 (2025-08-07 20:52:58.857305)  can0  043   [4]  00 2D B8 00
 (2025-08-07 20:52:58.857396)  can0  098   [1]  01
 (2025-08-07 20:52:58.857862)  can0  043   [8]  B2 FE 61 44 51 93 4A 2C
 (2025-08-07 20:52:58.860554)  can0  02F   [2]  B7 03
 (2025-08-07 20:52:58.864935)  can0  043   [8]  B9 33 A0 2F CB F4 18 6F
 (2025-08-07 20:52:58.867261)  can0  043   [4]  00 2D B8 00
 (2025-08-07 20:52:58.867386)  can0  098   [1]  01
 (2025-08-07 20:52:58.870661)  can0  098   [8]  F4 46 C3 64 DE 88 BD 48
 (2025-08-07 20:52:58.875650)  can0  02F   [2]  B7 03
 (2025-08-07 20:52:58.877257)  can0  043   [4]  00 2D B8 00
 (2025-08-07 20:52:58.877475)  can0  043   [8]  D7 80 59 98 C1 E8 37 04
 (2025-08-07 20:52:58.877608)  can0  098   [1]  01
 (2025-08-07 20:52:58.883840)  can0  02F   [8]  F6 64 D0 0D A6 1C 8C EC
 (2025-08-07 20:52:58.887189)  can0  043   [4]  00 2D B8 00
 (2025-08-07 20:52:58.887271)  can0  098   [1]  01
 (2025-08-07 20:52:58.890267)  can0  043   [8]  E8 38 5D ED DB F0 19 40
 (2025-08-07 20:52:58.890359)  can0  02F   [2]  B7 03
 (2025-08-07 20:52:58.896639)  can0  02F   [8]  3E 49 75 F8 C2 67 81 1A
 (2025-08-07 20:52:58.897307)  can0  043   [4]  00 2D B8 00
 (2025-08-07 20:52:58.897384)  can0  098   [1]  01
 (2025-08-07 20:52:58.903625)  can0  043   [8]  99 89 9D CA 4C 5B 7B B6
 (2025-08-07 20:52:58.905507)  can0  02F   [2]  C1 03
 (2025-08-07 20:52:58.907156)  can0  043   [4]  00 2D B8 00
 (2025-08-07 20:52:58.907268)  can0  098   [1]  01
 (2025-08-07 20:52:58.909345)  can0  043   [8]  87 86 51 D3 9C 99 EA 05
 (2025-08-07 20:52:58.915832)  can0  02F   [8]  DB AC C6 62 CA 46 E3 D8
 (2025-08-07 20:52:58.917162)  can0  043   [4]  00 2D B8 00
 (2025-08-07 20:52:58.917241)  can0  098   [1]  01
 (2025-08-07 20:52:58.920683)  can0  02F   [2]  C1 03
 (2025-08-07 20:52:58.922285)  can0  043   [8]  EC AA 98 3C C2 76 CF 54
 (2025-08-07 20:52:58.927280)  can0  043   [4]  00 2D B8 00
 (2025-08-07 20:52:58.927358)  can0  098   [1]  01
 (2025-08-07 20:52:58.929326)  can0  02F   [8]  35 C9 63 21 6D AD BB 08
 (2025-08-07 20:52:58.934983)  can0  043   [8]  D1 1F E9 F1 6D B7 25 14
 (2025-08-07 20:52:58.935425)  can0  02F   [2]  C1 03
 (2025-08-07 20:52:58.937381)  can0  043   [4]  00 2D B8 00
 (2025-08-07 20:52:58.937454)  can0  098   [1]  01
 (2025-08-07 20:52:58.941503)  can0  043   [8]  BF 74 20 3A 63 C3 02 40
 (2025-08-07 20:52:58.947249)  can0  043   [4]  00 2D B8 00
 (2025-08-07 20:52:58.947363)  can0  098   [1]  01
 (2025-08-07 20:52:58.947980)  can0  02F   [8]  46 3D C6 9F D4 89 56 75
 (2025-08-07 20:52:58.950496)  can0  02F   [2]  CB 03
 (2025-08-07 20:52:58.954983)  can0  043   [8]  DC F7 F8 A4 1F 2A B9 2D
 (2025-08-07 20:52:58.957229)  can0  043   [4]  00 2D B8 00
 (2025-08-07 20:52:58.957316)  can0  098   [1]  01
 (2025-08-07 20:52:58.960730)  can0  02F   [8]  E8 A8 24 7A 34 0F C0 27
 (2025-08-07 20:52:58.965386)  can0  02F   [2]  CB 03
 (2025-08-07 20:52:58.967140)  can0  043   [8]  75 AD BE C7 46 69 9D FB
 (2025-08-07 20:52:58.967404)  can0  043   [4]  00 2D B8 00
 (2025-08-07 20:52:58.967477)  can0  098   [1]  01
 (2025-08-07 20:52:58.974172)  can0  043   [8]  97 2F B1 CD E0 46 21 70
 (2025-08-07 20:52:58.977263)  can0  043   [4]  00 2D B8 00
 (2025-08-07 20:52:58.977362)  can0  098   [1]  01
 (2025-08-07 20:52:58.979981)  can0  02F   [8]  A5 7F C3 B9 6B 9F 5A D7
 (2025-08-07 20:52:58.980428)  can0  02F   [2]  D6 03
 (2025-08-07 20:52:58.986373)  can0  043   [8]  44 28 9E 18 55 57 67 68
 (2025-08-07 20:52:58.987270)  can0  043   [4]  00 2D B8 00
 (2025-08-07 20:52:58.987364)  can0  098   [1]  01
 (2025-08-07 20:52:58.992773)  can0  02F   [8]  1D 45 63 8C 24 A7 91 83
 (2025-08-07 20:52:58.995439)  can0  02F   [2]  D6 03
 (2025-08-07 20:52:58.997253)  can0  043   [4]  00 2D B8 00
 (2025-08-07 20:52:58.997336)  can0  098   [1]  00
 (2025-08-07 20:52:58.999154)  can0  098   [8]  D8 6B AC 5E 5A 8E 75 29
 (2025-08-07 20:52:59.005828)  can0  043   [8]  08 3E 47 3A 3D 33 48 2F
 (2025-08-07 20:52:59.007251)  can0  043   [4]  00 2D B8 00
 (2025-08-07 20:52:59.007343)  can0  098   [1]  00
 (2025-08-07 20:52:59.010563)  can0  02F   [2]  D6 03
 (2025-08-07 20:52:59.012852)  can0  02F   [8]  6B D1 AF 92 BA 71 7C 6A
 (2025-08-07 20:52:59.017323)  can0  043   [4]  00 2D B8 00
 (2025-08-07 20:52:59.017409)  can0  098   [1]  00
 (2025-08-07 20:52:59.019217)  can0  043   [8]  49 FF D9 1D 33 5C 21 5C
 (2025-08-07 20:52:59.024938)  can0  02F   [8]  5D C5 29 70 67 57 A9 92
 (2025-08-07 20:52:59.025508)  can0  02F   [2]  E0 03
 (2025-08-07 20:52:59.027268)  can0  043   [4]  00 2D B8 00
 (2025-08-07 20:52:59.027358)  can0  098   [1]  00
 (2025-08-07 20:52:59.031372)  can0  043   [8]  C6 EA 2B D9 A1 CA 6E CA
 (2025-08-07 20:52:59.037237)  can0  043   [4]  00 2D B8 00
 (2025-08-07 20:52:59.037345)  can0  098   [1]  00
 (2025-08-07 20:52:59.037793)  can0  098   [8]  A0 82 E1 82 77 DE 29 5C
 (2025-08-07 20:52:59.040466)  can0  02F   [2]  E0 03
 (2025-08-07 20:52:59.044315)  can0  02F   [8]  D0 AB 88 4F D4 6F E5 2B
 (2025-08-07 20:52:59.047469)  can0  043   [4]  00 2D B8 00
 (2025-08-07 20:52:59.047556)  can0  098   [1]  00
 (2025-08-07 20:52:59.050901)  can0  043   [8]  00 7B 2C BD EE EB D0 02
 (2025-08-07 20:52:59.055565)  can0  02F   [2]  E0 03
 (2025-08-07 20:52:59.057277)  can0  043   [4]  00 2D B8 00
 (2025-08-07 20:52:59.057364)  can0  098   [1]  00
 (2025-08-07 20:52:59.058013)  can0  02F   [8]  93 8F CC 81 66 55 D4 DC
 (2025-08-07 20:52:59.064359)  can0  043   [8]  1A 4F 68 92 AA 0A 91 B3
 (2025-08-07 20:52:59.067277)  can0  043   [4]  00 2D B8 00
 (2025-08-07 20:52:59.067352)  can0  098   [1]  00
 (2025-08-07 20:52:59.070208)  can0  098   [8]  B4 7C 47 68 2B 3C 56 81
 (2025-08-07 20:52:59.070689)  can0  02F   [2]  EA 03
 (2025-08-07 20:52:59.076662)  can0  02F   [8]  5B 0C A1 43 A2 AB AB E2
 (2025-08-07 20:52:59.077380)  can0  043   [4]  00 2D B8 00
 (2025-08-07 20:52:59.077459)  can0  098   [1]  00
 (2025-08-07 20:52:59.083618)  can0  043   [8]  C3 09 5B 2D 3F B6 CB 10
 (2025-08-07 20:52:59.085547)  can0  02F   [2]  EA 03
 (2025-08-07 20:52:59.087422)  can0  043   [4]  00 2D B8 00
 (2025-08-07 20:52:59.087531)  can0  098   [1]  00
 (2025-08-07 20:52:59.089270)  can0  02F   [8]  96 FC 23 52 23 22 21 35
 (2025-08-07 20:52:59.095562)  can0  043   [8]  9F 9D 6B 51 E4 06 73 AF
 (2025-08-07 20:52:59.097228)  can0  043   [4]  00 2D B8 00
 (2025-08-07 20:52:59.097299)  can0  098   [1]  00
 (2025-08-07 20:52:59.100610)  can0  02F   [2]  F4 03
 (2025-08-07 20:52:59.101860)  can0  098   [8]  88 60 13 BA BA 7F 00 A4
 (2025-08-07 20:52:59.107250)  can0  043   [4]  00 2D B8 00
 (2025-08-07 20:52:59.107328)  can0  098   [1]  00
 (2025-08-07 20:52:59.108262)  can0  02F   [8]  A5 E9 85 9F 49 C1 9F B8
 (2025-08-07 20:52:59.115040)  can0  043   [8]  50 23 47 2D 64 D7 79 38
 (2025-08-07 20:52:59.115570)  can0  02F   [2]  F4 03
 (2025-08-07 20:52:59.117192)  can0  043   [4]  00 2D B8 00
 (2025-08-07 20:52:59.117292)  can0  098   [1]  00
 (2025-08-07 20:52:59.121210)  can0  02F   [8]  4A 07 94 6F 64 19 92 6A
 (2025-08-07 20:52:59.126812)  can0  043   [8]  4C 12 11 01 2E 83 D6 EA
 (2025-08-07 20:52:59.127239)  can0  043   [4]  00 2D B8 00
 (2025-08-07 20:52:59.127312)  can0  098   [1]  00
 (2025-08-07 20:52:59.130240)  can0  02F   [2]  F4 03
 (2025-08-07 20:52:59.133651)  can0  098   [8]  DF 72 AF 1D 55 8A 57 CA
 (2025-08-07 20:52:59.137226)  can0  043   [4]  00 2D B8 00
 (2025-08-07 20:52:59.137296)  can0  098   [1]  00
 (2025-08-07 20:52:59.139393)  can0  02F   [8]  1A BE 4E A7 53 AD 3B 9D
 (2025-08-07 20:52:59.145417)  can0  02F   [2]  FE 03
 (2025-08-07 20:52:59.145492)  can0  02F   [2]  FE 03
 (2025-08-07 20:52:59.145849)  can0  02F   [8]  77 99 CA 50 6B F3 A8 7F
 (2025-08-07 20:52:59.147251)  can0  043   [4]  00 2D B8 00
 (2025-08-07 20:52:59.147323)  can0  098   [1]  00
 (2025-08-07 20:52:59.152162)  can0  043   [8]  4A 14 6F DC C5 73 06 E7
 (2025-08-07 20:52:59.157253)  can0  043   [4]  00 2D B8 00
 (2025-08-07 20:52:59.157325)  can0  098   [1]  00
 (2025-08-07 20:52:59.158526)  can0  043   [8]  0F B6 94 17 99 5B 29 A6
 (2025-08-07 20:52:59.160597)  can0  02F   [2]  FE 03
 (2025-08-07 20:52:59.164830)  can0  098   [8]  E7 B2 1C 22 47 81 99 92
 (2025-08-07 20:52:59.167271)  can0  043   [4]  00 2D B8 00
 (2025-08-07 20:52:59.167344)  can0  098   [1]  00
 (2025-08-07 20:52:59.171782)  can0  043   [8]  64 9C 17 94 34 68 41 D8
 (2025-08-07 20:52:59.175228)  can0  02F   [2]  FE 03
 (2025-08-07 20:52:59.177222)  can0  043   [4]  00 2D B8 00
 (2025-08-07 20:52:59.177308)  can0  098   [1]  00
 (2025-08-07 20:52:59.177753)  can0  02F   [8]  93 4F 98 CD 4F 11 88 17
 (2025-08-07 20:52:59.184499)  can0  043   [8]  96 F6 D2 A4 2E A1 FB EE
 (2025-08-07 20:52:59.187244)  can0  043   [4]  00 2D B8 00
 (2025-08-07 20:52:59.187332)  can0  098   [1]  00
 (2025-08-07 20:52:59.190217)  can0  043   [8]  43 3E FD 61 7A 88 44 7D
 (2025-08-07 20:52:59.190322)  can0  02F   [2]  0A 00
 (2025-08-07 20:52:59.197137)  can0  02F   [8]  57 D0 E0 3D 4B FA 44 7A
 (2025-08-07 20:52:59.197745)  can0  043   [4]  00 2D B8 00
 (2025-08-07 20:52:59.197830)  can0  098   [1]  00
 (2025-08-07 20:52:59.202859)  can0  043   [8]  B5 5D 3E 33 3B A5 9B 07
 (2025-08-07 20:52:59.205888)  can0  02F   [2]  0A 00
 (2025-08-07 20:52:59.207780)  can0  043   [4]  00 2D B8 00
 (2025-08-07 20:52:59.207886)  can0  098   [1]  00
 (2025-08-07 20:52:59.209364)  can0  043   [8]  B1 A4 86 83 0D 6F 38 E1
 (2025-08-07 20:52:59.216310)  can0  02F   [8]  11 AD 20 CF D1 12 96 3C
 (2025-08-07 20:52:59.217263)  can0  043   [4]  00 2D B8 00
 (2025-08-07 20:52:59.217342)  can0  098   [1]  00
 (2025-08-07 20:52:59.222005)  can0  043   [8]  B2 DB 3D E3 7B C2 F4 03
 (2025-08-07 20:52:59.222133)  can0  02F   [2]  0A 00
 (2025-08-07 20:52:59.227566)  can0  043   [4]  00 2D B8 00
 (2025-08-07 20:52:59.227643)  can0  098   [1]  00
 (2025-08-07 20:52:59.228734)  can0  02F   [8]  AD 26 1F E7 63 8B B1 5B
 (2025-08-07 20:52:59.235111)  can0  043   [8]  A7 13 B4 7D 18 11 C1 18
 (2025-08-07 20:52:59.237861)  can0  043   [4]  00 2D B8 00
 (2025-08-07 20:52:59.237941)  can0  098   [1]  00
 (2025-08-07 20:52:59.238467)  can0  02F   [2]  14 00
 (2025-08-07 20:52:59.241576)  can0  098   [8]  30 EC B7 E3 95 F1 B0 8C
 (2025-08-07 20:52:59.247688)  can0  043   [4]  00 2D B8 00
 (2025-08-07 20:52:59.247771)  can0  098   [1]  00
 (2025-08-07 20:52:59.247988)  can0  043   [8]  C4 E1 6E B3 F0 D8 37 31
 (2025-08-07 20:52:59.254040)  can0  02F   [2]  14 00
 (2025-08-07 20:52:59.254878)  can0  098   [8]  54 B8 CA 3D F3 18 49 D1
 (2025-08-07 20:52:59.257634)  can0  043   [4]  00 2D B8 00
 (2025-08-07 20:52:59.257727)  can0  098   [1]  00
 (2025-08-07 20:52:59.260631)  can0  02F   [8]  4E 16 64 E1 3B 19 3B 10
 (2025-08-07 20:52:59.266979)  can0  043   [8]  9A CC 18 68 88 48 76 9A
 (2025-08-07 20:52:59.268161)  can0  043   [4]  00 2D B8 00
 (2025-08-07 20:52:59.268236)  can0  098   [1]  00
 (2025-08-07 20:52:59.269627)  can0  02F   [2]  14 00
 (2025-08-07 20:52:59.273946)  can0  098   [8]  34 9D CD D9 F8 D9 A2 A2
 (2025-08-07 20:52:59.278120)  can0  043   [4]  00 2D B8 00
 (2025-08-07 20:52:59.278192)  can0  098   [1]  00
 (2025-08-07 20:52:59.279797)  can0  043   [8]  D6 AC F6 10 7B FF 8E E6
 (2025-08-07 20:52:59.284503)  can0  02F   [2]  1E 00
 (2025-08-07 20:52:59.286183)  can0  02F   [8]  EC 2C 63 09 77 5A BA 8C
 (2025-08-07 20:52:59.288117)  can0  043   [4]  00 2D B8 00
 (2025-08-07 20:52:59.288198)  can0  098   [1]  00
 (2025-08-07 20:52:59.293184)  can0  043   [8]  D1 B7 1B 55 29 4F 9A 8E
 (2025-08-07 20:52:59.298140)  can0  043   [4]  00 2D B8 00
 (2025-08-07 20:52:59.298224)  can0  098   [1]  00
 (2025-08-07 20:52:59.299022)  can0  043   [8]  FB D8 99 B7 65 BA BE 7D
 (2025-08-07 20:52:59.299389)  can0  02F   [2]  1E 00
 (2025-08-07 20:52:59.305530)  can0  098   [8]  A8 B9 BF AE 70 0F 9C 16
 (2025-08-07 20:52:59.308130)  can0  043   [4]  00 2D B8 00
 (2025-08-07 20:52:59.308217)  can0  098   [1]  00
 (2025-08-07 20:52:59.312029)  can0  043   [8]  CE F0 99 6A D6 42 D2 7A
 (2025-08-07 20:52:59.314329)  can0  02F   [2]  1E 00
 (2025-08-07 20:52:59.318122)  can0  043   [4]  00 2D B8 00
 (2025-08-07 20:52:59.318217)  can0  098   [1]  00
 (2025-08-07 20:52:59.319065)  can0  02F   [8]  32 F0 8A 1E 0B 51 C6 FA
 (2025-08-07 20:52:59.324789)  can0  043   [8]  38 6C A1 04 B4 1F E7 36
 (2025-08-07 20:52:59.328128)  can0  043   [4]  00 2D B8 00
 (2025-08-07 20:52:59.328209)  can0  098   [1]  00
 (2025-08-07 20:52:59.330607)  can0  02F   [2]  28 00
 (2025-08-07 20:52:59.331273)  can0  043   [8]  E2 3A 4F E6 38 E9 4A 69
 (2025-08-07 20:52:59.337776)  can0  043   [8]  50 8E AF 0A B2 E9 C6 73
 (2025-08-07 20:52:59.338232)  can0  043   [4]  00 2D B8 00
 (2025-08-07 20:52:59.338295)  can0  098   [1]  00
 (2025-08-07 20:52:59.344165)  can0  098   [8]  FA 61 91 A1 25 79 66 A6
 (2025-08-07 20:52:59.345289)  can0  02F   [2]  28 00
 (2025-08-07 20:52:59.348088)  can0  043   [4]  00 2D B8 00
 (2025-08-07 20:52:59.348196)  can0  098   [1]  00
 (2025-08-07 20:52:59.350571)  can0  02F   [8]  24 11 84 24 E3 6C 46 71
 (2025-08-07 20:52:59.356946)  can0  043   [8]  73 ED 21 3D 6A 58 9E 0A
 (2025-08-07 20:52:59.358178)  can0  043   [4]  00 2D B8 00
 (2025-08-07 20:52:59.358257)  can0  098   [1]  00
 (2025-08-07 20:52:59.360384)  can0  02F   [2]  28 00
 (2025-08-07 20:52:59.363398)  can0  098   [8]  6E E9 96 4E 75 59 8F A3
 (2025-08-07 20:52:59.368267)  can0  043   [4]  00 2D B8 00
 (2025-08-07 20:52:59.368359)  can0  098   [1]  00
 (2025-08-07 20:52:59.370474)  can0  043   [8]  CB 39 8E CF 35 53 CB 02
 (2025-08-07 20:52:59.375585)  can0  02F   [2]  33 00
 (2025-08-07 20:52:59.376101)  can0  098   [8]  DF 0B B1 29 B4 06 6C 26
 (2025-08-07 20:52:59.378498)  can0  043   [4]  00 2D B8 00
 (2025-08-07 20:52:59.378572)  can0  098   [1]  00
 (2025-08-07 20:52:59.382440)  can0  02F   [8]  F0 3C DE CF 40 89 8B FF
 (2025-08-07 20:52:59.388241)  can0  043   [4]  00 2D B8 00
 (2025-08-07 20:52:59.388336)  can0  098   [1]  00
 (2025-08-07 20:52:59.388780)  can0  043   [8]  60 D4 43 AD 39 50 96 61
 (2025-08-07 20:52:59.390618)  can0  02F   [2]  33 00
 (2025-08-07 20:52:59.395154)  can0  098   [8]  E5 80 19 08 FD 6B 3A 3A
 (2025-08-07 20:52:59.398379)  can0  043   [4]  00 2D B8 00
 (2025-08-07 20:52:59.398460)  can0  098   [1]  00
 (2025-08-07 20:52:59.401508)  can0  043   [8]  A9 66 9C 48 F7 3A A1 6C
 (2025-08-07 20:52:59.406262)  can0  02F   [2]  33 00
 (2025-08-07 20:52:59.407839)  can0  098   [8]  63 CB 95 86 40 CD 6E 25
 (2025-08-07 20:52:59.408391)  can0  043   [4]  00 2D B8 00
 (2025-08-07 20:52:59.408465)  can0  098   [1]  00
 (2025-08-07 20:52:59.414109)  can0  02F   [8]  F2 7C 9D BD 1A 9F 29 A7
 (2025-08-07 20:52:59.418269)  can0  043   [4]  00 2D B8 00
 (2025-08-07 20:52:59.418356)  can0  098   [1]  00
 (2025-08-07 20:52:59.420749)  can0  02F   [2]  3D 00
 (2025-08-07 20:52:59.420936)  can0  043   [8]  DD 23 10 7A D5 D1 09 C9
 (2025-08-07 20:52:59.427027)  can0  02F   [8]  DD 7B 5D C0 13 C1 D2 65
 (2025-08-07 20:52:59.428434)  can0  043   [4]  00 2D B8 00
 (2025-08-07 20:52:59.428515)  can0  098   [1]  00
 (2025-08-07 20:52:59.432677)  can0  043   [8]  E6 8D 38 4E 6F 14 49 EE
 (2025-08-07 20:52:59.435945)  can0  02F   [2]  3D 00
 (2025-08-07 20:52:59.438235)  can0  043   [4]  00 2D B8 00
 (2025-08-07 20:52:59.438319)  can0  098   [1]  00
 (2025-08-07 20:52:59.439059)  can0  02F   [8]  05 63 C0 33 AE 84 DF 11
 (2025-08-07 20:52:59.445452)  can0  098   [8]  E9 C2 08 3E 11 07 EC 8D
 (2025-08-07 20:52:59.447968)  can0  043   [4]  00 2D B8 00
 (2025-08-07 20:52:59.448055)  can0  098   [1]  00
 (2025-08-07 20:52:59.450266)  can0  02F   [2]  3D 00
 (2025-08-07 20:52:59.451822)  can0  043   [8]  B2 93 61 75 81 22 77 30
 (2025-08-07 20:52:59.457957)  can0  043   [4]  00 2D B8 00
 (2025-08-07 20:52:59.458047)  can0  098   [1]  00
 (2025-08-07 20:52:59.458865)  can0  02F   [8]  7C FF B7 04 0E AB 23 48
 (2025-08-07 20:52:59.464544)  can0  043   [8]  F1 A1 2C 11 E0 4B 65 8D
 (2025-08-07 20:52:59.465919)  can0  02F   [2]  47 00
 (2025-08-07 20:52:59.467917)  can0  043   [4]  00 2D B8 00
 (2025-08-07 20:52:59.468016)  can0  098   [1]  00
 (2025-08-07 20:52:59.470876)  can0  02F   [8]  41 21 BB 4E 5A 97 6B FF
 (2025-08-07 20:52:59.477843)  can0  043   [8]  F6 6D 79 FD D8 ED 90 6C
 (2025-08-07 20:52:59.478000)  can0  043   [4]  00 2D B8 00
 (2025-08-07 20:52:59.478123)  can0  098   [1]  00
 (2025-08-07 20:52:59.480266)  can0  02F   [2]  47 00
 (2025-08-07 20:52:59.483606)  can0  098   [8]  26 E0 50 EB 5F 64 63 42
 (2025-08-07 20:52:59.487916)  can0  043   [4]  00 2D B8 00
 (2025-08-07 20:52:59.487994)  can0  098   [1]  00
 (2025-08-07 20:52:59.490061)  can0  043   [8]  EB B7 0F D7 DA 20 20 33
 (2025-08-07 20:52:59.495417)  can0  02F   [2]  47 00
 (2025-08-07 20:52:59.496517)  can0  02F   [8]  6E AC 43 99 D7 69 F6 BA
 (2025-08-07 20:52:59.498034)  can0  043   [4]  00 2D B8 00
 (2025-08-07 20:52:59.498117)  can0  098   [1]  00
 (2025-08-07 20:52:59.503673)  can0  043   [8]  FF 69 43 7B FA CF 0E B9
 (2025-08-07 20:52:59.507914)  can0  043   [4]  00 2D B8 00
 (2025-08-07 20:52:59.507988)  can0  098   [1]  00
 (2025-08-07 20:52:59.509415)  can0  043   [8]  58 DB 65 5F 77 86 31 38
 (2025-08-07 20:52:59.510626)  can0  02F   [2]  51 00
 (2025-08-07 20:52:59.516402)  can0  02F   [8]  A2 94 E0 88 67 83 4E 10
 (2025-08-07 20:52:59.517870)  can0  043   [4]  00 2D B8 00
 (2025-08-07 20:52:59.517944)  can0  098   [1]  00
 (2025-08-07 20:52:59.522102)  can0  043   [8]  7A 31 E3 39 D5 C2 E9 83
 (2025-08-07 20:52:59.526104)  can0  02F   [2]  51 00
 (2025-08-07 20:52:59.528267)  can0  043   [4]  00 2D B8 00
 (2025-08-07 20:52:59.528338)  can0  098   [1]  00
 (2025-08-07 20:52:59.528536)  can0  02F   [8]  F3 EC CD DF D4 EA 43 BE
 (2025-08-07 20:52:59.534995)  can0  043   [8]  01 89 A2 F0 DC EE 1F 22
 (2025-08-07 20:52:59.537767)  can0  043   [4]  00 2D B8 00
 (2025-08-07 20:52:59.537847)  can0  098   [1]  00
 (2025-08-07 20:52:59.541398)  can0  043   [8]  99 82 DE 20 9D 9A 44 12
 (2025-08-07 20:52:59.541553)  can0  02F   [2]  51 00
 (2025-08-07 20:52:59.547464)  can0  043   [4]  00 2D B8 00
 (2025-08-07 20:52:59.547583)  can0  098   [1]  00
 (2025-08-07 20:52:59.547939)  can0  02F   [8]  AB BE 69 87 5E 34 3A 31
 (2025-08-07 20:52:59.554983)  can0  043   [8]  0B D1 B3 75 09 7E 8C 77
 (2025-08-07 20:52:59.555811)  can0  02F   [2]  5C 00
 (2025-08-07 20:52:59.557953)  can0  043   [4]  00 2D B8 00
 (2025-08-07 20:52:59.558037)  can0  098   [1]  00
 (2025-08-07 20:52:59.560665)  can0  043   [8]  CA E3 5C F5 6C 57 4C 1B
 (2025-08-07 20:52:59.567026)  can0  043   [8]  32 47 7A 0E E4 B5 FB 12
 (2025-08-07 20:52:59.568101)  can0  043   [4]  00 2D B8 00
 (2025-08-07 20:52:59.568197)  can0  098   [1]  00
 (2025-08-07 20:52:59.571599)  can0  02F   [2]  5C 00
 (2025-08-07 20:52:59.573535)  can0  098   [8]  C1 96 6E FB F5 3F DB 22
 (2025-08-07 20:52:59.578016)  can0  043   [4]  00 2D B8 00
 (2025-08-07 20:52:59.578159)  can0  098   [1]  00
 (2025-08-07 20:52:59.580579)  can0  043   [8]  65 69 2D 13 B4 07 29 7F
 (2025-08-07 20:52:59.586339)  can0  02F   [2]  5C 00
 (2025-08-07 20:52:59.586801)  can0  02F   [8]  CD BB 7A B0 69 01 24 F9
 (2025-08-07 20:52:59.588019)  can0  043   [4]  00 2D B8 00
 (2025-08-07 20:52:59.588107)  can0  098   [1]  00
 (2025-08-07 20:52:59.592557)  can0  043   [8]  87 61 27 3C 7C 19 35 ED
 (2025-08-07 20:52:59.598014)  can0  043   [4]  00 2D B8 00
 (2025-08-07 20:52:59.598094)  can0  098   [1]  00
 (2025-08-07 20:52:59.599054)  can0  043   [8]  15 13 23 5F 25 E4 92 B4
 (2025-08-07 20:52:59.601396)  can0  02F   [2]  66 00
 (2025-08-07 20:52:59.605647)  can0  098   [8]  E1 73 E4 2A 96 1A E9 36
 (2025-08-07 20:52:59.608008)  can0  043   [4]  00 2D B8 00
 (2025-08-07 20:52:59.608087)  can0  098   [1]  00
 (2025-08-07 20:52:59.612053)  can0  043   [8]  0E 70 31 54 03 DB 2A 0A
 (2025-08-07 20:52:59.616034)  can0  02F   [2]  66 00
 (2025-08-07 20:52:59.617983)  can0  043   [4]  00 2D B8 00
 (2025-08-07 20:52:59.618072)  can0  098   [1]  00
 (2025-08-07 20:52:59.619194)  can0  02F   [8]  BE B4 95 8F DE E7 87 22
 (2025-08-07 20:52:59.624889)  can0  043   [8]  0C E3 A3 32 82 0C 57 BE
 (2025-08-07 20:52:59.627983)  can0  043   [4]  00 2D B8 00
 (2025-08-07 20:52:59.628057)  can0  098   [1]  00
 (2025-08-07 20:52:59.631341)  can0  043   [8]  E8 60 3B 71 36 39 EA AB
 (2025-08-07 20:52:59.631466)  can0  02F   [2]  70 00
 (2025-08-07 20:52:59.638018)  can0  043   [4]  00 2D B8 00
 (2025-08-07 20:52:59.638108)  can0  098   [1]  00
 (2025-08-07 20:52:59.638470)  can0  02F   [8]  2F E9 FC 00 EF 1E D6 CF
 (2025-08-07 20:52:59.644036)  can0  043   [8]  C5 16 D4 E2 11 9A 6C 2C
 (2025-08-07 20:52:59.646278)  can0  02F   [2]  70 00
 (2025-08-07 20:52:59.647982)  can0  043   [4]  00 2D B8 00
 (2025-08-07 20:52:59.648060)  can0  098   [1]  00
 (2025-08-07 20:52:59.650505)  can0  02F   [8]  9A 53 43 89 13 54 6E B7
 (2025-08-07 20:52:59.656856)  can0  043   [8]  6B AC 79 9C 25 5E 91 52
 (2025-08-07 20:52:59.657983)  can0  043   [4]  00 2D B8 00
 (2025-08-07 20:52:59.658063)  can0  098   [1]  00
 (2025-08-07 20:52:59.661112)  can0  02F   [2]  70 00
 (2025-08-07 20:52:59.663857)  can0  098   [8]  91 2B 78 38 24 08 5F C1
 (2025-08-07 20:52:59.667929)  can0  043   [4]  00 2D B8 00
 (2025-08-07 20:52:59.668036)  can0  098   [1]  00
 (2025-08-07 20:52:59.669586)  can0  02F   [8]  1E 90 C6 9A C6 66 95 57
 (2025-08-07 20:52:59.676058)  can0  043   [8]  C6 48 73 A5 46 38 13 4F
 (2025-08-07 20:52:59.676196)  can0  02F   [2]  7A 00
 (2025-08-07 20:52:59.678166)  can0  043   [4]  00 2D B8 00
 (2025-08-07 20:52:59.678241)  can0  098   [1]  00
 (2025-08-07 20:52:59.682635)  can0  02F   [8]  E2 CB 1C 8C A7 AA 48 20
 (2025-08-07 20:52:59.687945)  can0  043   [4]  00 2D B8 00
 (2025-08-07 20:52:59.688021)  can0  098   [1]  00
 (2025-08-07 20:52:59.689145)  can0  043   [8]  02 69 43 0E A3 24 7E 52
 (2025-08-07 20:52:59.691459)  can0  02F   [2]  7A 00
 (2025-08-07 20:52:59.696136)  can0  098   [8]  A8 DC F8 E2 7E 72 C9 79
 (2025-08-07 20:52:59.697964)  can0  043   [4]  00 2D B8 00
 (2025-08-07 20:52:59.698042)  can0  098   [1]  00
 (2025-08-07 20:52:59.701867)  can0  043   [8]  50 66 84 A0 43 DD 80 62
 (2025-08-07 20:52:59.706034)  can0  02F   [2]  7A 00
 (2025-08-07 20:52:59.707876)  can0  043   [4]  00 2D B8 00
 (2025-08-07 20:52:59.707962)  can0  098   [1]  00
 (2025-08-07 20:52:59.708891)  can0  02F   [8]  34 89 C2 09 AC 08 1A 72
 (2025-08-07 20:52:59.715205)  can0  043   [8]  72 A0 D9 3E 10 5A 73 23
 (2025-08-07 20:52:59.717941)  can0  043   [4]  00 2D B8 00
 (2025-08-07 20:52:59.718014)  can0  098   [1]  00
 (2025-08-07 20:52:59.721146)  can0  02F   [2]  84 00
 (2025-08-07 20:52:59.721547)  can0  043   [8]  51 31 81 F7 5A D5 70 96
 (2025-08-07 20:52:59.727313)  can0  02F   [8]  1B 0D 4A 7F 51 CD 1D D7
 (2025-08-07 20:52:59.727988)  can0  043   [4]  00 2D B8 00
 (2025-08-07 20:52:59.728069)  can0  098   [1]  00
 (2025-08-07 20:52:59.734377)  can0  043   [8]  40 8A 0A F4 C3 31 0D 14
 (2025-08-07 20:52:59.736091)  can0  02F   [2]  84 00
 (2025-08-07 20:52:59.737813)  can0  043   [4]  00 2D B8 00
 (2025-08-07 20:52:59.737904)  can0  098   [1]  00
 (2025-08-07 20:52:59.740175)  can0  02F   [8]  D5 28 2B 3E 78 33 B4 AF
 (2025-08-07 20:52:59.746609)  can0  043   [8]  25 CB 9D 54 17 62 84 7E
 (2025-08-07 20:52:59.747991)  can0  043   [4]  00 2D B8 00
 (2025-08-07 20:52:59.748089)  can0  098   [1]  00
 (2025-08-07 20:52:59.751094)  can0  02F   [2]  84 00
 (2025-08-07 20:52:59.753128)  can0  043   [8]  5B 60 19 3A AE CB 14 19
 (2025-08-07 20:52:59.758082)  can0  043   [4]  00 2D B8 00
 (2025-08-07 20:52:59.758170)  can0  098   [1]  00
 (2025-08-07 20:52:59.759723)  can0  02F   [8]  B4 18 38 30 17 62 A7 E6
 (2025-08-07 20:52:59.766115)  can0  043   [8]  6D 4D BD B8 68 75 8E AA
 (2025-08-07 20:52:59.766309)  can0  02F   [2]  8F 00
 (2025-08-07 20:52:59.767328)  can0  043   [4]  00 2D B8 00
 (2025-08-07 20:52:59.767415)  can0  098   [1]  00
 (2025-08-07 20:52:59.772563)  can0  043   [8]  71 57 98 D3 47 05 05 6C
 (2025-08-07 20:52:59.778056)  can0  043   [4]  00 2D B8 00
 (2025-08-07 20:52:59.778161)  can0  098   [1]  00
 (2025-08-07 20:52:59.779101)  can0  043   [8]  F4 F7 45 DD 7D 24 9D DD
 (2025-08-07 20:52:59.782389)  can0  02F   [2]  8F 00
 (2025-08-07 20:52:59.786024)  can0  098   [8]  9E 2F 47 9A 80 06 2E F5
 (2025-08-07 20:52:59.787457)  can0  043   [4]  00 2D B8 00
 (2025-08-07 20:52:59.787555)  can0  098   [1]  00
 (2025-08-07 20:52:59.791766)  can0  043   [8]  7C 18 F8 C5 AF 60 6F C8
 (2025-08-07 20:52:59.797465)  can0  043   [4]  00 2D B8 00
 (2025-08-07 20:52:59.797553)  can0  098   [1]  00
 (2025-08-07 20:52:59.797675)  can0  02F   [2]  8F 00
 (2025-08-07 20:52:59.798099)  can0  02F   [8]  04 E0 83 91 77 F1 0D C6
 (2025-08-07 20:52:59.805127)  can0  043   [8]  C0 FF 46 0A 32 09 99 8E
 (2025-08-07 20:52:59.807647)  can0  043   [4]  00 2D B8 00
 (2025-08-07 20:52:59.807726)  can0  098   [1]  00
 (2025-08-07 20:52:59.810814)  can0  043   [8]  F1 BB A7 E2 D0 4B 74 12
 (2025-08-07 20:52:59.813153)  can0  02F   [2]  99 00
 (2025-08-07 20:52:59.817203)  can0  02F   [8]  52 0E 70 21 A1 9A C9 75
 (2025-08-07 20:52:59.819835)  can0  043   [4]  00 2D B8 00
 (2025-08-07 20:52:59.819924)  can0  098   [1]  00
 (2025-08-07 20:52:59.823610)  can0  043   [8]  96 9F B8 74 4C 48 8A 1B
 (2025-08-07 20:52:59.829546)  can0  02F   [2]  99 00
 (2025-08-07 20:52:59.829935)  can0  043   [4]  00 2D B8 00
 (2025-08-07 20:52:59.830130)  can0  02F   [8]  82 75 29 5E E9 F0 A6 77
 (2025-08-07 20:52:59.830274)  can0  098   [1]  00
 (2025-08-07 20:52:59.836831)  can0  043   [8]  66 50 FB 34 CC 2B 7A 19
 (2025-08-07 20:52:59.840411)  can0  043   [4]  00 2D B8 00
 (2025-08-07 20:52:59.840497)  can0  098   [1]  00
 (2025-08-07 20:52:59.842496)  can0  098   [8]  AE 2C 14 99 68 98 49 6F
 (2025-08-07 20:52:59.844949)  can0  02F   [2]  99 00
 (2025-08-07 20:52:59.848963)  can0  02F   [8]  4C 8A FE 8A 3E 22 5A 6A
 (2025-08-07 20:52:59.850776)  can0  043   [4]  00 2D B8 00
 (2025-08-07 20:52:59.850862)  can0  098   [1]  00
 (2025-08-07 20:52:59.855317)  can0  043   [8]  6E B0 3E B0 6E 53 C4 E3
 (2025-08-07 20:52:59.859899)  can0  02F   [2]  A3 00
 (2025-08-07 20:52:59.860374)  can0  043   [4]  00 2D B8 00
 (2025-08-07 20:52:59.860493)  can0  098   [1]  00
 (2025-08-07 20:52:59.861610)  can0  098   [8]  D0 10 D8 7B 74 AF 1C EF
 (2025-08-07 20:52:59.868747)  can0  043   [8]  B2 8B 5A C4 6D F2 2C 8C
 (2025-08-07 20:52:59.870507)  can0  043   [4]  00 2D B8 00
 (2025-08-07 20:52:59.870584)  can0  098   [1]  00
 (2025-08-07 20:52:59.874417)  can0  098   [8]  8B 98 36 1A A0 41 84 29
 (2025-08-07 20:52:59.874749)  can0  02F   [2]  A3 00
 (2025-08-07 20:52:59.880559)  can0  043   [4]  00 2D B8 00
 (2025-08-07 20:52:59.880652)  can0  098   [1]  00
 (2025-08-07 20:52:59.880850)  can0  043   [8]  D1 61 18 A2 8A 18 22 C5
 (2025-08-07 20:52:59.887828)  can0  043   [8]  1C D4 37 07 33 D5 DC D8
 (2025-08-07 20:52:59.890152)  can0  02F   [2]  AD 00
 (2025-08-07 20:52:59.890729)  can0  043   [4]  00 2D B8 00
 (2025-08-07 20:52:59.890851)  can0  098   [1]  00
 (2025-08-07 20:52:59.894185)  can0  098   [8]  A1 BF 8D 3E 2E 26 B5 EA
 (2025-08-07 20:52:59.900456)  can0  043   [8]  29 6F 4A 16 0B 11 70 4A
 (2025-08-07 20:52:59.900641)  can0  043   [4]  00 2D B8 00
 (2025-08-07 20:52:59.900716)  can0  098   [1]  00
 (2025-08-07 20:52:59.904893)  can0  02F   [2]  AD 00
 (2025-08-07 20:52:59.906762)  can0  02F   [8]  32 15 7D 7C AF 12 2E 35
 (2025-08-07 20:52:59.910444)  can0  043   [4]  00 2D B8 00
 (2025-08-07 20:52:59.910512)  can0  098   [1]  00
 (2025-08-07 20:52:59.913612)  can0  043   [8]  84 8C B5 0C B0 62 69 4F
 (2025-08-07 20:52:59.919330)  can0  02F   [8]  09 2E F6 DD 69 C9 68 F1
 (2025-08-07 20:52:59.919942)  can0  02F   [2]  AD 00
 (2025-08-07 20:52:59.920538)  can0  043   [4]  00 2D B8 00
 (2025-08-07 20:52:59.920649)  can0  098   [1]  00
 (2025-08-07 20:52:59.925651)  can0  043   [8]  9F BD AD 7C 1D C5 81 4A
 (2025-08-07 20:52:59.930501)  can0  043   [4]  00 2D B8 00
 (2025-08-07 20:52:59.930569)  can0  098   [1]  00
 (2025-08-07 20:52:59.932079)  can0  043   [8]  08 FC 1D 3F CE FA C3 C0
 (2025-08-07 20:52:59.935158)  can0  02F   [2]  B8 00
 (2025-08-07 20:52:59.938371)  can0  02F   [8]  DE 92 60 04 76 25 84 7B
 (2025-08-07 20:52:59.940491)  can0  043   [4]  00 2D B8 00
 (2025-08-07 20:52:59.940564)  can0  098   [1]  00
 (2025-08-07 20:52:59.944679)  can0  043   [8]  00 91 D0 30 F2 F8 01 39
 (2025-08-07 20:52:59.950152)  can0  02F   [2]  B8 00
 (2025-08-07 20:52:59.950713)  can0  043   [4]  00 2D B8 00
 (2025-08-07 20:52:59.950785)  can0  098   [1]  00
 (2025-08-07 20:52:59.951134)  can0  043   [8]  CC 4A 24 A7 4E 28 E4 11
 (2025-08-07 20:52:59.958003)  can0  043   [8]  A1 F3 8C 84 60 9C 12 EA
 (2025-08-07 20:52:59.961059)  can0  043   [4]  00 2D B8 00
 (2025-08-07 20:52:59.961165)  can0  098   [1]  00
 (2025-08-07 20:52:59.963783)  can0  098   [8]  F3 C3 07 F3 63 B6 A6 AD
 (2025-08-07 20:52:59.965565)  can0  02F   [2]  B8 00
 (2025-08-07 20:52:59.970165)  can0  02F   [8]  13 7D 84 72 0C 15 D5 C4
 (2025-08-07 20:52:59.971291)  can0  043   [4]  00 2D B8 00
 (2025-08-07 20:52:59.971362)  can0  098   [1]  00
 (2025-08-07 20:52:59.976974)  can0  043   [8]  53 8F 4B 17 96 42 9E 96
 (2025-08-07 20:52:59.980980)  can0  02F   [2]  C2 00
 (2025-08-07 20:52:59.981206)  can0  043   [4]  00 2D B8 00
 (2025-08-07 20:52:59.981320)  can0  098   [1]  00
 (2025-08-07 20:52:59.982674)  can0  098   [8]  A8 1A E4 E8 B7 0B 02 3F
 (2025-08-07 20:52:59.989395)  can0  043   [8]  91 D3 F1 81 AC 56 E1 76
 (2025-08-07 20:52:59.991212)  can0  043   [4]  00 2D B8 00
 (2025-08-07 20:52:59.991327)  can0  098   [1]  00
 (2025-08-07 20:52:59.994406)  can0  098   [1]  00
 (2025-08-07 20:52:59.994561)  can0  043   [4]  00 8B 30 00
 (2025-08-07 20:52:59.995092)  can0  098   [8]  97 5B 41 F4 67 EE 7F 08
 (2025-08-07 20:52:59.995566)  can0  098   [1]  00
 (2025-08-07 20:52:59.998993)  can0  02F   [2]  C2 00
 (2025-08-07 20:53:00.001171)  can0  043   [4]  00 8B 30 00
 (2025-08-07 20:53:00.001248)  can0  098   [1]  01
 (2025-08-07 20:53:00.001608)  can0  02F   [8]  45 F0 4E 08 4F 19 87 8A
 (2025-08-07 20:53:00.008510)  can0  043   [8]  01 BE C8 61 0B 3E 5B 17
 (2025-08-07 20:53:00.010491)  can0  02F   [2]  C2 00
 (2025-08-07 20:53:00.011393)  can0  043   [4]  00 8B 30 00
 (2025-08-07 20:53:00.011534)  can0  098   [1]  01
 (2025-08-07 20:53:00.014192)  can0  098   [8]  7F 11 51 FF 25 FD 27 F9
 (2025-08-07 20:53:00.020476)  can0  043   [8]  6A 28 5B BD 87 43 C8 8E
 (2025-08-07 20:53:00.021855)  can0  043   [4]  00 8B 30 00
 (2025-08-07 20:53:00.021926)  can0  098   [1]  01
 (2025-08-07 20:53:00.026750)  can0  02F   [8]  4F 7F B6 5A 65 67 E8 F3
 (2025-08-07 20:53:00.027119)  can0  02F   [2]  CC 00
 (2025-08-07 20:53:00.031866)  can0  043   [4]  00 8B 30 00
 (2025-08-07 20:53:00.031965)  can0  098   [1]  01
 (2025-08-07 20:53:00.033179)  can0  043   [8]  2B 44 3A 67 10 5C A3 42
 (2025-08-07 20:53:00.039985)  can0  043   [8]  A6 39 AF 8A A5 C4 90 0A
 (2025-08-07 20:53:00.041702)  can0  02F   [2]  CC 00
 (2025-08-07 20:53:00.041902)  can0  043   [4]  00 8B 30 00
 (2025-08-07 20:53:00.042004)  can0  098   [1]  01
 (2025-08-07 20:53:00.045664)  can0  098   [8]  B3 C9 67 4E 57 9E 09 06
 (2025-08-07 20:53:00.051860)  can0  043   [4]  00 8B 30 00
 (2025-08-07 20:53:00.052058)  can0  043   [8]  9F 2D 0C AE 67 7E 92 3F
 (2025-08-07 20:53:00.052207)  can0  098   [1]  01
 (2025-08-07 20:53:00.056454)  can0  02F   [2]  CC 00
 (2025-08-07 20:53:00.058228)  can0  02F   [8]  DE CE 9C DB 51 38 7A 48
 (2025-08-07 20:53:00.061810)  can0  043   [4]  00 8B 30 00
 (2025-08-07 20:53:00.061907)  can0  098   [1]  01
 (2025-08-07 20:53:00.064560)  can0  043   [8]  DD 39 5C AB 89 44 09 39
 (2025-08-07 20:53:00.070995)  can0  043   [8]  BB B1 18 C0 4C 40 6F A5
 (2025-08-07 20:53:00.071609)  can0  02F   [2]  D6 00
 (2025-08-07 20:53:00.072052)  can0  043   [4]  00 8B 30 00
 (2025-08-07 20:53:00.072165)  can0  098   [1]  01
 (2025-08-07 20:53:00.077465)  can0  02F   [8]  E5 8C 73 D4 1B 00 1F EA
 (2025-08-07 20:53:00.081964)  can0  043   [4]  00 8B 30 00
 (2025-08-07 20:53:00.082035)  can0  098   [1]  01
 (2025-08-07 20:53:00.084419)  can0  043   [8]  E0 BF EA 6D 99 89 1E 79
 (2025-08-07 20:53:00.086416)  can0  02F   [2]  D6 00
 (2025-08-07 20:53:00.090739)  can0  02F   [8]  7F 66 43 38 16 34 CC 5B
 (2025-08-07 20:53:00.091493)  can0  043   [4]  00 8B 30 00
 (2025-08-07 20:53:00.091568)  can0  098   [1]  01
 (2025-08-07 20:53:00.096489)  can0  043   [8]  C2 F9 EE C7 83 A0 5F C7
 (2025-08-07 20:53:00.101609)  can0  043   [4]  00 8B 30 00
 (2025-08-07 20:53:00.101686)  can0  098   [1]  01
 (2025-08-07 20:53:00.102303)  can0  02F   [2]  D6 00
 (2025-08-07 20:53:00.103000)  can0  098   [8]  DA 15 9A 84 1B 8D 89 1F
 (2025-08-07 20:53:00.109487)  can0  02F   [8]  F3 2F 62 38 85 41 2C CD
 (2025-08-07 20:53:00.111183)  can0  043   [4]  00 8B 30 00
 (2025-08-07 20:53:00.111264)  can0  098   [1]  01
 (2025-08-07 20:53:00.116157)  can0  043   [8]  AA 32 FE 4E 2E F6 45 FA
 (2025-08-07 20:53:00.116889)  can0  02F   [2]  E1 00
 (2025-08-07 20:53:00.121911)  can0  043   [4]  00 8B 30 00
 (2025-08-07 20:53:00.121989)  can0  098   [1]  01
 (2025-08-07 20:53:00.123276)  can0  043   [8]  74 29 CC 41 15 98 1E 0F
 (2025-08-07 20:53:00.129117)  can0  043   [8]  B2 4E 66 CD F9 3E F8 35
 (2025-08-07 20:53:00.131753)  can0  043   [4]  00 8B 30 00
 (2025-08-07 20:53:00.131833)  can0  098   [1]  01
 (2025-08-07 20:53:00.131987)  can0  02F   [2]  E1 00
 (2025-08-07 20:53:00.135565)  can0  098   [8]  08 F5 5C 92 1D AA B8 67
 (2025-08-07 20:53:00.141911)  can0  02F   [8]  CA E1 12 71 4B A8 D2 91
 (2025-08-07 20:53:00.142090)  can0  043   [4]  00 8B 30 00
 (2025-08-07 20:53:00.142197)  can0  098   [1]  01
 (2025-08-07 20:53:00.147044)  can0  02F   [2]  E1 00
 (2025-08-07 20:53:00.148387)  can0  043   [8]  FF 33 A3 4B 2A 8B F1 97
 (2025-08-07 20:53:00.151894)  can0  043   [4]  00 8B 30 00
 (2025-08-07 20:53:00.151967)  can0  098   [1]  01
 (2025-08-07 20:53:00.155363)  can0  098   [8]  DD AE 53 14 CE 66 67 B6
 (2025-08-07 20:53:00.160990)  can0  043   [8]  91 94 20 22 44 F0 7D 95
 (2025-08-07 20:53:00.161909)  can0  043   [4]  00 8B 30 00
 (2025-08-07 20:53:00.161986)  can0  098   [1]  01
 (2025-08-07 20:53:00.162420)  can0  02F   [2]  EB 00
 (2025-08-07 20:53:00.167422)  can0  098   [8]  AF 10 9D 39 A0 AA C0 75
 (2025-08-07 20:53:00.171934)  can0  043   [4]  00 8B 30 00
 (2025-08-07 20:53:00.172010)  can0  098   [1]  01
 (2025-08-07 20:53:00.173857)  can0  043   [8]  54 2F 76 47 F9 36 8E 72
 (2025-08-07 20:53:00.177204)  can0  02F   [2]  EB 00
 (2025-08-07 20:53:00.180265)  can0  043   [8]  74 86 50 BD 03 32 C3 0E
 (2025-08-07 20:53:00.181928)  can0  043   [4]  00 8B 30 00
 (2025-08-07 20:53:00.182009)  can0  098   [1]  01
 (2025-08-07 20:53:00.186634)  can0  098   [8]  43 27 59 16 5A AC F6 A0
 (2025-08-07 20:53:00.191955)  can0  043   [4]  00 8B 30 00
 (2025-08-07 20:53:00.192033)  can0  098   [1]  01
 (2025-08-07 20:53:00.192198)  can0  02F   [2]  EB 00
 (2025-08-07 20:53:00.193571)  can0  043   [8]  AB ED B4 5B A5 2C 76 A7
 (2025-08-07 20:53:00.199278)  can0  02F   [8]  86 0F 3A 5B 82 6F 90 E8
 (2025-08-07 20:53:00.201911)  can0  043   [4]  00 8B 30 00
 (2025-08-07 20:53:00.201990)  can0  098   [1]  01
 (2025-08-07 20:53:00.205551)  can0  043   [8]  E5 A5 34 6E 69 23 59 22
 (2025-08-07 20:53:00.208172)  can0  02F   [2]  F5 00
 (2025-08-07 20:53:00.211809)  can0  043   [4]  00 8B 30 00
 (2025-08-07 20:53:00.212019)  can0  043   [8]  F7 B4 A1 C6 17 ED 9E B9
 (2025-08-07 20:53:00.212141)  can0  098   [1]  01
 (2025-08-07 20:53:00.218664)  can0  02F   [8]  FE 89 C0 13 A2 C1 04 99
 (2025-08-07 20:53:00.221888)  can0  043   [4]  00 8B 30 00
 (2025-08-07 20:53:00.221997)  can0  02F   [2]  F5 00
 (2025-08-07 20:53:00.222112)  can0  098   [1]  01
 (2025-08-07 20:53:00.224816)  can0  043   [8]  AC C8 EF 49 92 6E 39 89
 (2025-08-07 20:53:00.230978)  can0  02F   [8]  41 89 9D C3 2F 0D FF CD
 (2025-08-07 20:53:00.231788)  can0  043   [4]  00 8B 30 00
 (2025-08-07 20:53:00.231903)  can0  098   [1]  01
 (2025-08-07 20:53:00.236603)  can0  043   [8]  15 80 9D E5 71 6D F6 99
 (2025-08-07 20:53:00.237564)  can0  02F   [2]  F5 00
 (2025-08-07 20:53:00.241552)  can0  043   [4]  00 8B 30 00
 (2025-08-07 20:53:00.241656)  can0  098   [1]  01
 (2025-08-07 20:53:00.243494)  can0  098   [8]  BE 57 02 B6 27 35 21 65
 (2025-08-07 20:53:00.249097)  can0  043   [8]  C0 90 90 A4 F2 A9 18 CC
 (2025-08-07 20:53:00.251729)  can0  043   [4]  00 8B 30 00
 (2025-08-07 20:53:00.251796)  can0  098   [1]  01
 (2025-08-07 20:53:00.252656)  can0  02F   [2]  FF 00
 (2025-08-07 20:53:00.255926)  can0  02F   [8]  D9 49 78 FC B1 90 D9 5E
 (2025-08-07 20:53:00.261585)  can0  043   [8]  93 7F E7 89 D9 00 79 D9
 (2025-08-07 20:53:00.261801)  can0  043   [4]  00 8B 30 00
 (2025-08-07 20:53:00.261863)  can0  098   [1]  01
 (2025-08-07 20:53:00.267004)  can0  02F   [2]  FF 00
 (2025-08-07 20:53:00.268478)  can0  043   [8]  36 70 56 DA 1C 44 58 CA
 (2025-08-07 20:53:00.271657)  can0  043   [4]  00 8B 30 00
 (2025-08-07 20:53:00.271771)  can0  098   [1]  01
 (2025-08-07 20:53:00.274169)  can0  098   [8]  AE EC 4E A6 7E A1 83 A6
 (2025-08-07 20:53:00.280894)  can0  043   [8]  3E 07 D3 00 F5 A4 B5 95
 (2025-08-07 20:53:00.281789)  can0  043   [4]  00 8B 30 00
 (2025-08-07 20:53:00.281892)  can0  098   [1]  01
 (2025-08-07 20:53:00.282023)  can0  02F   [2]  FF 00
 (2025-08-07 20:53:00.286650)  can0  02F   [8]  2B 7F A6 C2 24 5F 1F 9C
 (2025-08-07 20:53:00.291727)  can0  043   [4]  00 8B 30 00
 (2025-08-07 20:53:00.291811)  can0  098   [1]  01
 (2025-08-07 20:53:00.293744)  can0  043   [8]  0F 6A E4 A4 6A 60 8D 7F
 (2025-08-07 20:53:00.297091)  can0  02F   [2]  09 01
 (2025-08-07 20:53:00.300108)  can0  043   [8]  09 AA 48 19 8F 4B 14 24
 (2025-08-07 20:53:00.301718)  can0  043   [4]  00 8B 30 00
 (2025-08-07 20:53:00.301800)  can0  098   [1]  01
 (2025-08-07 20:53:00.305893)  can0  02F   [8]  44 52 B2 DB 02 A8 FF E3
 (2025-08-07 20:53:00.311773)  can0  043   [4]  00 8B 30 00
 (2025-08-07 20:53:00.311860)  can0  02F   [2]  09 01
 (2025-08-07 20:53:00.312009)  can0  098   [1]  01
 (2025-08-07 20:53:00.312373)  can0  043   [8]  AC BE 6D 70 1A 0F 20 F0
 (2025-08-07 20:53:00.318910)  can0  02F   [8]  F1 55 24 B8 53 93 D1 4D
 (2025-08-07 20:53:00.321683)  can0  043   [4]  00 8B 30 00
 (2025-08-07 20:53:00.321762)  can0  098   [1]  01
 (2025-08-07 20:53:00.325354)  can0  043   [8]  F8 20 19 12 4C 35 17 87
 (2025-08-07 20:53:00.327048)  can0  02F   [2]  09 01
 (2025-08-07 20:53:00.331763)  can0  043   [4]  00 8B 30 00
 (2025-08-07 20:53:00.333328)  can0  098   [8]  72 7E 24 1B EB 33 46 0F
 (2025-08-07 20:53:00.338227)  can0  043   [8]  D5 35 5F 6A 8A 97 87 E2
 (2025-08-07 20:53:00.341752)  can0  043   [4]  00 8B 30 00
 (2025-08-07 20:53:00.341838)  can0  098   [1]  01
 (2025-08-07 20:53:00.342099)  can0  02F   [2]  14 01
 (2025-08-07 20:53:00.345148)  can0  02F   [8]  FD 7D 90 1C 1B 45 AA CA
 (2025-08-07 20:53:00.351481)  can0  043   [8]  76 B2 E8 1D A2 00 27 9E
 (2025-08-07 20:53:00.351706)  can0  043   [4]  00 8B 30 00
 (2025-08-07 20:53:00.351777)  can0  098   [1]  01
 (2025-08-07 20:53:00.357245)  can0  043   [8]  28 1D 29 2F 06 6A 76 72
 (2025-08-07 20:53:00.357332)  can0  02F   [2]  14 01
 (2025-08-07 20:53:00.361872)  can0  043   [4]  00 8B 30 00
 (2025-08-07 20:53:00.361955)  can0  098   [1]  01
 (2025-08-07 20:53:00.363749)  can0  098   [8]  23 B9 42 F7 74 EC DA E7
 (2025-08-07 20:53:00.370321)  can0  043   [8]  6A D9 72 78 CC E8 CD E9
 (2025-08-07 20:53:00.371739)  can0  043   [4]  00 8B 30 00
 (2025-08-07 20:53:00.371833)  can0  098   [1]  01
 (2025-08-07 20:53:00.371945)  can0  02F   [2]  1E 01
 (2025-08-07 20:53:00.377358)  can0  02F   [8]  03 4B 9C 61 47 90 BD 05
 (2025-08-07 20:53:00.381734)  can0  043   [4]  00 8B 30 00
 (2025-08-07 20:53:00.381831)  can0  098   [1]  01
 (2025-08-07 20:53:00.383938)  can0  043   [8]  1F 20 FE 8E 28 D8 0C D6
 (2025-08-07 20:53:00.387214)  can0  02F   [2]  1E 01
 (2025-08-07 20:53:00.390249)  can0  043   [8]  05 73 56 F7 3B E8 55 96
 (2025-08-07 20:53:00.391719)  can0  043   [4]  00 8B 30 00
 (2025-08-07 20:53:00.391798)  can0  098   [1]  01
 (2025-08-07 20:53:00.396041)  can0  02F   [8]  2C 42 24 C6 D2 0F 93 1A
 (2025-08-07 20:53:00.401727)  can0  043   [4]  00 8B 30 00
 (2025-08-07 20:53:00.401823)  can0  098   [1]  01
 (2025-08-07 20:53:00.401960)  can0  02F   [2]  28 01
 (2025-08-07 20:53:00.402446)  can0  043   [8]  13 E3 E2 8A B4 61 AF 66
 (2025-08-07 20:53:00.408884)  can0  02F   [8]  0C C3 2B B7 CA 6A 41 B6
 (2025-08-07 20:53:00.412185)  can0  043   [4]  00 8B 30 00
 (2025-08-07 20:53:00.412278)  can0  098   [1]  01
 (2025-08-07 20:53:00.415371)  can0  043   [8]  EB AF C6 4B F9 FF 88 54
 (2025-08-07 20:53:00.417977)  can0  02F   [2]  28 01
 (2025-08-07 20:53:00.421619)  can0  043   [4]  00 8B 30 00
 (2025-08-07 20:53:00.421720)  can0  098   [1]  01
 (2025-08-07 20:53:00.422381)  can0  098   [8]  0D F0 1F E7 1B 1E 02 EB
 (2025-08-07 20:53:00.428133)  can0  043   [8]  DA 73 21 A3 97 B5 09 8F
 (2025-08-07 20:53:00.431642)  can0  043   [4]  00 8B 30 00
 (2025-08-07 20:53:00.431719)  can0  098   [1]  01
 (2025-08-07 20:53:00.432994)  can0  02F   [2]  28 01
 (2025-08-07 20:53:00.434640)  can0  02F   [8]  47 1E 46 8A D9 28 25 E3
 (2025-08-07 20:53:00.441094)  can0  043   [8]  E8 10 98 9B F7 89 42 E5
 (2025-08-07 20:53:00.441623)  can0  043   [4]  00 8B 30 00
 (2025-08-07 20:53:00.441703)  can0  098   [1]  01
 (2025-08-07 20:53:00.448105)  can0  043   [8]  64 AD 03 C5 5C 4E 3B 42
 (2025-08-07 20:53:00.448289)  can0  02F   [2]  32 01
 (2025-08-07 20:53:00.451854)  can0  043   [4]  00 8B 30 00
 (2025-08-07 20:53:00.451930)  can0  098   [1]  01
 (2025-08-07 20:53:00.453837)  can0  098   [8]  A6 ED 22 38 36 4F BB CB
 (2025-08-07 20:53:00.460288)  can0  043   [8]  1C 53 9F 59 41 1A 06 18
 (2025-08-07 20:53:00.461873)  can0  043   [4]  00 8B 30 00
 (2025-08-07 20:53:00.461953)  can0  098   [1]  01
 (2025-08-07 20:53:00.463230)  can0  02F   [2]  32 01
 (2025-08-07 20:53:00.466681)  can0  02F   [8]  9F E5 E7 61 5B 77 D9 AD
 (2025-08-07 20:53:00.471881)  can0  043   [4]  00 8B 30 00
 (2025-08-07 20:53:00.471955)  can0  098   [1]  01
 (2025-08-07 20:53:00.473773)  can0  043   [8]  ED 89 5E A0 89 E8 01 CE
 (2025-08-07 20:53:00.479158)  can0  02F   [2]  32 01
 (2025-08-07 20:53:00.480281)  can0  043   [8]  36 4F B4 A6 05 D1 9B CD
 (2025-08-07 20:53:00.481921)  can0  043   [4]  00 8B 30 00
 (2025-08-07 20:53:00.482002)  can0  098   [1]  01
 (2025-08-07 20:53:00.487183)  can0  02F   [8]  5A 8C CD D9 11 6F 14 CB
 (2025-08-07 20:53:00.491875)  can0  043   [4]  00 8B 30 00
 (2025-08-07 20:53:00.492001)  can0  098   [1]  01
 (2025-08-07 20:53:00.493455)  can0  043   [8]  74 6A 7F 5A 08 43 54 61
 (2025-08-07 20:53:00.493593)  can0  02F   [2]  3D 01
 (2025-08-07 20:53:00.499133)  can0  02F   [8]  28 24 E8 3C D6 9A 45 AE
 (2025-08-07 20:53:00.501828)  can0  043   [4]  00 8B 30 00
 (2025-08-07 20:53:00.501899)  can0  098   [1]  01
 (2025-08-07 20:53:00.505525)  can0  043   [8]  C7 30 88 8E 35 3E D9 60
 (2025-08-07 20:53:00.508281)  can0  02F   [2]  3D 01
 (2025-08-07 20:53:00.511813)  can0  043   [4]  00 8B 30 00
 (2025-08-07 20:53:00.512138)  can0  098   [1]  01
 (2025-08-07 20:53:00.512353)  can0  098   [8]  E6 43 1C 5C 12 D9 71 F5
 (2025-08-07 20:53:00.518244)  can0  043   [8]  8D 02 8C DC 8D F7 09 2B
 (2025-08-07 20:53:00.521366)  can0  043   [4]  00 8B 30 00
 (2025-08-07 20:53:00.521438)  can0  098   [1]  01
 (2025-08-07 20:53:00.523737)  can0  02F   [2]  3D 01
 (2025-08-07 20:53:00.524640)  can0  098   [8]  33 2A EC ED EE 6E C8 13
 (2025-08-07 20:53:00.531602)  can0  02F   [8]  7F A2 DF C7 5F 2B 38 05
 (2025-08-07 20:53:00.531764)  can0  043   [4]  00 8B 30 00
 (2025-08-07 20:53:00.531883)  can0  098   [1]  01
 (2025-08-07 20:53:00.537754)  can0  043   [8]  38 F7 A3 37 8C 52 24 1C
 (2025-08-07 20:53:00.539062)  can0  02F   [2]  47 01
 (2025-08-07 20:53:00.541824)  can0  043   [4]  00 8B 30 00
 (2025-08-07 20:53:00.541932)  can0  098   [1]  01
 (2025-08-07 20:53:00.543502)  can0  098   [8]  4D 9C 30 FC 00 9F 25 01
 (2025-08-07 20:53:00.550505)  can0  043   [8]  3C 0E 1C 03 C8 C7 21 72
 (2025-08-07 20:53:00.551657)  can0  043   [4]  00 8B 30 00
 (2025-08-07 20:53:00.551757)  can0  098   [1]  01
 (2025-08-07 20:53:00.553750)  can0  02F   [2]  47 01
 (2025-08-07 20:53:00.556380)  can0  02F   [8]  FD D4 56 00 5D E5 A6 44
 (2025-08-07 20:53:00.561822)  can0  043   [4]  00 8B 30 00
 (2025-08-07 20:53:00.561896)  can0  098   [1]  01
 (2025-08-07 20:53:00.562796)  can0  02F   [8]  1A 05 A4 BA EE FC 98 E3
 (2025-08-07 20:53:00.568996)  can0  02F   [2]  47 01
 (2025-08-07 20:53:00.569192)  can0  043   [8]  D9 39 A0 26 A1 8F F3 7F
 (2025-08-07 20:53:00.571740)  can0  043   [4]  00 8B 30 00
 (2025-08-07 20:53:00.571809)  can0  098   [1]  01
 (2025-08-07 20:53:00.575544)  can0  02F   [8]  B9 4B 5A 09 76 F1 8D 6F
 (2025-08-07 20:53:00.581779)  can0  043   [4]  00 8B 30 00
 (2025-08-07 20:53:00.581858)  can0  098   [1]  01
 (2025-08-07 20:53:00.582579)  can0  043   [8]  20 E0 FC 24 EC 64 C5 2F
 (2025-08-07 20:53:00.585004)  can0  02F   [2]  51 01
 (2025-08-07 20:53:00.588248)  can0  02F   [8]  4A A4 B9 76 48 19 0E E0
 (2025-08-07 20:53:00.591683)  can0  043   [4]  00 8B 30 00
 (2025-08-07 20:53:00.591756)  can0  098   [1]  01
 (2025-08-07 20:53:00.594564)  can0  043   [8]  17 CE 8D F1 7D A4 3F 6A
 (2025-08-07 20:53:00.599466)  can0  02F   [2]  51 01
 (2025-08-07 20:53:00.600838)  can0  043   [8]  22 D3 6E C8 B6 DB 6B 08
 (2025-08-07 20:53:00.601782)  can0  043   [4]  00 8B 30 00
 (2025-08-07 20:53:00.601861)  can0  098   [1]  01
 (2025-08-07 20:53:00.607721)  can0  02F   [8]  C6 41 9B 66 64 87 07 D1
 (2025-08-07 20:53:00.611649)  can0  043   [4]  00 8B 30 00
 (2025-08-07 20:53:00.611760)  can0  098   [1]  01
 (2025-08-07 20:53:00.613394)  can0  043   [8]  77 E0 29 6E 04 78 81 11
 (2025-08-07 20:53:00.614002)  can0  02F   [2]  51 01
 (2025-08-07 20:53:00.620700)  can0  02F   [8]  D5 79 D6 CD DD CB 86 B4
 (2025-08-07 20:53:00.621675)  can0  043   [4]  00 8B 30 00
 (2025-08-07 20:53:00.621778)  can0  098   [1]  01
 (2025-08-07 20:53:00.626385)  can0  043   [8]  CF 45 5C BF 01 C4 47 7F
 (2025-08-07 20:53:00.629150)  can0  02F   [2]  5B 01
 (2025-08-07 20:53:00.631899)  can0  043   [4]  00 8B 30 00
 (2025-08-07 20:53:00.631985)  can0  098   [1]  01
 (2025-08-07 20:53:00.632857)  can0  098   [8]  92 70 8D 93 63 26 E5 7F
 (2025-08-07 20:53:00.639850)  can0  02F   [8]  DF 5C E0 DC ED 0B 54 10
 (2025-08-07 20:53:00.641595)  can0  043   [4]  00 8B 30 00
 (2025-08-07 20:53:00.641672)  can0  098   [1]  01
 (2025-08-07 20:53:00.643834)  can0  02F   [2]  5B 01
 (2025-08-07 20:53:00.645552)  can0  043   [8]  98 AE 12 0E FE AA 7D B8
 (2025-08-07 20:53:00.651686)  can0  043   [4]  00 8B 30 00
 (2025-08-07 20:53:00.651777)  can0  098   [1]  01
 (2025-08-07 20:53:00.653552)  can0  098   [8]  1B 0B 00 0E E9 85 99 C3
 (2025-08-07 20:53:00.658966)  can0  02F   [2]  5B 01
 (2025-08-07 20:53:00.659405)  can0  043   [8]  29 D1 71 47 A0 B2 FB 16
 (2025-08-07 20:53:00.661590)  can0  043   [4]  00 8B 30 00
 (2025-08-07 20:53:00.661676)  can0  098   [1]  01
 (2025-08-07 20:53:00.666023)  can0  098   [8]  9C 3F 42 EB 23 C7 9A 18
 (2025-08-07 20:53:00.671627)  can0  043   [4]  00 8B 30 00
 (2025-08-07 20:53:00.671729)  can0  098   [1]  01
 (2025-08-07 20:53:00.673171)  can0  02F   [8]  52 63 40 E7 F6 85 11 8A
 (2025-08-07 20:53:00.674187)  can0  02F   [2]  66 01
 (2025-08-07 20:53:00.680149)  can0  043   [8]  6C 94 23 15 2C A1 54 EE
 (2025-08-07 20:53:00.681692)  can0  043   [4]  00 8B 30 00
 (2025-08-07 20:53:00.681793)  can0  098   [1]  01
 (2025-08-07 20:53:00.685850)  can0  098   [8]  8D D5 0F 4D FC 70 E4 6E
 (2025-08-07 20:53:00.689194)  can0  02F   [2]  66 01
 (2025-08-07 20:53:00.691651)  can0  043   [4]  00 8B 30 00
 (2025-08-07 20:53:00.691722)  can0  098   [1]  01
 (2025-08-07 20:53:00.692583)  can0  043   [8]  A3 AC 5E 9F 87 BE 4F 06
 (2025-08-07 20:53:00.699079)  can0  02F   [8]  F5 40 8D 6F C7 C5 FC 45
 (2025-08-07 20:53:00.701673)  can0  043   [4]  00 8B 30 00
 (2025-08-07 20:53:00.701754)  can0  098   [1]  01
 (2025-08-07 20:53:00.704393)  can0  02F   [2]  66 01
 (2025-08-07 20:53:00.706229)  can0  043   [8]  26 2A 9A C9 25 26 54 0B
 (2025-08-07 20:53:00.711582)  can0  043   [4]  00 8B 30 00
 (2025-08-07 20:53:00.711663)  can0  098   [1]  01
 (2025-08-07 20:53:00.712654)  can0  043   [8]  38 EA 5B 29 81 3A D4 EA
 (2025-08-07 20:53:00.718702)  can0  02F   [2]  70 01
 (2025-08-07 20:53:00.718903)  can0  098   [8]  02 D6 C6 F9 BB 53 B6 82
 (2025-08-07 20:53:00.721580)  can0  043   [4]  00 8B 30 00
 (2025-08-07 20:53:00.721687)  can0  098   [1]  01
 (2025-08-07 20:53:00.724827)  can0  043   [8]  DA B3 BE F2 73 7C E8 22
 (2025-08-07 20:53:00.731687)  can0  043   [4]  00 8B 30 00
 (2025-08-07 20:53:00.731753)  can0  098   [1]  01
 (2025-08-07 20:53:00.731947)  can0  02F   [8]  06 D7 38 E1 E0 3F 24 E3
 (2025-08-07 20:53:00.733686)  can0  02F   [2]  70 01
 (2025-08-07 20:53:00.738498)  can0  043   [8]  22 E8 DE DD 87 CF 98 2F
 (2025-08-07 20:53:00.741109)  can0  043   [4]  00 8B 30 00
 (2025-08-07 20:53:00.741187)  can0  098   [1]  01
 (2025-08-07 20:53:00.744942)  can0  043   [8]  22 20 13 9D E5 84 C4 4F
 (2025-08-07 20:53:00.749330)  can0  02F   [2]  70 01
 (2025-08-07 20:53:00.752057)  can0  043   [4]  00 8B 30 00
 (2025-08-07 20:53:00.752137)  can0  098   [1]  01
 (2025-08-07 20:53:00.752516)  can0  02F   [8]  3F 67 DE 22 FB 57 72 E2
 (2025-08-07 20:53:00.759268)  can0  043   [8]  FB 76 65 D4 B0 2D F0 76
 (2025-08-07 20:53:00.762052)  can0  043   [4]  00 8B 30 00
 (2025-08-07 20:53:00.762132)  can0  098   [1]  01
 (2025-08-07 20:53:00.764250)  can0  02F   [2]  7A 01
 (2025-08-07 20:53:00.765022)  can0  02F   [8]  F7 9D AD 01 1B 5C 11 9F
 (2025-08-07 20:53:00.771871)  can0  043   [8]  32 01 A1 1B D5 E5 54 6D
 (2025-08-07 20:53:00.772059)  can0  043   [4]  00 8B 30 00
 (2025-08-07 20:53:00.772168)  can0  098   [1]  01
 (2025-08-07 20:53:00.778554)  can0  098   [8]  30 65 F7 31 82 18 15 00
 (2025-08-07 20:53:00.779500)  can0  02F   [2]  7A 01
 (2025-08-07 20:53:00.782189)  can0  043   [4]  00 8B 30 00
 (2025-08-07 20:53:00.782305)  can0  098   [1]  01
 (2025-08-07 20:53:00.785214)  can0  043   [8]  6D B2 01 B2 25 44 73 AD
 (2025-08-07 20:53:00.791633)  can0  02F   [8]  A5 DB 3D 4C 02 48 18 4D
 (2025-08-07 20:53:00.792116)  can0  043   [4]  00 8B 30 00
 (2025-08-07 20:53:00.792194)  can0  098   [1]  01
 (2025-08-07 20:53:00.794528)  can0  02F   [2]  7A 01
 (2025-08-07 20:53:00.798450)  can0  043   [8]  A5 39 DE 42 AE 22 2B 87
 (2025-08-07 20:53:00.802565)  can0  043   [4]  00 8B 30 00
 (2025-08-07 20:53:00.802652)  can0  098   [1]  01
 (2025-08-07 20:53:00.805468)  can0  043   [8]  03 8B EC 26 02 15 5F CC
 (2025-08-07 20:53:00.809910)  can0  02F   [2]  84 01
 (2025-08-07 20:53:00.811273)  can0  098   [8]  C3 46 6F F3 84 3C 36 98
 (2025-08-07 20:53:00.812636)  can0  043   [4]  00 8B 30 00
 (2025-08-07 20:53:00.812723)  can0  098   [1]  01
 (2025-08-07 20:53:00.817730)  can0  043   [8]  04 E2 8E 76 03 22 0C 87
 (2025-08-07 20:53:00.822903)  can0  043   [4]  00 8B 30 00
 (2025-08-07 20:53:00.823025)  can0  098   [1]  01
 (2025-08-07 20:53:00.824281)  can0  02F   [8]  6C 2F FA 5C A8 FF 7E 45
 (2025-08-07 20:53:00.825964)  can0  02F   [2]  84 01
 (2025-08-07 20:53:00.830704)  can0  043   [8]  D4 B7 AE BF 28 A9 FB 89
 (2025-08-07 20:53:00.832498)  can0  043   [4]  00 8B 30 00
 (2025-08-07 20:53:00.832573)  can0  098   [1]  01
 (2025-08-07 20:53:00.837181)  can0  043   [8]  F4 85 EA 35 2A 43 BC 35
 (2025-08-07 20:53:00.842580)  can0  02F   [2]  84 01
 (2025-08-07 20:53:00.842723)  can0  043   [4]  00 8B 30 00
 (2025-08-07 20:53:00.842834)  can0  098   [1]  01
 (2025-08-07 20:53:00.843996)  can0  02F   [8]  52 B9 DA F3 A2 CA CC 96
 (2025-08-07 20:53:00.850382)  can0  043   [8]  FB 27 4B 61 C2 EB 8A C2
 (2025-08-07 20:53:00.852673)  can0  043   [4]  00 8B 30 00
 (2025-08-07 20:53:00.852743)  can0  098   [1]  01
 (2025-08-07 20:53:00.857288)  can0  02F   [8]  85 FD DE F1 59 B6 87 6F
 (2025-08-07 20:53:00.857465)  can0  02F   [2]  8E 01
 (2025-08-07 20:53:00.862759)  can0  043   [4]  00 8B 30 00
 (2025-08-07 20:53:00.862835)  can0  098   [1]  01
 (2025-08-07 20:53:00.863050)  can0  043   [8]  5E 44 11 37 E8 B1 3D 60
 (2025-08-07 20:53:00.869815)  can0  043   [8]  62 77 05 4A B5 96 B7 E2
 (2025-08-07 20:53:00.872626)  can0  043   [4]  00 8B 30 00
 (2025-08-07 20:53:00.872707)  can0  02F   [2]  8E 01
 (2025-08-07 20:53:00.872826)  can0  098   [1]  01
 (2025-08-07 20:53:00.876351)  can0  043   [8]  BB 9A AE 0D EA A9 3E 2C
 (2025-08-07 20:53:00.882752)  can0  098   [8]  82 76 74 66 57 F6 62 78
 (2025-08-07 20:53:00.883097)  can0  043   [4]  00 8B 30 00
 (2025-08-07 20:53:00.883223)  can0  098   [1]  01
 (2025-08-07 20:53:00.887027)  can0  02F   [2]  8E 01
 (2025-08-07 20:53:00.889550)  can0  02F   [8]  83 BA 2C 54 EE 2D B2 B6
 (2025-08-07 20:53:00.892986)  can0  043   [4]  00 8B 30 00
 (2025-08-07 20:53:00.893062)  can0  098   [1]  01
 (2025-08-07 20:53:00.895991)  can0  043   [8]  D8 C9 86 A7 8D 5D 92 30
 (2025-08-07 20:53:00.902822)  can0  098   [8]  5B F9 F4 8F 89 B3 97 06
 (2025-08-07 20:53:00.902999)  can0  02F   [2]  99 01
 (2025-08-07 20:53:00.903129)  can0  043   [4]  00 8B 30 00
 (2025-08-07 20:53:00.903261)  can0  098   [1]  01
 (2025-08-07 20:53:00.909007)  can0  043   [8]  59 24 1F ED 9F 5A FD 23
 (2025-08-07 20:53:00.913154)  can0  043   [4]  00 8B 30 00
 (2025-08-07 20:53:00.913238)  can0  098   [1]  01
 (2025-08-07 20:53:00.914996)  can0  02F   [8]  6E ED B9 97 93 0C BF 0F
 (2025-08-07 20:53:00.917398)  can0  02F   [2]  99 01
 (2025-08-07 20:53:00.921566)  can0  043   [8]  8B 2F 96 E6 47 C4 E4 EA
 (2025-08-07 20:53:00.923086)  can0  043   [4]  00 8B 30 00
 (2025-08-07 20:53:00.923164)  can0  098   [1]  01
 (2025-08-07 20:53:00.927984)  can0  043   [8]  79 2B 8D CC 77 9C DC 6C
 (2025-08-07 20:53:00.932427)  can0  043   [4]  00 8B 30 00
 (2025-08-07 20:53:00.932505)  can0  098   [1]  01
 (2025-08-07 20:53:00.933785)  can0  02F   [2]  99 01
 (2025-08-07 20:53:00.934727)  can0  02F   [8]  01 1F 4C AE 63 AF 2D 47
 (2025-08-07 20:53:00.941694)  can0  043   [8]  83 A0 B1 39 29 5A D0 5D
 (2025-08-07 20:53:00.942792)  can0  043   [4]  00 8B 30 00
 (2025-08-07 20:53:00.942893)  can0  098   [1]  01
 (2025-08-07 20:53:00.947420)  can0  02F   [8]  14 10 52 69 E8 C8 76 32
 (2025-08-07 20:53:00.948729)  can0  02F   [2]  A3 01
 (2025-08-07 20:53:00.952122)  can0  043   [4]  00 8B 30 00
 (2025-08-07 20:53:00.952228)  can0  098   [1]  01
 (2025-08-07 20:53:00.954579)  can0  043   [8]  FC F5 08 88 6C 69 BC 11
 (2025-08-07 20:53:00.960252)  can0  043   [8]  53 04 34 BD 07 F6 17 67
 (2025-08-07 20:53:00.962351)  can0  043   [4]  00 8B 30 00
 (2025-08-07 20:53:00.962425)  can0  098   [1]  01
 (2025-08-07 20:53:00.963126)  can0  02F   [2]  A3 01
 (2025-08-07 20:53:00.966674)  can0  02F   [8]  64 B9 EF F2 60 79 1A C1
 (2025-08-07 20:53:00.972216)  can0  043   [4]  00 8B 30 00
 (2025-08-07 20:53:00.972290)  can0  098   [1]  01
 (2025-08-07 20:53:00.973377)  can0  043   [8]  29 4F E8 BA E9 0D D6 3D
 (2025-08-07 20:53:00.977800)  can0  02F   [2]  A3 01
 (2025-08-07 20:53:00.979853)  can0  02F   [8]  A4 B8 C4 D2 50 BC C2 E1
 (2025-08-07 20:53:00.982541)  can0  043   [4]  00 8B 30 00
 (2025-08-07 20:53:00.982615)  can0  098   [1]  01
 (2025-08-07 20:53:00.986246)  can0  043   [8]  AD 7D 8B A8 47 2E 04 1C
 (2025-08-07 20:53:00.992606)  can0  098   [8]  75 72 21 33 71 92 AA D1
 (2025-08-07 20:53:00.993004)  can0  043   [4]  00 8B 30 00
 (2025-08-07 20:53:00.993084)  can0  098   [1]  01
 (2025-08-07 20:53:00.993882)  can0  02F   [2]  AD 01
 (2025-08-07 20:53:00.999838)  can0  043   [8]  5B 9E 3C 5B BB CF 38 54
 (2025-08-07 20:53:01.002868)  can0  043   [4]  00 8B 30 00
 (2025-08-07 20:53:01.003002)  can0  098   [1]  00
 (2025-08-07 20:53:01.005506)  can0  02F   [8]  92 95 A5 C7 31 AB B4 CA
 (2025-08-07 20:53:01.008358)  can0  02F   [2]  AD 01
 (2025-08-07 20:53:01.011925)  can0  043   [8]  7F EC 70 7D 37 FF 15 B8
 (2025-08-07 20:53:01.013079)  can0  043   [4]  00 8B 30 00
 (2025-08-07 20:53:01.013159)  can0  098   [1]  00
 (2025-08-07 20:53:01.018368)  can0  043   [8]  67 6B B0 05 7B 75 32 5E
 (2025-08-07 20:53:01.023110)  can0  043   [4]  00 8B 30 00
 (2025-08-07 20:53:01.023189)  can0  098   [1]  00
 (2025-08-07 20:53:01.023322)  can0  02F   [2]  AD 01
 (2025-08-07 20:53:01.024812)  can0  098   [8]  BA A0 F8 11 4A 88 BE 64
 (2025-08-07 20:53:01.031203)  can0  043   [8]  5E 58 CD 18 B7 E7 C8 7A
 (2025-08-07 20:53:01.032383)  can0  043   [4]  00 8B 30 00
 (2025-08-07 20:53:01.032466)  can0  098   [1]  00
 (2025-08-07 20:53:01.038188)  can0  02F   [8]  1A A5 37 E2 32 78 43 EF
 (2025-08-07 20:53:01.039106)  can0  02F   [2]  B7 01
 (2025-08-07 20:53:01.042266)  can0  043   [4]  00 8B 30 00
 (2025-08-07 20:53:01.042377)  can0  098   [1]  00
 (2025-08-07 20:53:01.043914)  can0  043   [8]  1F 38 DE 73 E6 1D BB 45
 (2025-08-07 20:53:01.050296)  can0  043   [8]  B2 0C E3 FF CE 5C 9E 5D
 (2025-08-07 20:53:01.052445)  can0  043   [4]  00 8B 30 00
 (2025-08-07 20:53:01.052522)  can0  098   [1]  00
 (2025-08-07 20:53:01.053779)  can0  02F   [2]  B7 01
 (2025-08-07 20:53:01.056719)  can0  02F   [8]  5D FD 9C B9 42 71 C9 87
 (2025-08-07 20:53:01.062445)  can0  043   [4]  00 8B 30 00
 (2025-08-07 20:53:01.062519)  can0  098   [1]  00
 (2025-08-07 20:53:01.064021)  can0  043   [8]  28 5D AB A5 34 D3 D2 20
 (2025-08-07 20:53:01.068908)  can0  02F   [2]  B7 01
 (2025-08-07 20:53:01.070391)  can0  02F   [8]  DC AD 8E 1E 6F E8 10 CE
 (2025-08-07 20:53:01.072250)  can0  043   [4]  00 8B 30 00
 (2025-08-07 20:53:01.072338)  can0  098   [1]  00
 (2025-08-07 20:53:01.076095)  can0  043   [8]  61 00 57 70 DD 7B D8 DB
 (2025-08-07 20:53:01.082287)  can0  043   [4]  00 8B 30 00
 (2025-08-07 20:53:01.082364)  can0  098   [1]  00
 (2025-08-07 20:53:01.082734)  can0  098   [8]  68 4F AB D3 DF 63 45 B5
 (2025-08-07 20:53:01.087419)  can0  02F   [2]  C2 01
 (2025-08-07 20:53:01.089206)  can0  043   [8]  57 04 F0 3D 24 64 A0 85
 (2025-08-07 20:53:01.092419)  can0  043   [4]  00 8B 30 00
 (2025-08-07 20:53:01.092491)  can0  098   [1]  00
 (2025-08-07 20:53:01.096158)  can0  02F   [8]  8E 18 A5 81 AB 10 3B 6D
 (2025-08-07 20:53:01.098451)  can0  02F   [2]  C2 01
 (2025-08-07 20:53:01.101827)  can0  043   [8]  90 D1 54 A5 4E 76 3B 10
 (2025-08-07 20:53:01.102458)  can0  043   [4]  00 8B 30 00
 (2025-08-07 20:53:01.102556)  can0  098   [1]  00
 (2025-08-07 20:53:01.108281)  can0  043   [8]  4A AE 40 FE B5 CF 18 13
 (2025-08-07 20:53:01.112308)  can0  043   [4]  00 8B 30 00
 (2025-08-07 20:53:01.112382)  can0  098   [1]  00
 (2025-08-07 20:53:01.113940)  can0  02F   [2]  C2 01
 (2025-08-07 20:53:01.114883)  can0  02F   [8]  12 92 E3 A1 1C 5A E2 D5
 (2025-08-07 20:53:01.121327)  can0  043   [8]  B3 0D 23 4B 59 F9 A4 5A
 (2025-08-07 20:53:01.122199)  can0  043   [4]  00 8B 30 00
 (2025-08-07 20:53:01.122274)  can0  098   [1]  00
 (2025-08-07 20:53:01.127786)  can0  02F   [8]  62 A4 9E 9B 0B F9 D7 D4
 (2025-08-07 20:53:01.128495)  can0  02F   [2]  CC 01
 (2025-08-07 20:53:01.132319)  can0  043   [4]  00 8B 30 00
 (2025-08-07 20:53:01.132426)  can0  098   [1]  00
 (2025-08-07 20:53:01.134718)  can0  043   [8]  8B 57 B2 94 5F 47 C9 6F
 (2025-08-07 20:53:01.140543)  can0  043   [8]  89 A9 6A 1B 45 02 C0 8F
 (2025-08-07 20:53:01.142234)  can0  043   [4]  00 8B 30 00
 (2025-08-07 20:53:01.142309)  can0  098   [1]  00
 (2025-08-07 20:53:01.143558)  can0  02F   [2]  CC 01
 (2025-08-07 20:53:01.147036)  can0  02F   [8]  AB 1D 39 90 39 ED 83 7C
 (2025-08-07 20:53:01.152211)  can0  043   [4]  00 8B 30 00
 (2025-08-07 20:53:01.152288)  can0  098   [1]  00
 (2025-08-07 20:53:01.153733)  can0  043   [8]  04 3C 42 70 A5 08 3D 7F
 (2025-08-07 20:53:01.158504)  can0  02F   [2]  CC 01
 (2025-08-07 20:53:01.160196)  can0  02F   [8]  33 67 50 F4 1B E7 C1 B5
 (2025-08-07 20:53:01.162182)  can0  043   [4]  00 8B 30 00
 (2025-08-07 20:53:01.162258)  can0  098   [1]  00
 (2025-08-07 20:53:01.166599)  can0  043   [8]  93 BB AC 30 D6 E9 91 2E
 (2025-08-07 20:53:01.172204)  can0  043   [4]  00 8B 30 00
 (2025-08-07 20:53:01.172284)  can0  098   [1]  00
 (2025-08-07 20:53:01.173375)  can0  02F   [2]  D6 01
 (2025-08-07 20:53:01.173767)  can0  098   [8]  8B DE C7 AD 54 FF 6C 91
 (2025-08-07 20:53:01.180028)  can0  043   [8]  0F BD A5 B9 B3 BD 6D 5F
 (2025-08-07 20:53:01.182224)  can0  043   [4]  00 8B 30 00
 (2025-08-07 20:53:01.182300)  can0  098   [1]  00
 (2025-08-07 20:53:01.186463)  can0  02F   [8]  92 4A F8 08 12 FF F6 9F
 (2025-08-07 20:53:01.188552)  can0  02F   [2]  D6 01
 (2025-08-07 20:53:01.192245)  can0  043   [4]  00 8B 30 00
 (2025-08-07 20:53:01.192324)  can0  098   [1]  00
 (2025-08-07 20:53:01.194070)  can0  043   [8]  B1 AB CF 91 A7 C7 46 CA
 (2025-08-07 20:53:01.199780)  can0  043   [8]  07 8B FA 3D 85 F8 1D 05
 (2025-08-07 20:53:01.202210)  can0  043   [4]  00 8B 30 00
 (2025-08-07 20:53:01.202299)  can0  098   [1]  00
 (2025-08-07 20:53:01.203543)  can0  02F   [2]  D6 01
 (2025-08-07 20:53:01.206200)  can0  098   [8]  C1 8F 6D 12 35 E4 24 03
 (2025-08-07 20:53:01.212252)  can0  043   [4]  00 8B 30 00
 (2025-08-07 20:53:01.212331)  can0  098   [1]  00
 (2025-08-07 20:53:01.213118)  can0  043   [8]  41 A9 33 5D 05 74 B5 7F
 (2025-08-07 20:53:01.218369)  can0  02F   [2]  E0 01
 (2025-08-07 20:53:01.219719)  can0  043   [8]  4C D3 5C B4 DF 7E DB A4
 (2025-08-07 20:53:01.222226)  can0  043   [4]  00 8B 30 00
 (2025-08-07 20:53:01.222309)  can0  098   [1]  00
 (2025-08-07 20:53:01.226198)  can0  098   [8]  9E E9 E9 E9 A4 62 55 73
 (2025-08-07 20:53:01.232192)  can0  043   [4]  00 8B 30 00
 (2025-08-07 20:53:01.232270)  can0  098   [1]  00
 (2025-08-07 20:53:01.233274)  can0  02F   [2]  E0 01
 (2025-08-07 20:53:01.233484)  can0  043   [8]  B1 7C 9E DF B4 EE 32 F4
 (2025-08-07 20:53:01.239131)  can0  02F   [8]  DC 5E 3C 37 01 D5 BC DE
 (2025-08-07 20:53:01.242102)  can0  043   [4]  00 8B 30 00
 (2025-08-07 20:53:01.242180)  can0  098   [1]  00
 (2025-08-07 20:53:01.245612)  can0  043   [8]  67 31 8A 29 99 DA 82 F7
 (2025-08-07 20:53:01.248512)  can0  02F   [2]  E0 01
 (2025-08-07 20:53:01.252062)  can0  02F   [8]  18 84 97 1F CE 85 7F E6
 (2025-08-07 20:53:01.252222)  can0  043   [4]  00 8B 30 00
 (2025-08-07 20:53:01.252336)  can0  098   [1]  00
 (2025-08-07 20:53:01.259503)  can0  043   [8]  BE 23 60 42 A9 D4 47 6D
 (2025-08-07 20:53:01.262169)  can0  043   [4]  00 8B 30 00
 (2025-08-07 20:53:01.262269)  can0  098   [1]  00
 (2025-08-07 20:53:01.263380)  can0  02F   [2]  EB 01
 (2025-08-07 20:53:01.265165)  can0  043   [8]  53 F6 95 98 60 CB B6 C0
 (2025-08-07 20:53:01.271609)  can0  02F   [8]  4B 1E 70 F9 05 E2 A9 C1
 (2025-08-07 20:53:01.272344)  can0  043   [4]  00 8B 30 00
 (2025-08-07 20:53:01.272427)  can0  098   [1]  00
 (2025-08-07 20:53:01.278394)  can0  02F   [2]  EB 01
 (2025-08-07 20:53:01.278598)  can0  043   [8]  2B 6B 6D 48 6A 9E 17 0D
 (2025-08-07 20:53:01.282190)  can0  043   [4]  00 8B 30 00
 (2025-08-07 20:53:01.282291)  can0  098   [1]  00
 (2025-08-07 20:53:01.284304)  can0  02F   [8]  37 82 61 11 6D A5 CC 94
 (2025-08-07 20:53:01.290654)  can0  043   [8]  93 DA D8 F2 3B 26 CA 79
 (2025-08-07 20:53:01.292204)  can0  043   [4]  00 8B 30 00
 (2025-08-07 20:53:01.292311)  can0  098   [1]  00
 (2025-08-07 20:53:01.293467)  can0  02F   [2]  EB 01
 (2025-08-07 20:53:01.297241)  can0  098   [8]  B7 A8 D4 B8 35 EF 6C 65
 (2025-08-07 20:53:01.302166)  can0  043   [4]  00 8B 30 00
 (2025-08-07 20:53:01.302243)  can0  098   [1]  00
 (2025-08-07 20:53:01.304287)  can0  02F   [8]  F8 49 26 D3 82 71 CD 20
 (2025-08-07 20:53:01.308566)  can0  02F   [2]  F5 01
 (2025-08-07 20:53:01.310519)  can0  043   [8]  75 10 81 ED A4 1F 74 DD
 (2025-08-07 20:53:01.312138)  can0  043   [4]  00 8B 30 00
 (2025-08-07 20:53:01.312245)  can0  098   [1]  00
 (2025-08-07 20:53:01.316205)  can0  02F   [8]  26 8E DC BA 0E 06 CC 45
 (2025-08-07 20:53:01.322096)  can0  043   [4]  00 8B 30 00
 (2025-08-07 20:53:01.322172)  can0  098   [1]  00
 (2025-08-07 20:53:01.323081)  can0  043   [8]  CC F1 D3 23 2C F5 71 35
 (2025-08-07 20:53:01.323309)  can0  02F   [2]  F5 01
 (2025-08-07 20:53:01.329973)  can0  098   [8]  6D DE 3C F5 6F 1E 8A 83
 (2025-08-07 20:53:01.332133)  can0  043   [4]  00 8B 30 00
 (2025-08-07 20:53:01.332208)  can0  098   [1]  00
 (2025-08-07 20:53:01.337047)  can0  043   [8]  AC 2C 79 51 16 56 06 D7
 (2025-08-07 20:53:01.338241)  can0  02F   [2]  F5 01
 (2025-08-07 20:53:01.342210)  can0  043   [4]  00 8B 30 00
 (2025-08-07 20:53:01.342280)  can0  098   [1]  00
 (2025-08-07 20:53:01.343458)  can0  02F   [8]  9B B7 27 34 53 BF 80 73
 (2025-08-07 20:53:01.349106)  can0  043   [8]  CC 88 45 21 96 4E B8 A0
 (2025-08-07 20:53:01.352137)  can0  043   [4]  00 8B 30 00
 (2025-08-07 20:53:01.352214)  can0  098   [1]  00
 (2025-08-07 20:53:01.353444)  can0  02F   [2]  FF 01
 (2025-08-07 20:53:01.355611)  can0  043   [8]  6D 1A B8 59 85 2D 12 AE
 (2025-08-07 20:53:01.362263)  can0  02F   [8]  F3 04 A1 05 B9 B4 53 47
 (2025-08-07 20:53:01.362419)  can0  043   [4]  00 8B 30 00
 (2025-08-07 20:53:01.362534)  can0  098   [1]  00
 (2025-08-07 20:53:01.368453)  can0  02F   [2]  FF 01
 (2025-08-07 20:53:01.368983)  can0  043   [8]  72 56 E0 EB 15 A7 6B 87
 (2025-08-07 20:53:01.372276)  can0  043   [4]  00 8B 30 00
 (2025-08-07 20:53:01.372350)  can0  098   [1]  00
 (2025-08-07 20:53:01.375535)  can0  02F   [8]  31 50 F6 CF 7E DC 39 0D
 (2025-08-07 20:53:01.381939)  can0  043   [8]  AF 41 6B A2 1C 01 AA CB
 (2025-08-07 20:53:01.382561)  can0  043   [4]  00 8B 30 00
 (2025-08-07 20:53:01.382640)  can0  098   [1]  00
 (2025-08-07 20:53:01.383755)  can0  02F   [2]  09 02
 (2025-08-07 20:53:01.388865)  can0  043   [8]  37 E8 41 45 DE 64 B1 0B
 (2025-08-07 20:53:01.392534)  can0  043   [4]  00 8B 30 00
 (2025-08-07 20:53:01.392641)  can0  098   [1]  00
 (2025-08-07 20:53:01.394536)  can0  02F   [8]  F9 74 E5 DF B1 50 CE 70
 (2025-08-07 20:53:01.400325)  can0  02F   [2]  09 02
 (2025-08-07 20:53:01.401187)  can0  043   [8]  AB B4 6C 07 99 9D 38 DC
 (2025-08-07 20:53:01.402643)  can0  043   [4]  00 8B 30 00
 (2025-08-07 20:53:01.402720)  can0  098   [1]  00
 (2025-08-07 20:53:01.407719)  can0  02F   [8]  BC 60 07 DD A2 7F 6B 3D
 (2025-08-07 20:53:01.412560)  can0  043   [4]  00 8B 30 00
 (2025-08-07 20:53:01.412636)  can0  098   [1]  00
 (2025-08-07 20:53:01.414138)  can0  043   [8]  6F 66 60 35 3E B1 3A 18
 (2025-08-07 20:53:01.414712)  can0  02F   [2]  09 02
 (2025-08-07 20:53:01.420575)  can0  098   [8]  67 59 E8 0A 05 AE 1D 6B
 (2025-08-07 20:53:01.422597)  can0  043   [4]  00 8B 30 00
 (2025-08-07 20:53:01.422674)  can0  098   [1]  00
 (2025-08-07 20:53:01.427098)  can0  098   [8]  C5 E6 0B 52 50 24 11 85
 (2025-08-07 20:53:01.430661)  can0  02F   [2]  13 02
 (2025-08-07 20:53:01.432564)  can0  043   [4]  00 8B 30 00
 (2025-08-07 20:53:01.432677)  can0  098   [1]  00
 (2025-08-07 20:53:01.434350)  can0  043   [8]  81 13 5B 5C 56 86 AC 0D
 (2025-08-07 20:53:01.440517)  can0  02F   [8]  82 36 76 F9 78 36 D3 FE
 (2025-08-07 20:53:01.442564)  can0  043   [4]  00 8B 30 00
 (2025-08-07 20:53:01.442663)  can0  098   [1]  00
 (2025-08-07 20:53:01.446171)  can0  043   [8]  D7 54 AF 70 FF 6F F6 79
 (2025-08-07 20:53:01.448949)  can0  02F   [2]  13 02
 (2025-08-07 20:53:01.452617)  can0  098   [8]  03 86 90 6B 10 25 14 11
 (2025-08-07 20:53:01.452776)  can0  043   [4]  00 8B 30 00
 (2025-08-07 20:53:01.452886)  can0  098   [1]  00
 (2025-08-07 20:53:01.459208)  can0  02F   [8]  04 9C 1F E6 74 4A AC 8F
 (2025-08-07 20:53:01.460196)  can0  02F   [2]  13 02
 (2025-08-07 20:53:01.462601)  can0  043   [4]  00 8B 30 00
 (2025-08-07 20:53:01.462711)  can0  098   [1]  00
 (2025-08-07 20:53:01.465684)  can0  02F   [8]  5A BB A8 CC B1 60 FE F2
 (2025-08-07 20:53:01.472069)  can0  043   [8]  76 AC FF B7 B4 49 34 6C
 (2025-08-07 20:53:01.472674)  can0  043   [4]  00 8B 30 00
 (2025-08-07 20:53:01.472768)  can0  098   [1]  00
 (2025-08-07 20:53:01.475032)  can0  02F   [2]  1E 02
 (2025-08-07 20:53:01.479023)  can0  043   [8]  71 01 9F C9 28 AB E8 75
 (2025-08-07 20:53:01.482521)  can0  043   [4]  00 8B 30 00
 (2025-08-07 20:53:01.482617)  can0  098   [1]  00
 (2025-08-07 20:53:01.484718)  can0  098   [8]  3A EA 96 1C 14 BC 32 55
 (2025-08-07 20:53:01.490158)  can0  02F   [2]  1E 02
 (2025-08-07 20:53:01.491198)  can0  043   [8]  75 71 E8 E6 2E F6 D1 C9
 (2025-08-07 20:53:01.492934)  can0  043   [4]  00 8B 30 00
 (2025-08-07 20:53:01.493007)  can0  098   [1]  00
 (2025-08-07 20:53:01.497690)  can0  02F   [8]  CF 55 8C FE 1F F6 66 BB
 (2025-08-07 20:53:01.502870)  can0  043   [4]  00 8B 30 00
 (2025-08-07 20:53:01.502986)  can0  098   [1]  00
 (2025-08-07 20:53:01.504199)  can0  043   [8]  17 82 D5 1B F7 36 10 B4
 (2025-08-07 20:53:01.510145)  can0  02F   [2]  1E 02
 (2025-08-07 20:53:01.510806)  can0  043   [8]  9C DD FB 47 8A 73 4F DE
 (2025-08-07 20:53:01.513002)  can0  043   [4]  00 8B 30 00
 (2025-08-07 20:53:01.513080)  can0  098   [1]  00
 (2025-08-07 20:53:01.517812)  can0  02F   [8]  65 BA 1F CA EB 47 08 1D
 (2025-08-07 20:53:01.520660)  can0  02F   [2]  28 02
 (2025-08-07 20:53:01.522097)  can0  043   [4]  00 8B 30 00
 (2025-08-07 20:53:01.522203)  can0  098   [1]  00
 (2025-08-07 20:53:01.523586)  can0  043   [8]  94 56 B0 12 8C 85 77 E9
 (2025-08-07 20:53:01.529952)  can0  043   [8]  CB 97 EA 30 0D 17 71 B6
 (2025-08-07 20:53:01.532038)  can0  043   [4]  00 8B 30 00
 (2025-08-07 20:53:01.532115)  can0  098   [1]  00
 (2025-08-07 20:53:01.535101)  can0  02F   [2]  28 02
 (2025-08-07 20:53:01.536406)  can0  02F   [8]  F4 8A 6C 9A EF AE 58 1B
 (2025-08-07 20:53:01.542132)  can0  043   [4]  00 8B 30 00
 (2025-08-07 20:53:01.542203)  can0  098   [1]  00
 (2025-08-07 20:53:01.543075)  can0  043   [8]  04 D2 AA 84 75 43 E3 A2
 (2025-08-07 20:53:01.549580)  can0  02F   [8]  AA C4 8E A0 7D 10 A2 DF
 (2025-08-07 20:53:01.551005)  can0  02F   [2]  32 02
 (2025-08-07 20:53:01.552961)  can0  043   [4]  00 8B 30 00
 (2025-08-07 20:53:01.553066)  can0  098   [1]  00
 (2025-08-07 20:53:01.556028)  can0  043   [8]  00 8E 1C 5D 3D 54 CC E6
 (2025-08-07 20:53:01.562867)  can0  043   [8]  89 31 57 6C 73 24 05 92
 (2025-08-07 20:53:01.563045)  can0  043   [4]  00 8B 30 00
 (2025-08-07 20:53:01.563139)  can0  098   [1]  00
 (2025-08-07 20:53:01.567034)  can0  02F   [2]  32 02
 (2025-08-07 20:53:01.568541)  can0  043   [8]  F4 2E A2 CF 82 65 C6 45
 (2025-08-07 20:53:01.572910)  can0  043   [4]  00 8B 30 00
 (2025-08-07 20:53:01.572985)  can0  098   [1]  00
 (2025-08-07 20:53:01.575560)  can0  098   [8]  FD 70 71 2F 48 D9 D7 60
 (2025-08-07 20:53:01.581174)  can0  043   [8]  FB 2C 3D E8 F3 A8 B2 CC
 (2025-08-07 20:53:01.581312)  can0  02F   [2]  32 02
 (2025-08-07 20:53:01.583048)  can0  043   [4]  00 8B 30 00
 (2025-08-07 20:53:01.583120)  can0  098   [1]  00
 (2025-08-07 20:53:01.588289)  can0  043   [8]  1E F6 8D 64 F0 C5 79 8F
 (2025-08-07 20:53:01.592086)  can0  043   [4]  00 8B 30 00
 (2025-08-07 20:53:01.592175)  can0  098   [1]  00
 (2025-08-07 20:53:01.593963)  can0  098   [8]  15 C8 AE D2 84 C4 48 10
 (2025-08-07 20:53:01.596392)  can0  02F   [2]  3C 02
 (2025-08-07 20:53:01.600383)  can0  043   [8]  B1 51 DC F3 AD 54 CA EE
 (2025-08-07 20:53:01.603017)  can0  043   [4]  00 8B 30 00
 (2025-08-07 20:53:01.603082)  can0  098   [1]  00
 (2025-08-07 20:53:01.607365)  can0  02F   [8]  E5 24 CD 38 F2 76 75 DA
 (2025-08-07 20:53:01.611324)  can0  02F   [2]  3C 02
